time,V_C,I_L,V_IN,V_C
0.0,0.0,0.0,9.38652824879815,0.0
5e-07,0.08681555526324501,0.09248444658488317,4.316920856830011,0.08681555526324501
1e-06,0.30506938566968844,0.13321959384846693,2.3093941274980607,0.30506938566968844
1.5e-06,0.5661486938711076,0.1485882854623742,4.147159977332948,0.5661486938711076
2e-06,0.8667513491964782,0.18200156031755288,7.840749497841799,0.8667513491964782
2.4999999999999998e-06,1.2598907682022997,0.24397260685634456,7.572286666950261,1.2598907682022997
3e-06,1.761595094055967,0.2930390160690932,4.633527089101996,1.761595094055967
3.5e-06,2.3231095228944594,0.30966914470128265,3.187157597990312,2.3231095228944594
4e-06,2.8965840409726367,0.3074426399184295,3.7837343305237683,2.8965840409726367
4.5e-06,3.4623600777632775,0.304400704046992,8.106670239453354,3.4623600777632775
4.9999999999999996e-06,4.055318751814686,0.33392149945540844,21.24778528541258,4.055318751814686
5.5e-06,4.786195916511448,0.4678964272637654,36.001506630883114,4.786195916511448
6e-06,5.8840743368788155,0.7316623071485902,51.32440845276404,5.8840743368788155
6.5e-06,7.593311395983262,1.1522225168458495,66.67709743534196,7.593311395983262
7e-06,10.243487589968334,1.7030114655230306,80.50844358507828,10.243487589968334
7.499999999999999e-06,13.979787575761266,2.35557181717785,91.19502798986892,13.979787575761266
8e-06,18.989242420594845,3.0551668496793356,100.2466359741814,18.989242420594845
8.5e-06,25.314650478906913,3.776891860377831,105.21432703810792,25.314650478906913
9e-06,32.95413844803594,4.467980517429228,107.0432346235824,32.95413844803594
9.499999999999999e-06,41.889322217294534,5.326737142293645,106.35127382384594,41.889322217294534
9.999999999999999e-06,54.14713578211221,7.968946845389025,106.16944620738224,54.14713578211221
1.05e-05,70.56012876631371,9.442421079707447,109.38285136670537,70.56012876631371
1.1e-05,88.28070287096506,9.498167336177763,108.3573196548803,88.28070287096506
1.15e-05,104.81912616701598,8.169576051936712,106.11090183627344,104.81912616701598
1.2e-05,118.24717125982438,6.294933884421457,99.62013230245554,118.24717125982438
1.2499999999999999e-05,128.22285417444704,4.806456368176801,92.0687218279576,128.22285417444704
1.3e-05,136.58487975843522,4.210399565298321,87.38286455870376,136.58487975843522
1.35e-05,143.75608001304948,3.521792703278382,82.84888389481608,143.75608001304948
1.4e-05,149.56291662892517,2.7337344677424666,75.45379136581573,149.56291662892517
1.45e-05,153.84025034714418,1.8772751891226742,66.85606812696373,153.84025034714418
1.4999999999999999e-05,156.47088691592995,0.9467144154950722,59.956374922,156.47088691592995
1.55e-05,157.28099763780122,-0.07825107614128379,52.56377006465522,157.28099763780122
1.6e-05,156.16748907022793,-1.1237693984501123,46.16370734498681,156.16748907022793
1.6499999999999998e-05,153.1096644546986,-2.183104830783373,40.33175464560167,153.1096644546986
1.7e-05,148.08841302163592,-3.2316564953456433,35.0100869293744,148.08841302163592
1.75e-05,141.13995623303688,-4.263915404449627,35.391747228770555,141.13995623303688
1.8e-05,132.0920536720399,-6.066693068316914,36.81799415948075,132.0920536720399
1.85e-05,115.78061924263594,-11.320885226299794,33.37090362728704,115.78061924263594
1.8999999999999998e-05,91.66870465591316,-14.233653177605074,29.14669128004045,91.66870465591316
1.95e-05,64.61102725918082,-14.621725523550412,24.501383990298393,64.61102725918082
1.9999999999999998e-05,38.675653556113105,-13.14226574829077,21.61812320179977,38.675653556113105
2.05e-05,16.73638061621658,-10.390223325173789,17.607580642476687,16.73638061621658
2.1e-05,0.35788675354961486,-7.292431587305493,13.7647527790459,0.35788675354961486
2.1499999999999997e-05,-10.801836582999181,-5.107383947024887,12.147806227376252,-10.801836582999181
2.2e-05,-19.693091368571856,-4.535603516939212,12.286389456304997,-19.693091368571856
2.2499999999999998e-05,-27.60534297661313,-4.005114293829957,9.750030660048699,-27.60534297661313
2.3e-05,-34.518496500848265,-3.456891226676492,5.838610314836115,-34.518496500848265
2.35e-05,-40.388750950528625,-2.885520710172712,0.8802575622938752,-40.388750950528625
2.4e-05,-45.23000535471793,-2.341350716794307,-3.896447605225788,-45.23000535471793
2.45e-05,-49.08697106487786,-1.830880672424557,-3.7460338339142907,-49.08697106487786
2.4999999999999998e-05,-51.99457207664452,-1.3071216118375952,-2.431706716223838,-51.99457207664452
2.55e-05,-53.912467573806154,-0.7618183795430253,-3.499418099756863,-53.912467573806154
2.6e-05,-54.81442733941681,-0.21330221386547477,-1.584432371196241,-54.81442733941681
2.65e-05,-54.706971525923564,0.3335396356716628,6.123155630972461,-54.706971525923564
2.7e-05,-53.533714226514356,0.930615219482658,15.046706366545877,-53.533714226514356
2.7499999999999998e-05,-51.21359522723434,1.5836302229016228,18.930204204636325,-51.21359522723434
2.8e-05,-47.68131736366415,2.2227998124232364,20.73611384858878,-47.68131736366415
2.8499999999999998e-05,-43.00607742916904,2.820761869161015,24.29217271664317,-43.00607742916904
2.9e-05,-37.24597207149357,3.392199023323464,26.303826718311175,-37.24597207149357
2.95e-05,-30.475641278404943,3.910573440473448,28.836326844929182,-30.475641278404943
2.9999999999999997e-05,-22.799709722168046,4.374219993539112,32.141700413287985,-22.799709722168046
3.05e-05,-14.30062140420791,4.79758666057904,32.778080329147144,-14.30062140420791
3.1e-05,-4.9622125556589065,5.354242607645156,30.34832989276606,-4.9622125556589065
3.15e-05,5.665734356229067,6.039221028533838,19.817640400004702,5.665734356229067
3.2e-05,16.503985871802293,5.568079820947411,6.6507533698501815,16.503985871802293
3.25e-05,26.10428931271299,4.833757749320922,-6.1221535530167,26.10428931271299
3.2999999999999996e-05,34.55415040134175,4.30437094980103,-18.585681471519734,34.55415040134175
3.35e-05,41.87144253066581,3.573503072165151,-26.370106235495808,41.87144253066581
3.4e-05,47.71014965449809,2.7126334963355863,-35.21982746866336,47.71014965449809
3.45e-05,51.83422615321088,1.7253040193418652,-43.89539518412621,51.83422615321088
3.5e-05,54.0744789889804,0.6903550526957678,-49.6513752388411,54.0744789889804
3.5499999999999996e-05,54.37142873332299,-0.3707725962860762,-51.34593252893452,54.37142873332299
3.6e-05,52.71566855285166,-1.4150482151470056,-54.115520873242275,52.71566855285166
3.65e-05,49.14791000650949,-2.4279756563819936,-53.95926917960644,49.14791000650949
3.7e-05,43.77086890307346,-3.368462405203506,-53.27495677835861,43.77086890307346
3.75e-05,36.71870292835811,-4.2363846847781605,-54.243784026318465,36.71870292835811
3.7999999999999995e-05,28.061542202982036,-5.239562267937184,-53.88657881812637,28.061542202982036
3.85e-05,14.887632287234366,-9.141038619659422,-52.75147057269416,14.887632287234366
3.9e-05,-4.623153603059561,-11.543466723317787,-52.59814331636609,-4.623153603059561
3.95e-05,-26.459126870698757,-11.693031186591282,-52.40471340186315,-26.459126870698757
3.9999999999999996e-05,-46.851626667047626,-10.118537639182918,-52.56660926789267,-46.851626667047626
4.0499999999999995e-05,-63.238081786330085,-7.476312350135483,-51.76368852020064,-63.238081786330085
4.1e-05,-74.7558130899472,-5.199387365592898,-48.043888823575415,-74.7558130899472
4.15e-05,-83.52962449765123,-4.429825728699946,-41.23705131742608,-83.52962449765123
4.2e-05,-91.16760396906713,-3.8003738191442764,-35.994931559789954,-91.16760396906713
4.2499999999999996e-05,-97.60754673861769,-3.1507578742486695,-28.26747849101297,-97.60754673861769
4.2999999999999995e-05,-102.70477260922817,-2.341747452943139,-25.16734257002212,-102.70477260922817
4.35e-05,-106.26183956575409,-1.496440665577509,-23.483204831344757,-106.26183956575409
4.4e-05,-108.21952137523654,-0.6125128818185732,-20.42332254360961,-108.21952137523654
4.45e-05,-108.51410328078259,0.2951911825029667,-17.129802867744893,-108.51410328078259
4.4999999999999996e-05,-107.13204216552205,1.1932229592598236,-15.710222176309381,-107.13204216552205
4.5499999999999995e-05,-104.1190273465865,2.0571072773176677,-15.544869016979483,-104.1190273465865
4.6e-05,-99.55444890848213,2.860405258427372,-16.904253240498928,-99.55444890848213
4.65e-05,-93.57649800731912,3.5745475237445135,-18.997764680677502,-93.57649800731912
4.7e-05,-86.3649812228213,4.201361443880913,-18.655712562037973,-86.3649812228213
4.7499999999999996e-05,-78.06196158690427,4.759090442869658,-17.322637110936455,-78.06196158690427
4.8e-05,-68.49044036049929,5.784713948515457,-16.94602171906794,-68.49044036049929
4.85e-05,-55.961522450778936,7.675656728217439,-14.571292374903054,-55.961522450778936
4.9e-05,-40.79350266832827,8.527297598692472,-10.77176938364332,-40.79350266832827
4.95e-05,-25.046698981936455,8.299339655853212,-5.097579914259974,-25.046698981936455
4.9999999999999996e-05,-10.338770126829694,7.5384512950357205,1.013335710666559,-10.338770126829694
5.05e-05,2.541427529464382,6.306696251313253,4.0689025872588624,2.541427529464382
5.1e-05,13.089741786293956,5.1846258066575714,5.2181602822561075,13.089741786293956
5.15e-05,22.19969328689502,4.730109735298495,7.928320832089502,22.19969328689502
5.2e-05,30.64392937122316,4.377816669640545,11.910796869708843,30.64392937122316
5.2499999999999995e-05,38.37255104326649,3.9620871639720026,15.427141586820571,38.37255104326649
5.3e-05,45.33363893270008,3.5504542232793703,19.21727070178042,45.33363893270008
5.35e-05,51.53861633486045,3.1562279402150613,24.843832819824076,51.53861633486045
5.4e-05,57.02864017274722,2.77409991087517,28.88761443209519,57.02864017274722
5.4499999999999997e-05,61.80126887509871,2.3845088295515313,32.76546948308479,61.80126887509871
5.4999999999999995e-05,65.8431081251125,1.9742142967065992,35.34036592546281,65.8431081251125
5.55e-05,69.1358934436031,1.581742812633648,37.18230927361001,69.1358934436031
5.6e-05,71.72050130339444,1.2129685026964006,41.31800339239006,71.72050130339444
5.65e-05,73.64096731484776,0.862958206646456,47.37980731807698,73.64096731484776
5.6999999999999996e-05,74.92933886537904,0.5435648613797384,55.08650600727201,74.92933886537904
5.7499999999999995e-05,75.74232633276453,0.3456834314906022,64.4257955479164,75.74232633276453
5.8e-05,76.26125857800832,0.2271974445236244,72.68619919099679,76.26125857800832
5.85e-05,76.62074563932693,0.18116407183909763,80.21096504746448,76.62074563932693
5.9e-05,76.97833483532497,0.2090191264873186,85.4976756434796,76.97833483532497
5.9499999999999996e-05,77.42701220934887,0.285351525298818,89.55889709562712,77.42701220934887
5.9999999999999995e-05,78.05469810311405,0.39310779167276594,92.00820284221211,78.05469810311405
6.05e-05,78.89185684551654,0.513993280043914,93.7020014494893,78.89185684551654
6.1e-05,79.96502283213819,0.6468124556175888,95.18594060852142,79.96502283213819
6.149999999999999e-05,81.28028137821984,0.772434106213921,95.24115631460188,81.28028137821984
6.2e-05,82.81569033721561,0.8812698320495578,98.2551329130322,82.81569033721561
6.25e-05,84.55509542586009,0.9895145765909389,97.8919552942536,84.55509542586009
6.3e-05,86.47349857677821,1.082395650478113,94.01307855554879,86.47349857677821
6.35e-05,88.52104369294484,1.1366552057077985,92.51300132317942,88.52104369294484
6.4e-05,90.64143490035184,1.1492204694761698,93.33421484671442,90.64143490035184
6.45e-05,92.77193654800804,1.1372037441788558,95.45381626024079,92.77193654800804
6.5e-05,94.87714214949754,1.1312441373167446,98.13896907809068,94.87714214949754
6.549999999999999e-05,96.97679723137541,1.1268157705449446,99.21735778014819,96.97679723137541
6.599999999999999e-05,99.04113816994501,1.1029003795430874,97.1372300307484,99.04113816994501
6.65e-05,101.02223472609059,1.0436565215474625,93.81466262772268,101.02223472609059
6.7e-05,102.85510079766222,0.9385325604946584,89.29977761836776,102.85510079766222
6.75e-05,104.45769441947606,0.7822666670215526,86.61343615099463,104.45769441947606
6.8e-05,105.73091776331415,0.5748868184653166,83.31979391128522,105.73091776331415
6.85e-05,106.57367827405989,0.3293524336414698,77.65247199061496,106.57367827405989
6.9e-05,106.91042357193186,0.032938138393603045,71.34963267310638,106.91042357193186
6.95e-05,106.65509852890638,-0.3223145713985023,65.98504785046094,106.65509852890638
7e-05,105.68958006168674,-0.7181770930048681,59.39673888518936,105.68958006168674
7.049999999999999e-05,103.95581888858412,-1.1671041345858155,51.372194341498165,103.95581888858412
7.099999999999999e-05,101.34519098396092,-1.652492986625978,44.60105575192764,101.34519098396092
7.15e-05,97.8143636308671,-2.1649432697918876,39.05143261786356,97.8143636308671
7.2e-05,93.33225260588176,-2.6682666527833225,32.81147011669647,93.33225260588176
7.25e-05,87.94924021551397,-3.150473435417992,26.161034280276407,87.94924021551397
7.3e-05,81.63279637309448,-3.671837877472198,19.868403740116257,81.63279637309448
7.35e-05,74.3662015308864,-4.16655912735934,10.402203563150817,74.3662015308864
7.4e-05,66.1705783706725,-4.688152110839735,-1.9935509600631853,66.1705783706725
7.45e-05,56.66924777112297,-5.930373365825655,-14.72568142855896,56.66924777112297
7.5e-05,42.56580984478872,-9.34183536528484,-25.726147422262965,42.56580984478872
7.549999999999999e-05,22.6231315140206,-11.804993799607162,-32.98021116072279,22.6231315140206
7.599999999999999e-05,-0.1279578107577457,-12.421056157058548,-34.45846422856109,-0.1279578107577457
7.65e-05,-22.251751939397444,-11.19651546410892,-32.621032662005035,-22.251751939397444
7.7e-05,-40.707978089431236,-8.600235138234579,-30.72985335399191,-40.707978089431236
7.75e-05,-53.862670438282926,-5.731863423855994,-29.654801520638998,-53.862670438282926
7.8e-05,-63.12009050704351,-4.553481889285089,-30.8794164050573,-63.12009050704351
7.85e-05,-71.09017567676055,-4.04152648938938,-32.382738097120324,-71.09017567676055
7.9e-05,-78.04751476845665,-3.466272804304514,-33.80876330229884,-78.04751476845665
7.95e-05,-83.92430878920624,-2.875617065541443,-34.58396891791486,-83.92430878920624
7.999999999999999e-05,-88.68992671515257,-2.2692050037680263,-36.345646911494136,-88.68992671515257
8.049999999999999e-05,-92.32717346571306,-1.6582516777171374,-35.75748064500186,-92.32717346571306
8.099999999999999e-05,-94.82715514991887,-1.0359427237295724,-31.134658790324956,-94.82715514991887
8.15e-05,-96.1179807847719,-0.3547577057587672,-26.220710818588458,-96.1179807847719
8.2e-05,-96.11963264643455,0.3582613964054777,-20.65322252275116,-96.11963264643455
8.25e-05,-94.80253108681836,1.064217547567044,-14.31250704418091,-94.80253108681836
8.3e-05,-92.14671611315319,1.8045745576102254,-9.409644925130216,-92.14671611315319
8.35e-05,-88.10581817702936,2.570771489724608,-5.000687500577478,-88.10581817702936
8.4e-05,-82.65614375238826,3.3095278249332574,-1.130967657723056,-82.65614375238826
8.45e-05,-75.89788324566227,3.9791685209796497,1.8072701974997911,-75.89788324566227
8.499999999999999e-05,-67.91525970950275,4.637258718002741,2.453082897139213,-67.91525970950275
8.549999999999999e-05,-58.472202324098056,5.8976940178784485,2.892955631968174,-58.472202324098056
8.599999999999999e-05,-45.0173087515205,8.54422619555422,5.302846341906731,-45.0173087515205
8.65e-05,-27.789392513638656,9.885788864084226,11.500236690620591,-27.789392513638656
8.7e-05,-9.241071681574546,9.865587403732068,20.856053545744643,-9.241071681574546
8.75e-05,8.375607398793688,9.092932961140598,33.43916873086572,8.375607398793688
8.8e-05,24.581617833614477,8.262687745031728,43.37701258524414,24.581617833614477
8.85e-05,39.02947895187611,7.203535407458409,52.85165509123361,39.02947895187611
8.9e-05,51.548361197167,6.329561344164058,62.39612911226223,51.548361197167
8.95e-05,62.58350623817519,5.618834242099089,74.38550503556989,62.58350623817519
8.999999999999999e-05,72.62658816227383,5.213481965209356,82.33574313921471,72.62658816227383
9.049999999999999e-05,82.02160383584354,4.959061167329652,85.30963972610805,82.02160383584354
9.099999999999999e-05,91.00679584268076,4.739203406568019,83.78897878893179,91.00679584268076
9.15e-05,99.52530369844669,4.440314469357065,76.14556657867013,99.52530369844669
9.2e-05,107.35209606117337,3.9860937540874226,66.3128609698438,107.35209606117337
9.25e-05,114.2130520946437,3.4117991992127927,55.68104268532931,114.2130520946437
9.3e-05,119.90837668393183,2.710796734406143,46.61224387992686,119.90837668393183
9.35e-05,124.15300986814313,1.857192307618591,40.8068450123565,124.15300986814313
9.4e-05,126.75335691900119,0.9507559311757348,40.86088756465572,126.75335691900119
9.449999999999999e-05,127.70682530450593,0.0813054467018739,43.45488144820989,127.70682530450593
9.499999999999999e-05,127.07164283052215,-0.7590348609814894,43.80838447322505,127.07164283052215
9.549999999999999e-05,124.89891690934849,-1.5767403676334726,41.57540194529535,124.89891690934849
9.6e-05,121.24059960882838,-2.369868432105571,39.20986057578179,121.24059960882838
9.65e-05,116.14948765235062,-3.1280583963415776,35.22451679827514,116.14948765235062
9.7e-05,109.69220816082554,-3.83309606691633,35.92876500195588,109.69220816082554
9.75e-05,102.02811422763273,-4.428824251254785,39.67835801641606,102.02811422763273
9.8e-05,93.34535808237715,-4.962606383155449,40.890475219991984,93.34535808237715
9.85e-05,83.12922533772131,-6.236069501323602,38.06730409432605,83.12922533772131
9.9e-05,70.0556962935065,-7.704384667571158,37.56067050969606,70.0556962935065
9.949999999999999e-05,55.47881731755777,-7.830445353536989,38.054838822725884,55.47881731755777
9.999999999999999e-05,41.74216792979716,-6.840840580787812,39.97153305655036,41.74216792979716
0.00010049999999999999,30.35867573743695,-5.490809446395498,37.760094552352925,30.35867573743695
0.000101,20.938112333041307,-4.855222088727789,33.315952380007914,20.938112333041307
0.0001015,12.280025971658603,-4.497948740949715,29.08272099296256,12.280025971658603
0.000102,4.277852746142983,-4.139952886452235,25.1892290817224,4.277852746142983
0.0001025,-3.054941303722993,-3.7775554856640294,21.127846307519487,-3.054941303722993
0.000103,-9.69389195600435,-3.3877932767675456,18.163274200520405,-9.69389195600435
0.0001035,-15.579914943241667,-2.9734581307916765,13.327173617657593,-15.579914943241667
0.000104,-20.67152640583368,-2.5172952872001133,8.391896145435659,-20.67152640583368
0.00010449999999999999,-24.949755564651692,-2.1072081915780925,4.795012251598894,-24.949755564651692
0.00010499999999999999,-28.500621862696107,-1.7283062409694785,3.5188913270873923,-28.500621862696107
0.00010549999999999999,-31.34521624419206,-1.3414897634438043,3.7050340540227005,-31.34521624419206
0.000106,-33.4694025210002,-0.9557554386135646,0.6375428086729557,-33.4694025210002
0.0001065,-34.92463258943243,-0.6182497757981603,-5.3175272081482525,-34.92463258943243
0.000107,-35.77446663234506,-0.3102307778636222,-7.798960565234686,-35.77446663234506
0.0001075,-36.06610674063034,-0.016567075421854094,-8.729361562780387,-36.06610674063034
0.000108,-35.83145176838823,0.2683270893538645,-10.02634338966457,-35.83145176838823
0.0001085,-35.08709733292642,0.5404918627288791,-7.70543465885046,-35.08709733292642
0.00010899999999999999,-33.858954382435655,0.7835077513914219,-3.872456598668518,-33.858954382435655
0.00010949999999999999,-32.15596193992065,1.0594502058919213,2.1728225285150486,-32.15596193992065
0.00010999999999999999,-29.914952174278042,1.3632799719361939,9.188505275890545,-29.914952174278042
0.00011049999999999999,-27.115158658331715,1.6760678666543054,20.80192004915058,-27.115158658331715
0.000111,-23.59189506171594,2.1431382589728956,35.23444987893309,-23.59189506171594
0.0001115,-19.147221562391653,2.663880595773374,47.72534646788146,-19.147221562391653
0.000112,-13.725798906240776,3.2124146200398123,60.05744534728701,-13.725798906240776
0.0001125,-7.170471760118851,3.8722939038222366,72.50909531360509,-7.170471760118851
0.000113,0.6407577849463366,4.558409348778138,85.02222348896666,0.6407577849463366
0.0001135,10.113316569940206,6.251793742396735,93.41997420101285,10.113316569940206
0.00011399999999999999,25.935981883007,10.635097356592514,101.17274059095482,25.935981883007
