time,V_C,I_L,V_IN,V_C
0.0,0.0,0.0,151.41159120159043,0.0
1e-06,5.477098770453395,2.886385495886354,138.20976722821266,5.477098770453395
2e-06,20.572037357242117,5.1586024655227956,123.16281304371688,20.572037357242117
3e-06,42.633976028308766,6.606743728636854,113.5902083061564,42.633976028308766
4e-06,68.6424185664199,7.339739188774327,108.21807987052213,68.6424185664199
4.9999999999999996e-06,96.15210332871749,7.405941466764133,102.32405937259153,96.15210332871749
6e-06,122.69222644548886,6.811524342912838,96.2813193110114,122.69222644548886
7e-06,146.03783442633227,5.719793996705352,81.81018283985915,146.03783442633227
8e-06,163.94844500089044,3.822260783180456,60.081774942790915,163.94844500089044
9e-06,173.75852429101687,1.4560169038044184,43.62210825966156,173.75852429101687
9.999999999999999e-06,174.40604962949902,-1.1431989920634997,33.12830978241011,174.40604962949902
1.1e-05,165.24600468722033,-3.749840641663815,32.33178506960512,165.24600468722033
1.2e-05,147.12160337193714,-5.9296909202266175,47.24535395404959,147.12160337193714
1.3e-05,122.40563163293746,-7.279731775753124,64.62394484067033,122.40563163293746
1.4e-05,94.46637691762733,-7.650801655446347,73.96764410445462,94.46637691762733
1.4999999999999999e-05,66.60630282396698,-7.286951570346873,82.64636587958721,66.60630282396698
1.6e-05,41.29235509420506,-6.2993416947415,80.62935755731917,41.29235509420506
1.7e-05,20.353245756154248,-4.95500145233437,73.02348859009282,20.353245756154248
1.8e-05,4.778655897979636,-3.446483756197581,67.62994907481331,4.778655897979636
1.8999999999999998e-05,-5.054867006471419,-1.8508473753333843,70.99347403340904,-5.054867006471419
1.9999999999999998e-05,-8.88326190394963,-0.21745895075564026,68.80499669069123,-8.88326190394963
2.1e-05,-6.909068568425651,1.2362474457274315,59.9078359253561,-6.909068568425651
2.2e-05,-0.11099958027046686,2.377086509314667,49.43920509087712,-0.11099958027046686
2.3e-05,10.066904961811208,3.0316638209672533,38.506747777820195,10.066904961811208
2.4e-05,21.854855856884313,3.283316814055139,33.61122274882588,21.854855856884313
2.4999999999999998e-05,33.88831098550786,3.1432752809348834,22.7993726929555,33.88831098550786
2.6e-05,44.65723952136949,2.6181808330317535,5.567342152790945,44.65723952136949
2.7e-05,52.480585925395,1.500291835771766,-12.160392089654156,52.480585925395
2.8e-05,55.47957452451614,0.12614061470367033,-25.5200900012226,55.47957452451614
2.9e-05,53.18387655069625,-1.3872466519396818,-22.932463780426062,53.18387655069625
2.9999999999999997e-05,45.4850700996842,-2.695098874584404,-12.343359232208563,45.4850700996842
3.1e-05,33.82959702706311,-3.5256553871416223,-4.38903332897501,33.82959702706311
3.2e-05,19.92320174741285,-3.920099816778692,-4.07488364477677,19.92320174741285
3.2999999999999996e-05,5.152345910263828,-4.00779164039922,-2.0778713979044126,5.152345910263828
3.4e-05,-9.36625178460287,-3.7977377804984758,-7.628237738629454,-9.36625178460287
3.5e-05,-22.796898456731274,-3.444444443688554,-20.03004728463339,-22.796898456731274
3.6e-05,-34.9338047217762,-3.0996753331572657,-23.526854072235537,-34.9338047217762
3.7e-05,-45.53874198924039,-2.5878495917034035,-20.793061097335546,-45.53874198924039
3.7999999999999995e-05,-53.79791576383188,-1.8282759747845545,-12.107322858640563,-53.79791576383188
3.9e-05,-58.79821632727625,-0.8502418491808444,-1.018342700199079,-58.79821632727625
3.9999999999999996e-05,-59.74236697974251,0.3935468355187015,11.592004400850682,-59.74236697974251
4.1e-05,-55.753876642633045,1.7446455669557412,16.47491384446055,-55.753876642633045
4.2e-05,-46.91682415530808,2.995170803790122,13.970737998114966,-46.91682415530808
4.2999999999999995e-05,-34.05127612917169,3.8934364501977914,13.150653531051441,-34.05127612917169
4.4e-05,-18.515755742838934,4.435822865813327,7.473548001008482,-18.515755742838934
4.4999999999999996e-05,-1.784640847739972,4.498976868175575,-2.660964335180334,-1.784640847739972
4.6e-05,14.159113172356903,4.034862904843899,-13.654560907461144,14.159113172356903
4.7e-05,27.40567129765266,3.0428215627058526,-22.59657352535097,27.40567129765266
4.8e-05,36.40490719265699,1.7958490964337952,-32.95469239340087,36.40490719265699
4.9e-05,40.341384653432804,0.32290352970391867,-49.432860794205524,40.341384653432804
4.9999999999999996e-05,38.494861221063815,-1.3768494915166989,-69.72429131414899,38.494861221063815
5.1e-05,29.67795152828578,-3.385016323512573,-96.172024393135,29.67795152828578
5.2e-05,13.06125473888535,-5.549823087348115,-115.76213560040827,13.06125473888535
5.3e-05,-11.322909638748603,-7.518144253445245,-138.19238603475918,-11.322909638748603
5.4e-05,-42.49997454054221,-9.262220703550645,-160.5950357148582,-42.49997454054221
5.4999999999999995e-05,-79.63765922168974,-10.720636429592476,-176.40995921305347,-79.63765922168974
5.6e-05,-121.18804008737716,-11.57128996535396,-186.50996583644996,-121.18804008737716
5.6999999999999996e-05,-164.48934484188163,-11.691945300141768,-184.44535959069256,-164.48934484188163
5.8e-05,-206.74359870696975,-10.989049304352788,-184.33776585673232,-206.74359870696975
5.9e-05,-244.92794308706948,-9.513052439651585,-180.93184744497734,-244.92794308706948
5.9999999999999995e-05,-276.3805975712546,-7.367816226077849,-176.58947717776533,-276.3805975712546
6.1e-05,-299.02078965057495,-4.78446439213462,-175.94911726269578,-299.02078965057495
6.2e-05,-311.5391845529395,-1.9436308290085602,-170.86585396734475,-311.5391845529395
6.3e-05,-313.1730005041988,1.0333206089578972,-162.87190917266986,-313.1730005041988
6.4e-05,-304.0688062981154,3.829281753207625,-148.2646453542366,-304.0688062981154
6.5e-05,-285.18151326067516,6.3946386975831455,-125.3851892888497,-285.18151326067516
6.599999999999999e-05,-256.2316147939314,9.208687341421685,-90.28111276320126,-256.2316147939314
6.7e-05,-217.45747623073171,11.673220567672743,-52.4528548807179,-217.45747623073171
6.8e-05,-169.9651477863939,13.922428216784898,-24.128634945823876,-169.9651477863939
6.9e-05,-115.25741005562544,15.438229175683446,-2.8442026741437534,-115.25741005562544
7e-05,-56.4391909857889,16.21758798588621,20.049682901025506,-56.4391909857889
7.099999999999999e-05,3.8596325975739845,16.1640125993892,42.89186471030294,3.8596325975739845
7.2e-05,62.242784961300714,15.272232139510193,61.04693422168494,62.242784961300714
7.3e-05,116.17161399670712,13.725984518621694,64.76718723882713,116.17161399670712
7.4e-05,163.0782031581106,11.461280460630586,62.80307964835601,163.0782031581106
7.5e-05,200.28921203033286,8.504914417134916,56.25837595751477,200.28921203033286
7.599999999999999e-05,225.40853780819612,4.998433853267603,50.79578171176165,225.40853780819612
7.7e-05,236.85625631199423,1.1728029520304037,46.99071389714314,236.85625631199423
7.8e-05,234.16180403059445,-2.5867078505726333,48.89558959853373,234.16180403059445
7.9e-05,218.3231591258624,-5.898792407745157,53.64451413416625,218.3231591258624
7.999999999999999e-05,191.50541474706466,-8.454745676634065,60.37502425091588,191.50541474706466
8.099999999999999e-05,156.66577578460385,-10.154207640382674,61.07032891428513,156.66577578460385
8.2e-05,117.02351369534463,-11.125428058092833,53.66364097719157,117.02351369534463
8.3e-05,75.27271936620572,-11.318323421040947,43.465418051989644,75.27271936620572
8.4e-05,34.22594132105213,-10.7247952914359,35.00937052063526,34.22594132105213
8.499999999999999e-05,-3.691913711725981,-9.659605822754783,33.76386988262433,-3.691913711725981
8.599999999999999e-05,-36.58052047587952,-7.988524830846528,45.716724569997005,-36.58052047587952
8.7e-05,-62.02036480548635,-5.663945694615819,54.98221708929762,-62.02036480548635
8.8e-05,-78.08184363439376,-2.950736921010162,54.64550002240262,-78.08184363439376
8.9e-05,-83.62336773284918,-0.04791908516840415,49.32478053417972,-83.62336773284918
8.999999999999999e-05,-78.91788595293181,2.511413201267784,42.02719451388571,-78.91788595293181
9.099999999999999e-05,-65.68752437482915,4.548018815459233,35.568380972485805,-65.68752437482915
9.2e-05,-45.86688457470975,6.056181194937374,21.91334075638817,-45.86688457470975
9.3e-05,-21.76199919685014,6.822314779371647,9.913946311767385,-21.76199919685014
9.4e-05,3.690215230384851,6.791257275131104,2.185983044393339,3.690215230384851
9.499999999999999e-05,27.80717938289062,6.15058226317536,-2.9582045772638557,27.80717938289062
9.6e-05,48.54945317416879,4.968909606176825,-10.231186760279913,48.54945317416879
9.7e-05,64.06842737011223,3.35323073763357,-19.822551448360805,64.06842737011223
9.8e-05,72.82930066569386,1.3004976226644693,-35.881627262431465,72.82930066569386
9.9e-05,73.52604587351071,-0.9079092166491809,-52.699041846119215,73.52604587351071
9.999999999999999e-05,65.85161397162324,-3.2464566238272043,-67.29317522840016,65.85161397162324
0.000101,49.51645874707587,-5.526488172145965,-76.92176982221383,49.51645874707587
0.000102,25.319919327682193,-7.477197735631448,-87.48235018369277,25.319919327682193
0.000103,-5.292408970363887,-8.920183166228574,-88.30421036080025,-5.292408970363887
0.000104,-40.06579026368204,-9.756564107406309,-80.72306152877105,-40.06579026368204
0.00010499999999999999,-76.25974528824199,-9.652802130684432,-82.85960100903814,-76.25974528824199
0.000106,-110.73920299237231,-8.863969771304102,-82.0890358303273,-110.73920299237231
0.000107,-141.12607408904955,-7.442118848912569,-76.42644757480402,-141.12607408904955
0.000108,-165.2173339163952,-5.49645253075334,-74.15196162212308,-165.2173339163952
0.00010899999999999999,-181.47003657062783,-3.2396297897366457,-74.39277099723142,-181.47003657062783
0.00010999999999999999,-189.10307603054252,-0.8785489812615513,-74.89553721209035,-189.10307603054252
0.000111,-188.0836373570638,1.399382276580194,-76.20037291941924,-188.0836373570638
0.000112,-179.14792892164792,3.3637641421729008,-80.4931394365348,-179.14792892164792
0.000113,-163.6582720303167,4.9040966955874055,-90.43730396706232,-163.6582720303167
0.00011399999999999999,-143.57382301074193,5.844939941200687,-89.9405499286533,-143.57382301074193
0.00011499999999999999,-120.91243136908287,6.327747798761065,-81.29520501733943,-120.91243136908287
0.000116,-97.14950757333426,6.451652541692227,-78.86287876203835,-97.14950757333426
0.000117,-73.47836802749092,6.266380610790735,-84.304633543248,-73.47836802749092
0.000118,-51.55803758087371,5.495172780803851,-86.54927532867208,-51.55803758087371
0.00011899999999999999,-33.30385686387472,4.301545383019548,-88.94711798781962,-33.30385686387472
0.00011999999999999999,-20.04604589192551,2.8250953744112164,-89.44675026382,-20.04604589192551
0.000121,-12.51275239154223,1.23447689315195,-88.66171623387814,-12.51275239154223
0.000122,-10.879393475349373,-0.3359597166659582,-81.69896998616038,-10.879393475349373
0.00012299999999999998,-14.665514857517618,-1.6498482425571028,-71.13464764862097,-14.665514857517618
0.000124,-22.59804485534754,-2.563322658784019,-67.35665240213736,-22.59804485534754
0.000125,-33.31142470861419,-3.1953860663158125,-74.70818068340401,-33.31142470861419
0.000126,-46.14444427554925,-3.720470352881181,-88.77957528869716,-46.14444427554925
0.000127,-60.972985472184405,-4.277101393009685,-97.92591036917204,-60.972985472184405
0.000128,-77.569711769354,-4.657155960980663,-109.65944909735272,-77.569711769354
0.000129,-95.4162727788737,-4.9583583430597855,-121.6867182512498,-95.4162727788737
0.00013,-113.9697534926375,-5.027328539812565,-132.45254451987313,-113.9697534926375
0.00013099999999999999,-132.5036071377125,-4.961586411788487,-141.9841592185747,-132.5036071377125
0.00013199999999999998,-150.46069607567634,-4.6903363443654875,-157.28285992114658,-150.46069607567634
0.000133,-167.18185081664888,-4.3471389263492854,-166.25391257188485,-167.18185081664888
0.000134,-182.50856701991665,-3.8906418325892873,-166.24796420382037,-182.50856701991665
0.000135,-195.7549629850718,-3.205679354768726,-162.28730959711132,-195.7549629850718
0.000136,-205.9210534801192,-2.2428846877678286,-157.73462307722215,-205.9210534801192
0.000137,-212.1510313292136,-1.1104242191023281,-150.53219802312756,-212.1510313292136
0.000138,-213.95899030935118,0.16585831319589572,-144.15898052283092,-213.95899030935118
0.000139,-210.86984141763094,1.4773698239397974,-149.1140997541937,-210.86984141763094
0.00014,-203.3570558220541,2.5540339880910823,-141.67620944841556,-203.3570558220541
0.00014099999999999998,-192.06306592379664,3.528069666149548,-129.54902159308335,-192.06306592379664
0.00014199999999999998,-177.27969388389522,4.436900969916794,-121.91673960793771,-177.27969388389522
0.000143,-159.5267836303783,5.084072195747361,-116.26757206436903,-159.5267836303783
0.000144,-139.95336083832095,5.4479172709625665,-107.67271780735477,-139.95336083832095
0.000145,-119.48199853693905,5.54958520987352,-102.393999774642,-119.48199853693905
0.000146,-99.2147883163309,5.330977044170251,-105.19497974415313,-99.2147883163309
0.000147,-80.46382053582835,4.763064653208961,-96.16923643112102,-80.46382053582835
0.000148,-64.14198845469355,4.0270648841108425,-83.89352635795392,-64.14198845469355
0.000149,-50.562650690742856,3.326652057255329,-68.49028502488699,-50.562650690742856
0.00015,-39.36955825440906,2.689087864650188,-55.99250372683211,-39.36955825440906
0.00015099999999999998,-30.43025321290156,2.1337043606265182,-37.23034783329525,-30.43025321290156
0.00015199999999999998,-23.10079777359755,1.828250250169152,-17.93709753932945,-23.10079777359755
0.000153,-16.397974129700707,1.8083064261194886,-1.0156346424474036,-16.397974129700707
0.000154,-9.38059268924193,1.9758845532116387,8.19200757979472,-9.38059268924193
0.000155,-1.7158637996465043,2.133851938815402,21.542660845634927,-1.7158637996465043
0.000156,6.568676605112868,2.400591947467521,38.668266578167,6.568676605112868
0.000157,16.28541351771537,2.861430824196475,58.09255384647067,16.28541351771537
0.000158,28.07294828782294,3.5099894645672878,68.71462779139411,28.07294828782294
0.000159,41.99863249328301,3.9605357352052306,75.21491605181677,41.99863249328301
0.00015999999999999999,57.213097874409726,4.236285441571108,89.61733415462541,57.213097874409726
0.00016099999999999998,73.42531214492561,4.479869674767036,95.28934555906778,73.42531214492561
0.00016199999999999998,90.12379928369656,4.489479510898676,97.20521349785825,90.12379928369656
0.000163,106.3690033823713,4.247149355131904,103.29407650690811,106.3690033823713
0.000164,121.40791270157209,3.846448298192974,108.80281062438726,121.40791270157209
0.000165,134.6023187713527,3.2553488175891805,113.65767259951825,134.6023187713527
0.000166,145.37488362944703,2.549269537835685,114.09523901437592,145.37488362944703
0.000167,153.3069034487638,1.6998395737073386,111.77464662425325,153.3069034487638
0.000168,157.87505522007413,0.7570711798160096,103.40225842811533,157.87505522007413
0.000169,158.746451436037,-0.29901645254132925,102.8599033704031,158.746451436037
0.00016999999999999999,155.6648878118721,-1.350853939301567,100.94327724410186,155.6648878118721
0.00017099999999999998,148.85767171756174,-2.3099416261115673,94.50576789579227,148.85767171756174
0.00017199999999999998,138.70348644100676,-3.139239928511905,90.13117403317432,138.70348644100676
0.000173,125.78572315853656,-3.823749657311705,81.28609521678429,125.78572315853656
0.000174,110.61474471937578,-4.312670580401913,62.7078041002959,110.61474471937578
0.000175,93.71291255035888,-4.8504892407322755,39.217627485554544,93.71291255035888
0.000176,74.49195837900649,-5.4567097857899345,23.016285077124863,74.49195837900649
0.000177,53.356601772124634,-5.962348440989139,10.366105211648058,53.356601772124634
0.000178,30.6022390549466,-6.259934438761678,1.486102114075897,30.6022390549466
0.000179,7.3484871197343935,-6.238437887424689,-0.8156475890929444,7.3484871197343935
0.00017999999999999998,-15.131291317421379,-5.859708046956069,-8.725089301696947,-15.131291317421379
0.00018099999999999998,-35.62949467976021,-5.157306281746648,-20.76135871944501,-35.62949467976021
0.00018199999999999998,-53.4026570682478,-4.44257878440336,-32.33865293874908,-53.4026570682478
0.000183,-68.44859019180223,-3.6654329469455913,-40.32392945469219,-68.44859019180223
0.000184,-80.43767301796001,-2.7993134909947144,-46.02235216490855,-80.43767301796001
0.000185,-89.12755166118716,-1.899584541860703,-51.16552359464231,-89.12755166118716
0.000186,-94.47468915745931,-0.9805818433266378,-54.89256309507725,-94.47468915745931
0.000187,-96.49622352087195,-0.1250272219220563,-58.41555815231354,-96.49622352087195
0.000188,-95.55825286886852,0.6047653097383479,-65.4729210914074,-95.55825286886852
0.00018899999999999999,-92.3477028769583,1.070744050801328,-74.67822607977288,-92.3477028769583
0.00018999999999999998,-87.90947892385628,1.30710241850777,-80.94013782216898,-87.90947892385628
0.00019099999999999998,-82.9749461946606,1.3333572058100105,-90.60639272599757,-82.9749461946606
0.000192,-78.43581746521595,1.046976087435599,-104.3970464614411,-78.43581746521595
0.000193,-75.6751832286764,0.44245378867006824,-116.19692323885083,-75.6751832286764
0.000194,-75.50082606367569,-0.38547505249601066,-120.49598362672106,-75.50082606367569
0.000195,-78.50466109557641,-1.2098702571712572,-109.58153878308634,-78.50466109557641
0.000196,-83.98751326068961,-1.713063961632256,-98.95005706606979,-83.98751326068961
0.000197,-90.74649003604966,-1.8854635199446412,-83.47077950272319,-90.74649003604966
0.000198,-97.33981816188923,-1.622479934277339,-66.64396914373228,-97.33981816188923
0.00019899999999999999,-102.16698511566608,-0.9060424077032319,-57.56284993316023,-102.16698511566608
0.00019999999999999998,-103.75913870165311,0.044213365952021216,-48.68277057010879,-103.75913870165311
0.00020099999999999998,-101.65961673502561,1.0769241803497474,-51.1277494249687,-101.65961673502561
0.000202,-95.99417111341234,1.9505248414699643,-67.99454540234265,-95.99417111341234
0.000203,-87.88729887404071,2.347023226548318,-81.96831289971554,-87.88729887404071
0.000204,-79.29343463329286,2.1778709663011635,-99.38362747887915,-79.29343463329286
0.000205,-72.27763123710014,1.594551418828949,-111.1697011531458,-72.27763123710014
0.000206,-67.8516498798443,0.7446507157670808,-118.51181275850969,-67.8516498798443
0.000207,-67.02443031899708,-0.2784435096033112,-111.28985235041762,-67.02443031899708
0.000208,-69.60890637195159,-1.107738414106678,-96.06980257780756,-69.60890637195159
0.00020899999999999998,-74.67742810627462,-1.5682900849130763,-85.19517386841184,-74.67742810627462
0.00020999999999999998,-80.75378129466695,-1.6506353228103865,-81.97334705846346,-80.75378129466695
0.00021099999999999998,-86.65317758714433,-1.5185106452697703,-86.64033543615288,-86.65317758714433
0.000212,-92.00501906063401,-1.3826566398068882,-93.0384385394172,-92.00501906063401
0.000213,-96.9354843011127,-1.273670142894851,-98.75813339704202,-96.9354843011127
0.000214,-101.48600740146242,-1.1941059004354388,-103.32379150551765,-101.48600740146242
0.000215,-105.78324077275673,-1.115469998896942,-103.38082400253724,-105.78324077275673
0.000216,-109.66456001440494,-0.9585692031793688,-97.31015628837021,-109.66456001440494
0.000217,-112.66221019546136,-0.6392047756752429,-89.31472436894589,-112.66221019546136
0.00021799999999999999,-114.1607221400384,-0.1410726858182323,-87.85865857439946,-114.1607221400384
0.00021899999999999998,-113.70631239354549,0.3791090929433404,-92.3012767451035,-113.70631239354549
0.00021999999999999998,-111.52614286682905,0.7722786935734333,-88.90352758621317,-111.52614286682905
0.00022099999999999998,-107.99650416797147,1.131439581979951,-87.8406128518519,-107.99650416797147
0.000222,-103.24890753601501,1.4081720165583604,-90.8662781972661,-103.24890753601501
0.000223,-97.83291032717446,1.476108944116334,-98.11503733321499,-97.83291032717446
0.000224,-92.5959731549266,1.316329520558241,-113.70322224124538,-92.5959731549266
0.000225,-88.74319233635737,0.6773749153903028,-129.03701116076917,-88.74319233635737
0.000226,-87.78869880264824,-0.15534250891635015,-140.34544434044824,-87.78869880264824
