time,V_C,I_L,V_IN,V_C
0.0,0.0,0.0,-0.6783662748541593,0.0
1e-06,-0.017803749633455514,-0.36542171862512474,-0.6277947436930591,-0.017803749633455514
2e-06,-0.06719963897310799,-0.6599690648662292,-0.578325877525315,-0.06719963897310799
3e-06,-0.14070666745845634,-0.8654903208614281,-0.527665265970979,-0.14070666745845634
4e-06,-0.22898776779123517,-0.974428659601914,-0.4581856696416916,-0.22898776779123517
4.9999999999999996e-06,-0.3220547079492102,-0.9551174073821472,-0.35477443195728725,-0.3220547079492102
6e-06,-0.4079143606616778,-0.838294736367096,-0.20380259944916582,-0.4079143606616778
7e-06,-0.4772420547070581,-0.6092101879095886,-0.029148440133959237,-0.4772420547070581
8e-06,-0.5206461098146298,-0.2799942800250825,0.12312988818309198,-0.5206461098146298
9e-06,-0.5273532882347547,0.13247145403447513,0.25556556675088027,-0.5273532882347547
9.999999999999999e-06,-0.49360826594264284,0.5767090759970873,0.34636778849738575,-0.49360826594264284
1.1e-05,-0.4171887217702908,1.019547578688665,0.41153255382541987,-0.4171887217702908
1.2e-05,-0.30002221927622236,1.4331265494230248,0.5174281917939735,-0.30002221927622236
1.3e-05,-0.14129672141878175,1.927139667930504,0.6170872352803054,-0.14129672141878175
1.4e-05,0.07358032365902668,2.539879137947008,0.7541126734604171,0.07358032365902668
1.4999999999999999e-05,0.3320337752461178,2.826631190530964,0.8659719586258365,0.3320337752461178
1.6e-05,0.5990258072681685,2.6760289760298996,0.965262711789444,0.5990258072681685
1.7e-05,0.8327671837637585,2.172426094610119,1.0772208714404332,0.8327671837637585
1.8e-05,1.0179705009685993,1.7471411499990712,1.1722974461871951,1.0179705009685993
1.8999999999999998e-05,1.1701340231969082,1.4647242153431204,1.2509583919852492,1.1701340231969082
1.9999999999999998e-05,1.3008691057355322,1.2707757795191217,1.2947286174739534,1.3008691057355322
2.1e-05,1.4099128809349268,1.0136106712223825,1.2991848961908152,1.4099128809349268
2.2e-05,1.493176635120983,0.7308633414763784,1.2757407934482876,1.493176635120983
2.3e-05,1.5483367089889113,0.425620041555894,1.2361122780410176,1.5483367089889113
2.4e-05,1.5743214484590877,0.11781239357629021,1.2413260841631066,1.5743214484590877
2.4999999999999998e-05,1.5709452250354223,-0.18392481637111344,1.2572923462113215,1.5709452250354223
2.6e-05,1.5400910727705528,-0.45483052861712503,1.2922988679273553,1.5400910727705528
2.7e-05,1.4865143028978578,-0.659300945061506,1.2318371033852569,1.4865143028978578
2.8e-05,1.4150953999313056,-0.8395953729211825,1.1550765800564737,1.4150953999313056
2.9e-05,1.327421901820655,-0.9927701724264048,1.098446946056297,1.327421901820655
2.9999999999999997e-05,1.227027572966962,-1.1100721014468353,1.0464789145397342,1.227027572966962
3.1e-05,1.1176665657796399,-1.1738473902337452,1.0351254206754246,1.1176665657796399
3.2e-05,1.0058850360743088,-1.1623469654460516,1.0446795107619358,1.0058850360743088
3.2999999999999996e-05,0.8986720016408886,-1.0779339117029056,1.0427611164809378,0.8986720016408886
3.4e-05,0.8026156933354097,-0.9265083633488387,1.0695433182698866,0.8026156933354097
3.5e-05,0.7235792095740184,-0.7251733658945795,1.1834396663751623,0.7235792095740184
3.6e-05,0.6676780467918908,-0.4335998616017365,1.3000409612283172,0.6676780467918908
3.7e-05,0.6430859064181509,-0.08064758993322169,1.3920454912274942,0.6430859064181509
3.7999999999999995e-05,0.6533791922577897,0.2923068097902443,1.4433883917813524,0.6533791922577897
3.9e-05,0.6985437210366733,0.6514583996692798,1.4617883218344576,0.6985437210366733
3.9999999999999996e-05,0.7757654752593256,0.9549396057602414,1.418963481967167,0.7757654752593256
4.1e-05,0.8771567586646375,1.1545778235906854,1.3758563508677297,0.8771567586646375
4.2e-05,0.9924660995990288,1.258456510839138,1.419848313105812,0.9924660995990288
4.2999999999999995e-05,1.1143915715936656,1.2920979663222312,1.5050619644226688,1.1143915715936656
4.4e-05,1.2375963260446428,1.2872463029402075,1.601608881498223,1.2375963260446428
4.4999999999999996e-05,1.3598709092433252,1.2841602681218507,1.7258460764509178,1.3598709092433252
4.6e-05,1.480824891594704,1.2420664235851189,1.8903582438414568,1.480824891594704
4.7e-05,1.5977628013355258,1.210511900759665,2.0619744080619786,1.5977628013355258
4.8e-05,1.7133291053933024,1.2117537958026061,2.2688107807271924,1.7133291053933024
4.9e-05,1.831730934570844,1.2675660796774446,2.47236100338338,1.831730934570844
4.9999999999999996e-05,1.957347791998146,1.3626399623204255,2.64637758702907,1.957347791998146
5.1e-05,2.0926223549189045,1.4640429074490378,2.803725178874339,2.0926223549189045
5.2e-05,2.235763115306888,1.5437480300566155,2.835542459155788,2.235763115306888
5.3e-05,2.3837021584212277,1.5409248807407032,2.7996909179462803,2.3837021584212277
5.4e-05,2.5245581320085075,1.395699812854892,2.741244042612167,2.5245581320085075
5.4999999999999995e-05,2.6457320698585396,1.1337376504337235,2.6382260075690427,2.6457320698585396
5.6e-05,2.738424804999524,0.807542696573547,2.511553566616473,2.738424804999524
5.6999999999999996e-05,2.7962842557167527,0.3912331340460878,2.35619135296509,2.7962842557167527
5.8e-05,2.8109065250479115,-0.07506047128903032,2.204458603110474,2.8109065250479115
5.9e-05,2.780285386857642,-0.5787407375078426,2.153046559606759,2.780285386857642
5.9999999999999995e-05,2.7016123418906046,-1.0627320590443359,2.1343494466476205,2.7016123418906046
6.1e-05,2.579191286177099,-1.504968942154006,2.1147419735892083,2.579191286177099
6.2e-05,2.413752242482644,-1.9738635676443603,2.121814908778804,2.413752242482644
6.3e-05,2.208598613248332,-2.269428735938511,2.118890840363278,2.208598613248332
6.4e-05,1.9978133416621666,-2.0868921616441463,2.128712887597472,1.9978133416621666
6.5e-05,1.81644754570535,-1.7209598201040446,2.151186387261054,1.81644754570535
6.599999999999999e-05,1.6692566406727647,-1.374425558672083,2.195686923266554,1.6692566406727647
6.7e-05,1.554882478634551,-1.0242290758374322,2.183871193436495,1.554882478634551
6.8e-05,1.4748519749341908,-0.6555183746107738,2.1701132666122716,1.4748519749341908
6.9e-05,1.4293883456337464,-0.30290193809936267,2.1392034586803255,1.4293883456337464
7e-05,1.415001953689136,-0.006556851815623599,2.0655987893353966,1.415001953689136
7.099999999999999e-05,1.426849831440921,0.24542949618234933,2.0057590092333437,1.426849831440921
7.2e-05,1.4606225731679336,0.44854910445039886,1.9320010214866308,1.4606225731679336
7.3e-05,1.509601578090507,0.5705307186011773,1.9068500227827456,1.509601578090507
7.4e-05,1.5667667644732073,0.6201191797556123,1.9058398226153315,1.5667667644732073
7.5e-05,1.6266429673363947,0.6300472940817311,1.9163460427194732,1.6266429673363947
7.599999999999999e-05,1.685881629648907,0.6070325322804545,1.9240775735251645,1.685881629648907
7.7e-05,1.7413256531902188,0.5542437188144712,1.9277619117471079,1.7413256531902188
7.8e-05,1.790436550767326,0.4749546152191913,1.8577129697103871,1.790436550767326
7.9e-05,1.829493812305882,0.32917338864021123,1.7653351055781108,1.829493812305882
7.999999999999999e-05,1.8515583822201525,0.13311126411163612,1.6554335446530009,1.8515583822201525
8.099999999999999e-05,1.8527506222137415,-0.10942644859590983,1.5545845217369867,1.8527506222137415
8.2e-05,1.8292567605340544,-0.3819716237908586,1.464145199904503,1.8292567605340544
8.3e-05,1.779321558669679,-0.660985565810462,1.3899765808492064,1.779321558669679
8.4e-05,1.7038334409657712,-0.9217600982168187,1.309579989696339,1.7038334409657712
8.499999999999999e-05,1.6041468255314713,-1.1648101558027122,1.3085600592787634,1.6041468255314713
8.599999999999999e-05,1.4848793374740827,-1.318698381737658,1.3878762234787685,1.4848793374740827
8.7e-05,1.3579135371342979,-1.3221640370774952,1.4517831313251703,1.3579135371342979
8.8e-05,1.236566693871413,-1.2132263524342726,1.4913356894882561,1.236566693871413
8.9e-05,1.1300988891885526,-1.0128109680206243,1.5312204185783111,1.1300988891885526
8.999999999999999e-05,1.0457699946724366,-0.7426144641077985,1.6124320294411976,1.0457699946724366
9.099999999999999e-05,0.9902434231951662,-0.41906006555216696,1.7284396976036451,0.9902434231951662
9.2e-05,0.9679738988358483,-0.044458358330647034,1.7765201467524108,0.9679738988358483
9.3e-05,0.9817470084720322,0.32856358294720817,1.7595353520358592,0.9817470084720322
9.4e-05,1.0287151505541374,0.6427843429150347,1.6785260243417213,1.0287151505541374
9.499999999999999e-05,1.0994878268917496,0.8183784705112781,1.5357648253124585,1.0994878268917496
9.6e-05,1.1815008760486727,0.8918892043152601,1.3433122791904577,1.1815008760486727
9.7e-05,1.2629934414597261,0.7856711081285807,1.1622789028183411,1.2629934414597261
9.8e-05,1.3267668328664404,0.5520357323302795,0.980426385210268,1.3267668328664404
9.9e-05,1.3638473178797637,0.20661607246269695,0.8726551987529346,1.3638473178797637
9.999999999999999e-05,1.3653539073032788,-0.16920040281520413,0.8104468058926793,1.3653539073032788
0.000101,1.331462191996824,-0.5451047117119747,0.7152013062604167,1.331462191996824
0.000102,1.2610515733742675,-0.9229110678228266,0.5817862426041962,1.2610515733742675
0.000103,1.1547531293598396,-1.3197268786835359,0.4505981314904447,1.1547531293598396
0.000104,1.0087806948834572,-1.750704654294865,0.37426638203412377,1.0087806948834572
0.00010499999999999999,0.8161968738857386,-2.293979267751913,0.27738269008652655,0.8161968738857386
0.000106,0.5767831072126578,-2.640188756126534,0.13729684026358085,0.5767831072126578
0.000107,0.322154197905007,-2.5758040649123437,0.01091408666906848,0.322154197905007
0.000108,0.09403054762157453,-2.1930262206650455,-0.08621616408380894,0.09403054762157453
0.00010899999999999999,-0.09655695630948075,-1.816159110496104,-0.16983368477856445,-0.09655695630948075
0.00010999999999999999,-0.25558186211093636,-1.5311035657032186,-0.18471505725264464,-0.25558186211093636
0.000111,-0.38820158729619336,-1.2492276863263636,-0.16984208733143463,-0.38820158729619336
0.000112,-0.4922932412388106,-0.9312552324086232,-0.14639590704702277,-0.4922932412388106
0.000113,-0.5650218783624692,-0.595287776137856,-0.15172701185833865,-0.5650218783624692
0.00011399999999999999,-0.6059517127753445,-0.26660181085716084,-0.16440944714064643,-0.6059517127753445
0.00011499999999999999,-0.6164567198426443,0.041278754273457535,-0.1993185847223824,-0.6164567198426443
0.000116,-0.599973713176544,0.2879606749145678,-0.3022586322891272,-0.599973713176544
0.000117,-0.5640910636163711,0.4585982796361974,-0.40849157944436126,-0.5640910636163711
0.000118,-0.5160691077148779,0.5395257470810214,-0.5508885288243153,-0.5160691077148779
0.00011899999999999999,-0.46507845795925973,0.5058566361803524,-0.691219016187156,-0.46507845795925973
0.00011999999999999999,-0.42400700374327216,0.3487303277242937,-0.8322465731942538,-0.42400700374327216
0.000121,-0.4018818737508258,0.1163011054352673,-0.8803384334825006,-0.4018818737508258
0.000122,-0.4025401526216771,-0.12791975273765085,-0.876528736946328,-0.4025401526216771
0.00012299999999999998,-0.42550087033089784,-0.34850837606849566,-0.8252262348719505,-0.42550087033089784
0.000124,-0.46602016186679346,-0.4876245899524116,-0.7492998484623119,-0.46602016186679346
0.000125,-0.5159086088765534,-0.5502284975783891,-0.7385014075248172,-0.5159086088765534
0.000126,-0.5700715228084182,-0.5840657406005322,-0.8144591012708361,-0.5700715228084182
0.000127,-0.6271882010457432,-0.6137070897858543,-0.8909683794141742,-0.6271882010457432
0.000128,-0.6866136297178749,-0.6360212286088136,-0.9168080687701687,-0.6866136297178749
0.000129,-0.74764052199295,-0.6401242060929041,-0.912248838583734,-0.74764052199295
0.00013,-0.8073583557512451,-0.6045926285633026,-0.8643467354523219,-0.8073583557512451
0.00013099999999999999,-0.8608835186561423,-0.5095718755427309,-0.7923688469645782,-0.8608835186561423
0.00013199999999999998,-0.9025733389864803,-0.3576374601214171,-0.7669763832307241,-0.9025733389864803
0.000133,-0.9284233636202411,-0.18414159325015778,-0.7239132175719915,-0.9284233636202411
0.000134,-0.9370186067877362,0.0052641473630158165,-0.6178326301542597,-0.9370186067877362
0.000135,-0.92591344342429,0.23860068163298445,-0.5470756705731822,-0.92591344342429
0.000136,-0.8913456974464421,0.4806595125381659,-0.5600739371127886,-0.8913456974464421
0.000137,-0.8362368625452493,0.6650289808143123,-0.5941612423151372,-0.8362368625452493
0.000138,-0.7668219631591402,0.7813527008880162,-0.6306635062853115,-0.7668219631591402
0.000139,-0.6896593793736806,0.824131536327169,-0.6523343588923348,-0.6896593793736806
0.00014,-0.6124661003092394,0.7875138986445086,-0.6903919531280087,-0.6124661003092394
0.00014099999999999998,-0.5415565650700357,0.6944998496296996,-0.7393044071215147,-0.5415565650700357
0.00014199999999999998,-0.48235328453649184,0.5340243010786657,-0.8398726621847862,-0.48235328453649184
0.000143,-0.4420053348961049,0.30781499310429555,-0.8892477276872987,-0.4420053348961049
0.000144,-0.4242824210268691,0.06772728146420119,-0.8489661684457467,-0.4242824210268691
0.000145,-0.4279100247842685,-0.14003693280888202,-0.7647580823482214,-0.4279100247842685
0.000146,-0.44865728036691,-0.2825398833086831,-0.7271698576116059,-0.44865728036691
0.000147,-0.48000657823061005,-0.3711849322301604,-0.7179413756830422,-0.48000657823061005
0.000148,-0.518282207409592,-0.4319754832779505,-0.8004981843402005,-0.518282207409592
0.000149,-0.5628333744967153,-0.5029721361399545,-0.8759501844309403,-0.5628333744967153
0.00015,-0.614319584382418,-0.5809697605566796,-0.9386122253211125,-0.614319584382418
0.00015099999999999998,-0.6732520010807262,-0.6507821326526886,-1.0128089674300786,-0.6732520010807262
0.00015199999999999998,-0.7378159466534671,-0.7065335195684826,-1.0594980511830951,-0.7378159466534671
0.000153,-0.8074863714009319,-0.7517418385189272,-1.0722201431831109,-0.8074863714009319
0.000154,-0.8797959457405619,-0.7561639326050152,-1.0386345985167886,-0.8797959457405619
0.000155,-0.9491912234938438,-0.6893601087507362,-0.9876695943709844,-0.9491912234938438
0.000156,-1.0092447927730726,-0.565130242380207,-0.9453785007609004,-1.0092447927730726
0.000157,-1.0553936770104562,-0.40004712386888297,-0.9769936901142439,-1.0553936770104562
0.000158,-1.0857677510500214,-0.2406446526357738,-1.0536013079948365,-1.0857677510500214
0.000159,-1.1027457119496156,-0.12950241086549832,-1.1297482111725734,-1.1027457119496156
0.00015999999999999999,-1.1115458336350827,-0.05525333037610968,-1.1756542812874955,-1.1115458336350827
0.00016099999999999998,-1.1141943501991385,-0.004967849151805845,-1.1869551304939012,-1.1141943501991385
0.00016199999999999998,-1.1129128147308487,0.032449843930661276,-1.1421320919027111,-1.1129128147308487
0.000163,-1.107126452129585,0.08800115172444233,-1.1147396161802923,-1.107126452129585
0.000164,-1.0958844332108975,0.1499091890749915,-1.0951561872729965,-1.0958844332108975
0.000165,-1.0787456598026552,0.20718734583286372,-1.0645243528566746,-1.0787456598026552
0.000166,-1.0563507690824383,0.26369439299872627,-1.0311904263651948,-1.0563507690824383
0.000167,-1.028375773960585,0.3202260009935043,-0.9846516598004577,-1.028375773960585
0.000168,-0.9950512649594759,0.3794822799268589,-0.9403439903630428,-0.9950512649594759
0.000169,-0.9560344605954414,0.4382426025091952,-0.8546137642075713,-0.9560344605954414
0.00016999999999999999,-0.9104586040284709,0.5174892654749551,-0.7660703655753365,-0.9104586040284709
0.00017099999999999998,-0.8560753691561006,0.6303720342919078,-0.6514536382876719,-0.8560753691561006
0.00017199999999999998,-0.7908616385712697,0.7325485236987416,-0.530339375435539,-0.7908616385712697
0.000173,-0.7152749616971891,0.8648652281325163,-0.3882939691103077,-0.7152749616971891
0.000174,-0.6260611607056195,0.9958056091959898,-0.2994293658279693,-0.6260611607056195
0.000175,-0.5251045965122589,1.1196311264026957,-0.22154976231586682,-0.5251045965122589
0.000176,-0.413839257469571,1.194543791157743,-0.1642675062971367,-0.413839257469571
0.000177,-0.2980090781944372,1.2172974845568023,-0.10081225598271734,-0.2980090781944372
0.000178,-0.1823797652531719,1.2060575882041993,-0.015606767746324982,-0.1823797652531719
0.000179,-0.06858118909896294,1.1710732600290465,0.013282888994136497,-0.06858118909896294
0.00017999999999999998,0.039031598835669985,1.0782602660905123,-0.026436553380749978,0.039031598835669985
0.00018099999999999998,0.13420968490190646,0.9093031790110434,-0.10119342250089233,0.13420968490190646
0.00018199999999999998,0.20960238993213695,0.659315603616247,-0.17780548309029579,0.20960238993213695
0.000183,0.25816911294965733,0.35653534173346774,-0.30032420272749716,0.25816911294965733
0.000184,0.2747536281126345,-0.02082933541533638,-0.4214384131994227,0.2747536281126345
0.000185,0.2538547786842535,-0.41175012300191294,-0.5700988666048421,0.2538547786842535
0.000186,0.19468811174689954,-0.8295105642136252,-0.7393776331228292,0.19468811174689954
0.000187,0.09361533620219471,-1.2970181898561586,-0.8897241576428943,0.09361533620219471
0.000188,-0.05688067452546251,-1.9000361261364624,-1.0003880554492857,-0.05688067452546251
0.00018899999999999999,-0.2859732222115123,-2.8957098886225285,-1.1046130110425385,-0.2859732222115123
0.00018999999999999998,-0.5908071123557699,-3.3118016357281506,-1.2021707153683758,-0.5908071123557699
0.00019099999999999998,-0.8932511672907771,-2.917022368479275,-1.2790159494479134,-0.8932511672907771
0.000192,-1.1378544058328808,-2.216074877845353,-1.3639646342761886,-1.1378544058328808
0.000193,-1.323090613227696,-1.718500333592898,-1.518482591565847,-1.323090613227696
0.000194,-1.4740256423315725,-1.4563847229185038,-1.66683897119511,-1.4740256423315725
0.000195,-1.6031077989782767,-1.260555167231496,-1.763963211356259,-1.6031077989782767
0.000196,-1.7182111862699758,-1.170611355093468,-1.7710578930598142,-1.7182111862699758
0.000197,-1.8198595462727145,-0.9439877325613794,-1.6761844585935581,-1.8198595462727145
0.000198,-1.89498743297159,-0.622872912120165,-1.5432921914495659,-1.89498743297159
0.00019899999999999999,-1.935715057167818,-0.21957709703051656,-1.4210528817918158,-1.935715057167818
0.00019999999999999998,-1.9360166114009205,0.20905230530307048,-1.3395575447110608,-1.9360166114009205
0.00020099999999999998,-1.8953304005488207,0.6484704883992952,-1.2585102249598203,-1.8953304005488207
0.000202,-1.8130935358851092,1.0671542919106274,-1.142149630553027,-1.8130935358851092
0.000203,-1.691261249048301,1.498290154454873,-0.9949947164173748,-1.691261249048301
0.000204,-1.5197669779802465,2.150479695182773,-0.8831558189582228,-1.5197669779802465
0.000205,-1.274706185080929,2.9042984070352786,-0.7753626638180542,-1.274706185080929
0.000206,-0.9857800079724292,3.004861783379124,-0.6336930175089337,-0.9857800079724292
0.000207,-0.7140416490261825,2.6288841131116962,-0.43961970101130293,-0.7140416490261825
0.000208,-0.47989820750689416,2.291508507621629,-0.25779771350818304,-0.47989820750689416
0.00020899999999999998,-0.27344072211555365,2.035176108086501,-0.12916840230107526,-0.27344072211555365
0.00020999999999999998,-0.09245536002420507,1.757071189056828,-0.05378935463511923,-0.09245536002420507
0.00021099999999999998,0.06271621843405548,1.4973004991322734,-0.015204179226875328,0.06271621843405548
0.000212,0.19277458832995367,1.233465484232663,-0.0011957026651294906,0.19277458832995367
0.000213,0.29702102268596386,0.9553045549479844,0.042759951357266276,0.29702102268596386
0.000214,0.37490193635110963,0.6802205331202504,0.12801208099403702,0.37490193635110963
0.000215,0.4281056680541064,0.4496660239160219,0.24071336888610523,0.4281056680541064
0.000216,0.46227851638738626,0.27428741655012395,0.3732636641708677,0.46227851638738626
0.000217,0.48367663868891464,0.1892492151183567,0.47600630900465823,0.48367663868891464
0.00021799999999999999,0.4989648382914737,0.13057164629526938,0.5616574467575656,0.4989648382914737
0.00021899999999999998,0.5100042021423503,0.10809102392581421,0.6170553782071091,0.5100042021423503
0.00021999999999999998,0.5205877426160123,0.12193717997934228,0.6661678921016624,0.5205877426160123
