time,V_C,I_L,V_IN,V_C
0.0,0.0,0.0,58.11349859773357,0.0
1e-06,2.092932551011713,1.0945868969698724,52.084280046596575,2.092932551011713
2e-06,7.792434989080347,1.9540539459025352,43.41572525844124,7.792434989080347
3e-06,16.0920409755221,2.4519322870725047,32.79109850917557,16.0920409755221
4e-06,25.38911692642749,2.5371329775073845,23.86419400585411,25.38911692642749
4.9999999999999996e-06,34.41849305195694,2.262388095680101,16.251048791423475,34.41849305195694
6e-06,41.792128945392456,1.6884452458089458,11.277136168337705,41.792128945392456
7e-06,46.688216496440624,0.9295578905871726,7.882314410247504,46.688216496440624
8e-06,48.58776958867563,0.10019765348548006,8.247783900729207,48.58776958867563
9e-06,47.442718568297614,-0.6971026899265406,11.61678872416158,47.442718568297614
9.999999999999999e-06,43.77842325778944,-1.23876139784448,19.482994859053957,43.77842325778944
1.1e-05,38.51575917476253,-1.5728794066467708,20.50431022794837,38.51575917476253
1.2e-05,32.26825046133765,-1.7796456443368198,18.364625274967782,32.26825046133765
1.3e-05,25.45813288690339,-1.8799772088889608,20.869960203319305,25.45813288690339
1.4e-05,18.61552341115631,-1.752657311072045,30.85275410204548,18.61552341115631
1.4999999999999999e-05,12.827316963834162,-1.3578828022283305,39.31076622864533,12.827316963834162
1.6e-05,8.832496956530662,-0.7614233450192022,45.12203745343256,8.832496956530662
1.7e-05,7.370404456141141,0.00019299501480252168,49.454667202233004,7.370404456141141
1.8e-05,8.89073962717153,0.819490621646976,55.88589867504802,8.89073962717153
1.8999999999999998e-05,13.513231889928862,1.6762527937095442,60.764473030823744,13.513231889928862
1.9999999999999998e-05,21.17480327377621,2.439030219000864,65.36644070874269,21.17480327377621
2.1e-05,31.42051052873682,3.0680639759496846,66.49628491353873,31.42051052873682
2.2e-05,43.57171271272107,3.4237103047641693,62.524360914366355,43.57171271272107
2.3e-05,56.42067668095026,3.468301198680184,59.03030819154058,56.42067668095026
2.4e-05,68.86857156141464,3.2023404569407368,58.359299667312044,68.86857156141464
2.4999999999999998e-05,79.89831887767141,2.7261685660796595,61.331066381050555,79.89831887767141
2.6e-05,88.927457419262,2.1318860599130334,62.888677616721374,88.927457419262
2.7e-05,95.54517452821825,1.4339646931390109,61.697616052380994,95.54517452821825
2.8e-05,99.43565276918667,0.6554687227946016,61.417530674449324,99.43565276918667
2.9e-05,100.39707692878594,-0.1303167008779107,61.74388370988089,100.39707692878594
2.9999999999999997e-05,98.536163415384,-0.8577418908496713,62.13419676533638,98.536163415384
3.1e-05,94.17794118735621,-1.4735902690459706,62.51827048362946,94.17794118735621
3.2e-05,87.80247981447899,-1.9418736630386695,65.81711699817266,87.80247981447899
3.2999999999999996e-05,80.10770397177251,-2.161058866843886,71.05139528056549,80.10770397177251
3.4e-05,72.10140228110052,-2.1359826603159955,81.26291270798669,72.10140228110052
3.5e-05,64.7820389043825,-1.737988722233084,93.4876261039818,64.7820389043825
3.6e-05,59.67080526177193,-1.0076978233838885,103.2326505792966,59.67080526177193
3.7e-05,57.656008237184565,-0.06253216280084795,105.31284043246532,57.656008237184565
3.7999999999999995e-05,59.152283573502025,0.8552077834179846,106.51208000147943,59.152283573502025
3.9e-05,63.883775178035194,1.679300096969739,108.39441721129757,63.883775178035194
3.9999999999999996e-05,71.38717705607466,2.348437653713317,112.05865491260556,71.38717705607466
4.1e-05,81.17710382865633,2.9129576672242012,116.87559481992487,81.17710382865633
4.2e-05,92.80756263334804,3.349028700739294,119.21097480114513,92.80756263334804
4.2999999999999995e-05,105.65916075469919,3.5359113985839956,121.18950734388073,105.65916075469919
4.4e-05,118.71875129654455,3.478620348621274,121.52752298742789,118.71875129654455
4.4999999999999996e-05,131.16528718828332,3.2275093296985715,124.68233091261614,131.16528718828332
4.6e-05,142.38978445203972,2.7971334931336673,121.24394632423945,142.38978445203972
4.7e-05,151.57659688515844,2.1398027201453225,109.0742712785086,151.57659688515844
4.8e-05,157.8020570491784,1.1796894144704033,90.93089518354225,157.8020570491784
4.9e-05,159.7867485293002,-0.14419606161231124,70.6421547641523,159.7867485293002
4.9999999999999996e-05,156.28742538707417,-1.7656609706433422,51.35229489208152,156.28742538707417
5.1e-05,146.43631591628727,-3.5882071883618707,40.61905801956039,146.43631591628727
5.2e-05,129.85993559052642,-5.2902421054437685,31.0007366788051,129.85993559052642
5.3e-05,107.57353092428698,-6.709123016424035,19.588035713556366,107.57353092428698
5.4e-05,80.60144087742822,-7.766117169452407,12.430565539980345,80.60144087742822
5.4999999999999995e-05,50.71435176638268,-8.306679778951723,4.649919168169838,50.71435176638268
5.6e-05,19.500561125811387,-8.465489391752131,-5.02589424027601,19.500561125811387
5.6999999999999996e-05,-11.441189248257963,-8.156339003867151,-10.154306358576939,-11.441189248257963
5.8e-05,-40.25575738885213,-7.312001775426065,-11.78872877526966,-40.25575738885213
5.9e-05,-65.2286288078711,-6.096973431267676,-12.631821941685672,-65.2286288078711
5.9999999999999995e-05,-85.0194060829049,-4.5688895088118535,-8.945212964179841,-85.0194060829049
6.1e-05,-98.54955828577395,-2.697413527371974,-3.1822714916559574,-98.54955828577395
6.2e-05,-104.57044194659318,-0.5167452299834889,6.891555140959791,-104.57044194659318
6.3e-05,-102.38684164086301,1.6702283308033103,18.677656740905025,-102.38684164086301
6.4e-05,-92.15992838603692,3.843808399722257,32.906939531167886,-92.15992838603692
6.5e-05,-73.99920861224781,5.911904455554,44.00382744446189,-73.99920861224781
6.599999999999999e-05,-48.75688384352409,7.6371132908251,50.350563192583884,-48.75688384352409
6.7e-05,-18.025755913628096,8.867150730883237,60.87685650355657,-18.025755913628096
6.8e-05,16.353148324028865,9.603571950320987,68.16062347462716,16.353148324028865
6.9e-05,52.300845937655026,9.70126101191192,71.29501134820742,52.300845937655026
7e-05,87.4033528407564,9.144901663063528,70.25875899284486,87.4033528407564
7.099999999999999e-05,119.32503356573794,8.003003494191875,67.53802789185985,119.32503356573794
7.2e-05,145.900334089477,6.258914254742784,65.26019638826004,145.900334089477
7.3e-05,165.2087964242566,4.1172183062037195,63.937601120973156,165.2087964242566
7.4e-05,176.16922049318833,1.799024605228773,65.71246666737302,176.16922049318833
7.5e-05,178.53795294887126,-0.5040789885813788,72.14702612793377,178.53795294887126
7.599999999999999e-05,172.8301572946747,-2.5149839247556365,76.07572793710186,172.8301572946747
7.7e-05,160.41411577733842,-4.12788514068156,73.18143051420286,160.41411577733842
7.8e-05,142.58850332288307,-5.446787911097696,64.7862229733554,142.58850332288307
7.9e-05,120.46963732293402,-6.426072255307998,53.03252415857958,120.46963732293402
7.999999999999999e-05,95.51392291252051,-6.996695407573728,38.133719833241116,95.51392291252051
8.099999999999999e-05,68.78264363412558,-7.398469533132612,26.935795454556267,68.78264363412558
8.2e-05,40.96062411890395,-7.611033653750627,16.637963635276385,40.96062411890395
8.3e-05,13.128869668031943,-7.331982053428188,7.05513103160677,13.128869668031943
8.4e-05,-13.037424495764355,-6.735410852499113,-1.8944888801235802,-13.037424495764355
8.499999999999999e-05,-36.49102260529861,-5.904074573479891,-13.898320749314692,-36.49102260529861
8.599999999999999e-05,-56.330937140587906,-4.8029221798868456,-26.196786532341292,-56.330937140587906
8.7e-05,-72.12184118785493,-3.71727207550618,-33.43091004298802,-72.12184118785493
8.8e-05,-83.9163630401228,-2.658123010694884,-36.55260915251494,-83.9163630401228
8.9e-05,-91.6613958863948,-1.5055075032770053,-37.90759056891918,-91.6613958863948
8.999999999999999e-05,-94.9929961388312,-0.29197085365772013,-34.210375935010994,-94.9929961388312
9.099999999999999e-05,-93.83402767950345,0.903250066244575,-33.88451181049752,-93.83402767950345
9.2e-05,-88.44570658422282,1.9767015491115585,-35.38122019648427,-88.44570658422282
9.3e-05,-79.54514261543918,2.7812136211648526,-39.34058025525617,-79.54514261543918
9.4e-05,-68.2262770156139,3.266651527731035,-49.13670626898757,-68.2262770156139
9.499999999999999e-05,-55.88697434122055,3.323206305822229,-51.79580022488281,-55.88697434122055
9.6e-05,-43.95678985235992,3.09435124405547,-51.46101748888545,-43.95678985235992
9.7e-05,-33.25982135633191,2.651481981374793,-51.77464955084349,-33.25982135633191
9.8e-05,-24.410314061855303,2.1162000857534897,-45.19994754366524,-24.410314061855303
9.9e-05,-17.64327917064468,1.5419444947720888,-35.77928441524529,-17.64327917064468
9.999999999999999e-05,-12.805494124523552,1.0981812728441338,-26.686581429336055,-12.805494124523552
0.000101,-9.406861690732725,0.7382948438640381,-20.723753241439866,-9.406861690732725
0.000102,-7.207700013357535,0.4657640929610995,-17.169511840463542,-7.207700013357535
0.000103,-5.914047533137731,0.22905381318574183,-18.17600788004129,-5.914047533137731
0.000104,-5.536831628155108,-0.02567846585927852,-17.65954228960386,-5.536831628155108
0.00010499999999999999,-6.069919946974226,-0.2559633860683097,-17.48688031206735,-6.069919946974226
0.000106,-7.393199837597892,-0.44876763095554195,-15.97239871710377,-7.393199837597892
0.000107,-9.302790043021012,-0.5688447749818843,-10.498487319175469,-9.302790043021012
0.000108,-11.370230815739038,-0.5410151282282968,-4.109103302863452,-11.370230815739038
0.00010899999999999999,-13.06861154150356,-0.3534765597338759,2.1772475157641558,-13.06861154150356
0.00010999999999999999,-13.771621103828776,-0.010958777908537637,7.488118022157871,-13.771621103828776
0.000111,-13.039239405454602,0.40176251283237446,10.133181385253014,-13.039239405454602
0.000112,-10.778405516875374,0.8080220924256725,15.39640370266549,-10.778405516875374
0.000113,-7.0017908740343255,1.2195209438227912,25.323883484275385,-7.0017908740343255
0.00011399999999999999,-1.6275214478978441,1.7070989763868776,36.926712448661256,-1.6275214478978441
0.00011499999999999999,5.844183068596713,2.3196577917781833,48.03474886937424,5.844183068596713
0.000116,15.62474836706319,2.9318759896363797,53.22085802018317,15.62474836706319
0.000117,27.39817292878058,3.37870157103203,51.991292798877716,27.39817292878058
0.000118,40.29314317451579,3.531283530730162,46.21855496865401,40.29314317451579
0.00011899999999999999,53.18304814085461,3.3793049699913547,43.655928676425745,53.18304814085461
0.00011999999999999999,64.86039094310667,2.880252032629345,42.325338416031364,64.86039094310667
0.000121,74.29569588607852,2.193963343306394,44.22751621840711,74.29569588607852
0.000122,81.00819709077896,1.4157578104340405,43.32571989208889,81.00819709077896
0.00012299999999999998,84.69003576095824,0.5579617633781893,40.17167835477784,84.69003576095824
0.000124,85.04126503234308,-0.3658754906834345,37.9007118176993,85.04126503234308
0.000125,82.03218365490038,-1.2402459328790105,38.59593991320783,82.03218365490038
0.000126,76.05440158907302,-1.9576531764048128,39.64137538415271,76.05440158907302
0.000127,67.800650411803,-2.4634038423558424,40.623221625708574,67.800650411803
0.000128,58.07671319826099,-2.747830379512465,41.1793145740362,58.07671319826099
0.000129,47.710427571199254,-2.8158139775770445,40.68309705278789,47.710427571199254
0.00013,37.373837727353745,-2.7423911676449957,36.457369367146654,37.373837727353745
0.00013099999999999999,27.600907792390903,-2.5175634550950785,31.944817967501717,27.600907792390903
0.00013199999999999998,18.81202049037656,-2.2201324642957587,27.420902937139424,18.81202049037656
0.000133,11.245177060786855,-1.8479648327515097,23.613495825271173,11.245177060786855
0.000134,5.160731828969349,-1.4372615362463672,21.249261781971242,5.160731828969349
0.000135,0.6421568621862423,-0.9937622380259229,17.28631532856149,0.6421568621862423
0.000136,-2.2498809344699002,-0.5829087941657449,12.954985605094926,-2.2498809344699002
0.000137,-3.7576343328436406,-0.23516067431750937,8.761295868307656,-3.7576343328436406
0.000138,-4.112721094962687,0.0262218625420384,7.105116669357836,-4.112721094962687
0.000139,-3.614641945289856,0.24158465222947473,7.673042061432405,-3.614641945289856
0.00014,-2.3486014168831053,0.4345590362971723,6.094762958980528,-2.3486014168831053
0.00014099999999999998,-0.49965594074918096,0.5588430469782737,7.616567093155895,-0.49965594074918096
0.00014199999999999998,1.78106830191795,0.6782159025085945,14.334687478883039,1.78106830191795
0.000143,4.649434714075388,0.8578704436708279,15.613073267985865,4.649434714075388
0.000144,8.088514590519942,0.9878714927957378,12.006431340479365,8.088514590519942
0.000145,11.76781031133693,0.982252330178151,5.454376476691427,11.76781031133693
0.000146,15.120517113702197,0.7892388730754412,0.10794374053400416,15.120517113702197
0.000147,17.381012204701765,0.4275567920029436,0.7994427219895559,17.381012204701765
0.000148,18.301339732983507,0.07351770394300033,1.978922753592252,18.301339732983507
0.000149,17.97502494413546,-0.24526949650833849,1.2330338211829528,17.97502494413546
0.00015,16.51303453764945,-0.5380939774980732,1.5659580867625849,16.51303453764945
0.00015099999999999998,14.062300592747796,-0.7748599517451529,1.321388996034683,14.062300592747796
0.00015199999999999998,10.85696770821863,-0.9357261591593574,4.422793550044195,10.85696770821863
0.000153,7.312343056074445,-0.9566548268223317,9.69714284012535,7.312343056074445
0.000154,4.0128635533277315,-0.8040902410202987,17.667783694359432,4.0128635533277315
0.000155,1.6554681192207914,-0.4685353902388539,25.096799623489993,1.6554681192207914
0.000156,0.7514796955036847,0.0001576887286753089,40.166197511524224,0.7514796955036847
0.000157,2.172192831964294,0.7582092649388008,56.66923771531872,2.172192831964294
0.000158,6.805314622595871,1.7355773460000012,71.33613349830237,6.805314622595871
0.000159,15.209055469032585,2.8241537553325378,81.49206085664798,15.209055469032585
0.00015999999999999999,27.616433210691664,3.8276451487499608,85.26291645948326,27.616433210691664
0.00016099999999999998,43.257207036145644,4.566841456126962,83.6797238372122,43.257207036145644
0.00016199999999999998,60.947414083411076,4.915751585796857,79.57444580765213,60.947414083411076
0.000163,79.18988908642065,4.844586069042083,72.93245783490086,79.18988908642065
0.000164,96.12840449014023,4.229769929534196,66.36607997730536,96.12840449014023
0.000165,110.05183870795142,3.234144247435041,58.48598381768387,110.05183870795142
0.000166,119.69262446896576,1.9263275821008028,53.66196412560743,119.69262446896576
0.000167,124.14228937406438,0.47201982776699225,52.008583999995714,124.14228937406438
0.000168,123.22561120497706,-0.9516212890241791,49.49223330816722,123.22561120497706
0.000169,117.2172735192587,-2.266261655126006,49.8477368216087,117.2172735192587
0.00016999999999999999,106.73539909146831,-3.3526410181790767,50.52349198249253,106.73539909146831
0.00017099999999999998,92.81285747370154,-4.111058020572712,54.13583604916084,92.81285747370154
0.00017199999999999998,76.79021606212444,-4.4514017607002385,59.33797701532848,76.79021606212444
0.000173,60.385184121888784,-4.328905194544717,65.55713726538681,60.385184121888784
0.000174,45.22011059241238,-3.8044852988742317,67.12461449410806,45.22011059241238
0.000175,32.4953072928074,-3.0277060493480765,67.55938659394792,32.4953072928074
0.000176,22.988492127500102,-2.0781622198188185,70.89184365552052,22.988492127500102
0.000177,17.31603632880593,-0.9686206531527182,69.95925724404078,17.31603632880593
0.000178,15.807490456365395,0.14553895875597267,59.86870471092285,15.807490456365395
0.000179,17.99217247099933,0.9548163639693197,41.576242177614766,17.99217247099933
0.00017999999999999998,22.218389655378004,1.3096835831304516,15.78803817338868,22.218389655378004
0.00018099999999999998,26.711037902538028,1.0113283201717953,-13.263832115655617,26.711037902538028
0.00018199999999999998,28.84232258339698,0.14312158103721292,-37.47322596130529,28.84232258339698
0.000183,27.28596095850886,-1.0837551124080762,-52.49863652971381,27.28596095850886
0.000184,20.593485409142144,-2.5034950519042027,-63.649886722456756,20.593485409142144
0.000185,8.738802506215254,-3.8929521051596714,-70.86307998385324,8.738802506215254
0.000186,-7.9559779118964,-5.059198528628506,-75.60115638815263,-7.9559779118964
0.000187,-28.331395565983666,-5.8821773220791265,-78.44032117741489,-28.331395565983666
0.000188,-51.01614166992315,-6.296141722409202,-80.22973584416025,-51.01614166992315
0.00018899999999999999,-74.45386782874093,-6.275931978292247,-80.79871997936228,-74.45386782874093
0.00018999999999999998,-96.96071369206213,-5.806888716548595,-79.79195542272917,-96.96071369206213
0.00019099999999999998,-116.93580160299742,-4.927857521441014,-80.39236625220833,-116.93580160299742
0.000192,-133.0864766310264,-3.7536195485517205,-76.70439781238895,-133.0864766310264
0.000193,-144.3945537713866,-2.3154754258486703,-69.33402467204805,-144.3945537713866
0.000194,-149.94388116881493,-0.6346329494445899,-61.90490486056659,-149.94388116881493
0.000195,-149.04062027369022,1.1033270340277737,-53.48135457322279,-149.04062027369022
0.000196,-141.76439940946477,2.8328002828505454,-48.22131610402863,-141.76439940946477
0.000197,-128.33334038354184,4.364963935209065,-45.51358442231836,-128.33334038354184
0.000198,-109.85688368689051,5.545261098483636,-42.84005240084622,-109.85688368689051
0.00019899999999999999,-87.79493840780337,6.304149668728069,-41.015590238056085,-87.79493840780337
0.00019999999999999998,-63.750861321141905,6.59776913612882,-41.12024334746035,-63.750861321141905
0.00020099999999999998,-39.50930446008911,6.393196180893303,-43.515628160838375,-39.50930446008911
0.000202,-16.998778098664133,5.696391106462383,-46.228844226665586,-16.998778098664133
0.000203,2.179983896466439,4.601640994250854,-46.79712880831955,2.179983896466439
0.000204,16.75330498792779,3.208435586028809,-51.66256389232207,16.75330498792779
0.000205,25.68866340036283,1.5840342979526054,-55.25691576192658,25.68866340036283
0.000206,28.385354535684097,-0.12841785991130505,-57.16903017337836,28.385354535684097
0.000207,24.85177061764998,-1.7482767976371165,-55.350572951651635,24.85177061764998
0.000208,15.78087692832527,-3.098626293448671,-53.33900648816809,15.78087692832527
0.00020899999999999998,2.2596555150844964,-4.1465554003161245,-58.833827176546784,2.2596555150844964
0.00020999999999999998,-14.675364285208293,-4.941606670545342,-62.24587449044881,-14.675364285208293
0.00021099999999999998,-33.92886297233158,-5.402169134118224,-62.589579961353905,-33.92886297233158
0.000212,-54.14398095119856,-5.429505062714322,-62.07612216571689,-54.14398095119856
0.000213,-73.77572657001807,-5.100078589603072,-61.55520558222585,-73.77572657001807
0.000214,-91.4827093061379,-4.433694870629144,-58.32881200641391,-91.4827093061379
0.000215,-106.10903156829903,-3.4096468614874533,-54.15394826445049,-106.10903156829903
0.000216,-116.33557230502211,-2.058460777470369,-44.28054260943713,-116.33557230502211
0.000217,-120.79333085557597,-0.3265733194509872,-31.113838217504743,-120.79333085557597
0.00021799999999999999,-118.6800750883128,1.4817465683443327,-14.015945531137218,-118.6800750883128
0.00021899999999999998,-109.66045313543229,3.398826700521233,-2.8426373978900017,-109.66045313543229
0.00021999999999999998,-93.73842951854945,5.124919272643883,0.4525412162136196,-93.73842951854945
0.00022099999999999998,-72.17878778116476,6.438938591399639,4.6598545484636915,-72.17878778116476
0.000222,-46.57550105173084,7.328570601309204,11.076835381497943,-46.57550105173084
0.000223,-18.485472264779347,7.743080699262111,15.38063362754671,-18.485472264779347
0.000224,10.110532671975356,7.611431142173521,13.387092337231422,10.110532671975356
0.000225,37.26021080496377,6.954833376643267,9.643502297851661,37.26021080496377
0.000226,61.0124036718675,5.776954049725908,8.038124652578174,61.0124036718675
0.000227,79.57102694978252,4.205558167778529,6.459213911298076,79.57102694978252
