time,V_C,I_L,V_IN,V_C
0.0,0.0,0.0,-29.535577775369298,0.0
1e-06,-1.0627430284363582,-0.5624569849539458,-40.48496791611732,-1.0627430284363582
2e-06,-4.426624178536177,-1.2841083562966684,-51.47783234497143,-4.426624178536177
3e-06,-10.69073098348863,-2.0684510479185723,-61.089063581724304,-10.69073098348863
4e-06,-19.60856964791557,-2.7615033162135196,-71.03994426643695,-19.60856964791557
4.9999999999999996e-06,-31.179154492730632,-3.4666987257106996,-76.7548538925203,-31.179154492730632
6e-06,-45.14702084383514,-4.027723010614877,-72.76300434897554,-45.14702084383514
7e-06,-60.62954039460976,-4.2291965167444205,-55.60769989614096,-60.62954039460976
8e-06,-75.37310878509865,-3.6300154617121905,-38.271214160409954,-75.37310878509865
9e-06,-86.88925660170155,-2.5094509055419465,-23.74289849400438,-86.88925660170155
9.999999999999999e-06,-93.48965777123543,-1.0071729087722052,-16.481613197302593,-93.48965777123543
1.1e-05,-94.28793715420547,0.5468101180545428,-22.667335729907453,-94.28793715420547
1.2e-05,-89.80585578307543,1.820768669230877,-28.715593884985488,-89.80585578307543
1.3e-05,-81.15031457702392,2.8076364338086224,-27.445237676859804,-81.15031457702392
1.4e-05,-69.08546025701261,3.7120686220021804,-11.22768513340822,-69.08546025701261
1.4999999999999999e-05,-53.752379688736006,4.547211257384645,2.6828589617341927,-53.752379688736006
1.6e-05,-35.46387152698185,5.302588751895192,13.40216332294726,-35.46387152698185
1.7e-05,-14.869827833383404,5.764759815386669,18.421649808299797,-14.869827833383404
1.8e-05,6.779426914999181,5.855008035648968,16.042334296873317,6.779426914999181
1.8999999999999998e-05,27.90835143707264,5.484714712758473,20.402790644214964,27.90835143707264
1.9999999999999998e-05,47.11721978482465,4.8604955198401285,29.986749820623807,47.11721978482465
2.1e-05,63.73486325125936,4.081198786819078,39.66249964442371,63.73486325125936
2.2e-05,77.28109797770463,3.2307738941483715,42.79560092989143,77.28109797770463
2.3e-05,87.51153621669296,2.265014005386552,48.32550741176335,87.51153621669296
2.4e-05,94.06117226885713,1.2787696655386362,44.93707773479959,94.06117226885713
2.4999999999999998e-05,96.92782552554475,0.2645085631077486,46.40888890414147,96.92782552554475
2.6e-05,96.09139265438647,-0.6661702245941775,58.10231162137982,96.09139265438647
2.7e-05,92.34792050598526,-1.3410955850711928,60.141536551102725,92.34792050598526
2.8e-05,86.41497156505287,-1.8397806984221565,54.98113914248913,86.41497156505287
2.9e-05,78.78348921489669,-2.264824324381528,48.717089037113226,78.78348921489669
2.9999999999999997e-05,69.63122904675166,-2.695188437783213,37.492993031232544,69.63122904675166
3.1e-05,58.90862006994648,-3.062173705780071,18.917390338795528,58.90862006994648
3.2e-05,46.66864536382864,-3.582095245665195,2.4123377298718895,46.66864536382864
3.2999999999999996e-05,32.32331557991368,-4.111105452931115,-14.197522917054599,32.32331557991368
3.4e-05,16.121822022511555,-4.65160497677128,-24.985761450085565,16.121822022511555
3.5e-05,-1.9174310990085228,-5.043763434852826,-33.69146188021174,-1.9174310990085228
3.6e-05,-20.95373287981561,-5.17834732276566,-31.70060014527062,-20.95373287981561
3.7e-05,-39.726649701608515,-4.899080179117989,-32.438909418451914,-39.726649701608515
3.7999999999999995e-05,-56.851858344810076,-4.303898951398002,-33.50615979476307,-56.851858344810076
3.9e-05,-71.27915614236784,-3.437240665296116,-30.72757207645987,-71.27915614236784
3.9999999999999996e-05,-82.01841629631195,-2.3350824170090756,-33.72899032477786,-82.01841629631195
4.1e-05,-88.48992233713606,-1.1542531037101322,-32.782050734420395,-88.48992233713606
4.2e-05,-90.56677597598569,0.03069361225202255,-25.610584988548702,-90.56677597598569
4.2999999999999995e-05,-88.18709733206099,1.2562056356802596,-27.487885896195838,-88.18709733206099
4.4e-05,-81.52140237329527,2.3197769387833813,-28.481001622972403,-81.52140237329527
4.4999999999999996e-05,-71.28822943619487,3.1424064838254524,-25.123170920445872,-71.28822943619487
4.6e-05,-58.48497332299072,3.7344954931761656,-19.068175611103726,-58.48497332299072
4.7e-05,-43.86910950860664,4.107700454486802,-22.885219189314448,-43.86910950860664
4.8e-05,-28.49947805548692,4.126485073488226,-33.38035282097529,-28.49947805548692
4.9e-05,-13.77736257975987,3.7583501299183864,-37.49541889329772,-13.77736257975987
4.9999999999999996e-05,-1.237073242226355,2.9642406798961285,-36.1329847938763,-1.237073242226355
5.1e-05,8.010221221825692,2.032131953387764,-31.566408235295075,8.010221221825692
5.2e-05,13.793562376873485,1.0915880073585578,-26.18293234601386,13.793562376873485
5.3e-05,16.20901072948258,0.2216724429165324,-24.922331867610588,16.20901072948258
5.4e-05,15.516080849251916,-0.5766068048079585,-22.306735785780692,15.516080849251916
5.4999999999999995e-05,12.102439051245764,-1.2418156087482077,-18.93496881549793,12.102439051245764
5.6e-05,6.586921911821368,-1.7022320363534378,-16.847150155532855,6.586921911821368
5.6999999999999996e-05,-0.31906735164318967,-1.9990257461025787,-3.942622312805072,-0.31906735164318967
5.8e-05,-7.684043602180376,-1.9153324650486079,8.218655397682703,-7.684043602180376
5.9e-05,-13.969056254546718,-1.4274625628231292,10.711708999744193,-13.969056254546718
5.9999999999999995e-05,-18.152504545901362,-0.8224626574919938,12.73692120091646,-18.152504545901362
6.1e-05,-19.986408171998985,-0.1732459439800853,10.041255134945917,-19.986408171998985
6.2e-05,-19.51685198852909,0.4276821575903659,13.195380149017572,-19.51685198852909
6.3e-05,-16.797327498149315,1.0483622198606182,21.499840885648748,-16.797327498149315
6.4e-05,-11.65858974201026,1.7200088006473575,24.611796112999386,-11.65858974201026
6.5e-05,-4.249306154217316,2.2510268184909186,31.211363765146444,-4.249306154217316
6.599999999999999e-05,4.96194047341873,2.7172985686832276,39.72624957059374,4.96194047341873
6.7e-05,15.869762386525112,3.1343508548288876,52.71541467781938,15.869762386525112
6.8e-05,28.288873342550076,3.545045609598225,71.71402891880749,28.288873342550076
6.9e-05,42.405630531259035,4.0418874295141505,81.94483389183686,42.405630531259035
7e-05,58.156755386137306,4.429870918933695,79.81599278063133,58.156755386137306
7.099999999999999e-05,74.70109379162221,4.434151233155437,68.09775202942143,74.70109379162221
7.2e-05,90.28739736016546,3.9034513242310123,51.810104661278224,90.28739736016546
7.3e-05,102.88567854452138,2.794746734298832,38.19138654920264,102.88567854452138
7.4e-05,110.50814405423775,1.3027538274404205,30.19523668807561,110.50814405423775
7.5e-05,112.36162413097502,-0.32351250327264514,27.31687834666495,112.36162413097502
7.599999999999999e-05,108.10129142425798,-1.9513837285533557,29.820783378888134,108.10129142425798
7.7e-05,98.33466841412434,-3.259015293271589,34.106686468703884,98.33466841412434
7.8e-05,84.57337875426401,-4.092636831953973,44.114730995414284,84.57337875426401
7.9e-05,68.57228256437158,-4.469412853352795,54.23521917944884,68.57228256437158
7.999999999999999e-05,52.29257449888637,-4.185562370279474,76.14384498024862,52.29257449888637
8.099999999999999e-05,38.37368369275519,-3.2280193657562073,94.31795282354673,38.37368369275519
8.2e-05,28.91413044408997,-1.861802049406752,97.36585775701539,28.91413044408997
8.3e-05,24.718182180179436,-0.4001501069609502,89.4576530805298,24.718182180179436
8.4e-05,25.656046616780625,0.8576624152290622,82.28413268909478,25.656046616780625
8.499999999999999e-05,30.73167087439233,1.8573581561707422,75.26503323598692,30.73167087439233
8.599999999999999e-05,38.98525358466488,2.538533849753666,72.82595780964347,38.98525358466488
8.7e-05,49.22188485562592,2.9527718545602757,72.46510415363971,49.22188485562592
8.8e-05,60.5278314883065,3.1047493828240507,68.65088677734683,60.5278314883065
8.9e-05,71.85455571452468,2.9662131815226465,56.191547089003755,71.85455571452468
8.999999999999999e-05,81.79421054924919,2.2706186505946833,35.07584700984948,81.79421054924919
9.099999999999999e-05,88.17868458443166,1.167938266168989,16.472099638870937,88.17868458443166
9.2e-05,89.96281222038763,-0.25430311078069634,8.321576356889166,89.96281222038763
9.3e-05,86.15996687991233,-1.8096902048268508,2.965306454740922,86.15996687991233
9.4e-05,76.69020985936633,-3.282535061634866,-7.582720720457713,76.69020985936633
9.499999999999999e-05,61.93441943817392,-4.651644170350877,-14.415940748047651,61.93441943817392
9.6e-05,42.67099550833599,-5.6855003282515,-17.445568732010226,42.67099550833599
9.7e-05,20.313290394621372,-6.325142008962466,-23.40487613138074,20.313290394621372
9.8e-05,-3.703456160696737,-6.569330559879853,-26.809173026628415,-3.703456160696737
9.9e-05,-27.80855128530661,-6.385289894843236,-29.538221716397995,-27.80855128530661
9.999999999999999e-05,-50.61774437518654,-5.864311075879692,-36.55000892594221,-50.61774437518654
0.000101,-70.90973137437877,-5.038914079516957,-38.53170446434471,-70.90973137437877
0.000102,-87.53613361736748,-3.8985074990635873,-32.98091398473889,-87.53613361736748
0.000103,-99.5131352516354,-2.5284069150553465,-19.22103886064118,-99.5131352516354
0.000104,-105.57965444758153,-0.6865036479885847,-3.8858656650033585,-105.57965444758153
0.00010499999999999999,-104.32485541153427,1.363515208375786,-1.8238001529024328,-104.32485541153427
0.000106,-95.8059712665078,3.1895535539833095,-6.987824754036576,-95.8059712665078
0.000107,-81.23108486350066,4.596053621396129,-7.564651374572526,-81.23108486350066
0.000108,-62.31356318417306,5.54818682182513,-3.0936919167048407,-62.31356318417306
0.00010899999999999999,-40.405538130315726,6.227178623756709,10.117589869381344,-40.405538130315726
0.00010999999999999999,-16.502661631691392,6.634111905598577,43.26771676632522,-16.502661631691392
0.000111,8.952091902917743,7.187861099647221,74.54033327970203,8.952091902917743
0.000112,36.791901998487,7.785775254462421,102.17170174335708,36.791901998487
0.000113,66.73002831578222,8.39715228194072,125.63389300326502,66.73002831578222
0.00011399999999999999,98.67639251360058,8.767416465999412,141.88747081859836,98.67639251360058
0.00011499999999999999,131.27773593813947,8.77845652039925,148.3675497089545,131.27773593813947
0.000116,163.06451815649558,8.287567382105708,150.6672656780385,163.06451815649558
0.000117,192.10854849803127,7.302991303179378,143.27959629165315,192.10854849803127
0.000118,216.2242927799697,5.615145877712645,130.3645721061327,216.2242927799697
0.00011899999999999999,233.0451811106605,3.3926619419975848,114.34278109529218,233.0451811106605
0.00011999999999999999,240.86344471458523,0.7695727249571584,103.49260757513613,240.86344471458523
0.000121,238.64989391295873,-1.924480385776313,103.66672755207632,238.64989391295873
0.000122,226.95107920405437,-4.323339004442594,93.48580504339016,226.95107920405437
0.00012299999999999998,206.86475471683937,-6.51455625844158,82.5102872835586,206.86475471683937
0.000124,179.26369586763894,-8.31687604076001,62.96598066241866,179.26369586763894
0.000125,145.60587306962827,-9.773859196130228,44.598529728596404,145.60587306962827
0.000126,107.40018260586487,-10.7759332435916,36.78895359844856,107.40018260586487
0.000127,66.60517535056162,-11.13640133775393,30.42212541770022,66.60517535056162
0.000128,25.635582501266356,-10.87694757699673,17.63151406681346,25.635582501266356
0.000129,-13.429497408914429,-10.130073490435748,3.8756437240391555,-13.429497408914429
0.00013,-48.696412998561314,-8.857401692696884,-3.5846199930708056,-48.696412998561314
0.00013099999999999999,-78.35016260822894,-7.109155081645008,-11.553141066053088,-78.35016260822894
0.00013199999999999998,-101.14922700993718,-5.173123992528588,-16.13313033747637,-101.14922700993718
0.000133,-116.48093868591235,-3.082854380310083,-19.182506056599852,-116.48093868591235
0.000134,-123.93009363015278,-0.9275373243521399,-20.891879970457417,-123.93009363015278
0.000135,-123.21602104925937,1.2924165439727666,-8.391441657305775,-123.21602104925937
0.000136,-114.48558207492415,3.3899202160424617,3.602147590964526,-114.48558207492415
0.000137,-98.32956081331535,5.300673106968823,0.5999636454029743,-98.32956081331535
0.000138,-75.95203554906038,6.674301133148688,-4.140650508131897,-75.95203554906038
0.000139,-49.6623105831421,7.397887011772834,-9.476089240035924,-49.6623105831421
0.00014,-21.918510409041147,7.478129751331264,-9.852029904556495,-21.918510409041147
0.00014099999999999998,5.047247523030869,6.99268410748796,-13.549216303230533,5.047247523030869
0.00014199999999999998,29.17759858443953,5.9544158390485045,-16.504002137478203,29.17759858443953
0.000143,48.702630957924036,4.539084148159606,-13.657439219605383,48.702630957924036
0.000144,62.56326244740222,2.9248591349392625,-7.430100936955955,62.56326244740222
0.000145,70.37683436082901,1.2979715945275072,-9.558055587941023,70.37683436082901
0.000146,72.1240140214198,-0.3548802492120518,-15.067627905869765,72.1240140214198
0.000147,67.78896846187742,-1.9869034473517209,-22.627277686320443,67.78896846187742
0.000148,57.51060179829266,-3.524767521679129,-28.58251194002458,57.51060179829266
0.000149,41.93495310250221,-4.836403025928121,-21.31359134640797,41.93495310250221
0.00015,22.457562340545316,-5.5939585824590115,-13.019973592716312,22.457562340545316
0.00015099999999999998,1.2769081699981362,-5.734082678370763,-12.499284428678981,1.2769081699981362
0.00015199999999999998,-19.568582707154057,-5.430992953774732,-4.466902649893811,-19.568582707154057
0.000153,-38.28010113504275,-4.571216687490891,16.666949621732744,-38.28010113504275
0.000154,-52.32251140994846,-2.892213657219689,36.80641453719896,-52.32251140994846
0.000155,-59.37085820008527,-0.9080036758713821,40.62455110100531,-59.37085820008527
0.000156,-59.04199272174479,1.0712401634746023,38.997123552486656,-59.04199272174479
0.000157,-51.707915497776845,2.851753326431557,42.36665728365875,-51.707915497776845
0.000158,-38.22002521088653,4.376116673251711,41.449674754946564,-38.22002521088653
0.000159,-19.819722729603598,5.487977766232916,42.44319655973899,-19.819722729603598
0.00015999999999999999,1.9325939964415397,6.184943917823347,45.409029454617816,1.9325939964415397
0.00016099999999999998,25.4561644131421,6.442121953120956,41.32001256866599,25.4561644131421
0.00016199999999999998,48.90475144216222,6.099187946945942,30.27712688727064,48.90475144216222
0.000163,69.90982438648453,5.18355325187151,0.7695508921379225,69.90982438648453
0.000164,86.06082397592044,3.363264260582876,-29.93564387725471,86.06082397592044
0.000165,93.77695378390726,0.8051508812797378,-54.478356361508204,93.77695378390726
0.000166,91.38792233418907,-2.188846152556711,-74.23785346294628,91.38792233418907
0.000167,77.60672288705962,-5.189592505814689,-79.34044467405327,77.60672288705962
0.000168,53.405472302026396,-7.79946537376215,-87.21178935351196,53.405472302026396
0.000169,20.625960398435726,-9.806137762600986,-93.96182640628805,20.625960398435726
0.00016999999999999999,-18.31326170450771,-11.099430406986937,-92.83825595434273,-18.31326170450771
0.00017099999999999998,-60.43811062450908,-11.437066251217194,-82.62232955667263,-60.43811062450908
0.00017199999999999998,-101.92524735505083,-10.820848759772613,-77.76866713357106,-101.92524735505083
0.000173,-139.4269439072719,-9.293411214051654,-66.93795381856074,-139.4269439072719
0.000174,-169.81310189174351,-7.012538501315728,-57.465440848188884,-169.81310189174351
0.000175,-190.82231769047624,-4.231383784370542,-54.30995137502653,-190.82231769047624
0.000176,-200.82095543845372,-1.1627488331433486,-48.6483057518476,-200.82095543845372
0.000177,-199.4102473175746,1.869515063769685,-42.43222889798095,-199.4102473175746
0.000178,-187.2185905384514,4.6779865432196965,-40.06967780108668,-187.2185905384514
0.000179,-165.29052651818407,7.071856189486777,-38.196953790647065,-165.29052651818407
0.00017999999999999998,-135.57145885043536,8.844245943845667,-37.704840941976805,-135.57145885043536
0.00018099999999999998,-100.68702390227855,9.874722571482904,-34.88759294673526,-100.68702390227855
0.00018199999999999998,-63.13967534319242,10.286560982948567,-25.13586193700611,-63.13967534319242
0.000183,-25.269501419964495,10.063291964645083,-9.454278987969143,-25.269501419964495
0.000184,10.879734895449367,9.38723724524494,-0.36644830178859983,10.879734895449367
0.000185,43.92913501539094,8.402104495237387,13.581849285475247,43.92913501539094
0.000186,72.55916854426957,7.018450599311592,13.462550923761706,72.55916854426957
0.000187,95.34619067332522,5.225344463953355,10.370907485758893,95.34619067332522
0.000188,110.87940530547513,3.111660650369002,11.726775429860949,110.87940530547513
0.00018899999999999999,118.3616283984845,0.923643950676837,13.694888797018534,118.3616283984845
0.00018999999999999998,117.7794658737958,-1.1878374447262656,10.8842234148744,117.7794658737958
0.00019099999999999998,109.73063081135629,-3.098752506512702,5.7487043749450795,109.73063081135629
0.000192,95.03153302291798,-4.795238593007143,-2.076159594875698,95.03153302291798
0.000193,74.49471292705746,-6.278101199370866,-10.03565279117162,74.49471292705746
0.000194,49.13993768820846,-7.315254929762708,-10.17790261258232,49.13993768820846
0.000195,21.070343816244637,-7.742827346986667,-7.803848917748903,21.070343816244637
0.000196,-7.469132056556816,-7.572986303400811,-8.127839071608214,-7.469132056556816
0.000197,-34.42395599010509,-6.8824862021058575,-3.137706658166329,-34.42395599010509
0.000198,-57.6230383905517,-5.559351806989204,4.696365136439666,-57.6230383905517
0.00019899999999999999,-75.09202199007849,-3.8021201036911934,16.095812245157298,-75.09202199007849
0.00019999999999999998,-85.29833360762113,-1.6532791843272139,26.69634416618582,-85.29833360762113
0.00020099999999999998,-87.1343758880814,0.6517230359704591,27.904115913669084,-87.1343758880814
0.000202,-80.65360768331124,2.806495332592729,24.56679052432651,-80.65360768331124
0.000203,-66.87135176744533,4.559529339775013,26.232020102771543,-66.87135176744533
0.000204,-47.33826857265663,5.920809802197639,31.102168229094428,-47.33826857265663
0.000205,-23.469677655248233,6.890577887475595,34.236421091864834,-23.469677655248233
0.000206,3.0628017853851417,7.352438997971802,37.9889381567642,3.0628017853851417
0.000207,30.32343328047885,7.296394555772501,46.06455521595106,30.32343328047885
0.000208,56.692364281279296,6.877518342799632,49.05810196478194,56.692364281279296
0.00020899999999999998,80.83155132918611,6.096461364352131,51.586820297885296,80.83155132918611
0.00020999999999999998,101.44121188208243,4.954895403474591,50.75943660738465,101.44121188208243
0.00021099999999999998,117.17601268574856,3.5152089094067405,48.775097197170055,117.17601268574856
0.000212,127.19763409877643,1.9009439983803782,53.465459971542145,127.19763409877643
0.000213,131.26403951025952,0.3127250235941976,62.60031999411568,131.26403951025952
0.000214,129.9030040619388,-0.9798929609764822,74.7849098097645,129.9030040619388
0.000215,124.45823479887856,-1.9352660238195885,89.41752353036803,124.45823479887856
0.000216,116.23090606255145,-2.403344251761878,99.29713060093326,116.23090606255145
0.000217,107.12309356641406,-2.464163221233981,106.24380434665021,107.12309356641406
0.00021799999999999999,98.35521475361125,-2.234967204461566,107.0113491842202,98.35521475361125
0.00021899999999999998,90.72986022922295,-1.8630278613243876,105.31133944472651,90.72986022922295
0.00021999999999999998,84.59898033556814,-1.4466747522499812,100.53169912232815,84.59898033556814
0.00022099999999999998,80.03112724690149,-1.0229604368385157,95.40814429581349,80.03112724690149
0.000222,76.94172413829072,-0.6565990064466383,91.17350719226796,76.94172413829072
0.000223,75.12360241362147,-0.32989898416220653,84.7053998528867,75.12360241362147
0.000224,74.29862544183892,-0.10825563878162545,87.31254911942165,74.29862544183892
0.000225,74.39063984675259,0.15526966603104192,81.00942610157442,74.39063984675259
0.000226,75.22881265943667,0.2812674685424612,67.42748840619649,75.22881265943667
0.000227,75.97165234443789,0.11057009405903113,62.68546200888068,75.97165234443789
