time,V_C,I_L,V_IN,V_C
0.0,0.0,0.0,5.469233292175892,0.0
1e-06,0.19959524913265803,0.10597035748127263,-7.54919721107059,0.19959524913265803
2e-06,0.3127648558820019,-0.060032999268679256,-19.16199056023211,0.3127648558820019
3e-06,-0.6177663022008462,-0.4352717854135917,-21.322100372727203,-0.6177663022008462
4e-06,-2.9233301571047265,-0.8142481853533698,-25.262580983351867,-2.9233301571047265
4.9999999999999996e-06,-6.636508326091692,-1.1855070116792097,-29.22589172065909,-6.636508326091692
6e-06,-11.666769336610207,-1.5170469328148752,-29.398264484308406,-11.666769336610207
7e-06,-17.708460889274505,-1.7281910697493834,-34.245639916095115,-17.708460889274505
8e-06,-24.448698136531497,-1.8978498510160655,-35.58590172228632,-24.448698136531497
9e-06,-31.572860312770583,-1.911344410853229,-30.88991794469885,-31.572860312770583
9.999999999999999e-06,-38.34950927457189,-1.7261051467304904,-33.57782864558493,-38.34950927457189
1.1e-05,-44.29533181375187,-1.4724295200872641,-35.553885894320764,-44.29533181375187
1.2e-05,-49.185597398136466,-1.1532789021363348,-33.56036277253533,-49.185597398136466
1.3e-05,-52.69241543016797,-0.7180093069246705,-28.688032453194236,-52.69241543016797
1.4e-05,-54.39176082729731,-0.20449460048022983,-32.132415145450516,-54.39176082729731
1.4999999999999999e-05,-54.306292480228876,0.2361651156652798,-41.96920452857866,-54.306292480228876
1.6e-05,-53.005430240770586,0.4542385121183584,-46.84691781023352,-53.005430240770586
1.7e-05,-51.12134482427361,0.5397997100682373,-46.93382386871883,-51.12134482427361
1.8e-05,-49.06278471302391,0.5701544745453577,-43.86246696300593,-49.06278471302391
1.8999999999999998e-05,-46.881972900498724,0.6179632878548197,-39.54240784595652,-46.881972900498724
1.9999999999999998e-05,-44.43740598947819,0.6983383785215838,-38.47141852786925,-44.43740598947819
2.1e-05,-41.77861874352473,0.7370800852624041,-36.103575251317736,-41.77861874352473
2.2e-05,-38.92842754097793,0.8015494121201451,-32.81570457088964,-38.92842754097793
2.3e-05,-35.85924301042489,0.8481550998660582,-30.519395574789034,-35.85924301042489
2.4e-05,-32.6832473911066,0.8575717340581999,-18.369929591834516,-32.6832473911066
2.4999999999999998e-05,-29.254441276123444,1.0329229008958671,-5.855789848355375,-29.254441276123444
2.6e-05,-24.733651895303638,1.4041230824759672,-1.3496544924663145,-24.733651895303638
2.7e-05,-18.886657965018735,1.746295205816602,2.6505325020206314,-18.886657965018735
2.8e-05,-11.890249463327859,1.9998178086576743,2.2704062250993906,-11.890249463327859
2.9e-05,-4.2700418449627,2.1058842872493146,6.653271695385237,-4.2700418449627
2.9999999999999997e-05,3.5921415049314582,2.128356163345213,15.810665006122411,3.5921415049314582
3.1e-05,11.549016028328039,2.1596063739626543,20.709745146918387,11.549016028328039
3.2e-05,19.555725958456783,2.1715351608759423,28.705778861149422,19.555725958456783
3.2999999999999996e-05,27.59173280582106,2.143727778672025,38.69636044816599,27.59173280582106
3.4e-05,35.540503290568644,2.1347984895146244,53.050259587134015,35.540503290568644
3.5e-05,43.61886948887982,2.2346212380575112,73.55401365316479,43.61886948887982
3.6e-05,52.580775279943616,2.5917180946413203,87.2695559015032,52.580775279943616
3.7e-05,62.91066985448726,2.999367955925632,90.0740714696302,62.91066985448726
3.7999999999999995e-05,74.56763989061784,3.2431137055066452,83.48052979898611,74.56763989061784
3.9e-05,86.46963985788959,3.0999147825842344,71.35319257384295,86.46963985788959
3.9999999999999996e-05,96.96453693549932,2.5193558779464142,60.044561529300246,96.96453693549932
4.1e-05,104.66566068298933,1.5681659677938666,52.64699682427594,104.66566068298933
4.2e-05,108.33257511905047,0.4064648951867515,49.26502708786345,108.33257511905047
4.2999999999999995e-05,107.63717602954944,-0.7729556131752642,50.628976612851886,107.63717602954944
4.4e-05,102.79574614237079,-1.8082875075030431,53.872102925300865,102.79574614237079
4.4999999999999996e-05,94.59170699619006,-2.5517630054150255,62.699335365265576,94.59170699619006
4.6e-05,84.35631818624613,-2.912342807733249,72.36239191721475,84.35631818624613
4.7e-05,73.65290334939951,-2.77349087199167,93.36297509829257,73.65290334939951
4.8e-05,64.46853729071913,-2.1387758157821857,112.63831092288866,64.46853729071913
4.9e-05,58.349730078898155,-1.076295593667605,119.33711810982825,58.349730078898155
4.9999999999999996e-05,56.80661385167057,0.2381343170593544,115.83889573148227,56.80661385167057
5.1e-05,59.82762743052407,1.353652285167815,111.93835975992468,59.82762743052407
5.2e-05,66.52550776869057,2.2253610211640833,107.31192338129333,66.52550776869057
5.3e-05,75.99802220473903,2.833248291172952,106.06058795654349,75.99802220473903
5.4e-05,87.17361143815586,3.1476774378884853,106.41435811712229,87.17361143815586
5.4999999999999995e-05,99.08653809881983,3.2525334865386277,103.5807997100199,99.08653809881983
5.6e-05,110.84998028451062,3.0463609800103866,92.61470523776994,110.84998028451062
5.6999999999999996e-05,121.04604688014992,2.4188623797818183,72.81831589013048,121.04604688014992
5.8e-05,128.02508423555727,1.2996314577390153,53.68236274863178,128.02508423555727
5.9e-05,130.08521734203183,-0.21565489096380475,42.8353546766959,130.08521734203183
5.9999999999999995e-05,126.27437740459368,-1.8604281768343396,34.38439632503655,126.27437740459368
6.1e-05,116.29817177140703,-3.515782863020332,21.25825970567041,116.29817177140703
6.2e-05,100.15103731987946,-5.411927445054854,11.058011175291982,100.15103731987946
6.3e-05,65.02379720624498,-12.688976413217238,4.297579317630896,65.02379720624498
6.4e-05,16.4720654288256,-12.057803986801785,-4.8552587717490505,16.4720654288256
6.5e-05,-19.476998130299336,-7.123592491636849,-11.732972619571749,-19.476998130299336
6.599999999999999e-05,-39.50078898582783,-4.445704751382206,-17.754329786123787,-39.50078898582783
6.7e-05,-54.399520483457486,-3.5984866643328814,-27.441552020744382,-54.399520483457486
6.8e-05,-66.15078799969847,-2.7190338101918523,-32.77055019006971,-66.15078799969847
6.9e-05,-74.50776800183706,-1.7914723490242288,-31.038468512537285,-74.50776800183706
7e-05,-79.26148701075427,-0.7315676876359081,-21.08149069869213,-79.26148701075427
7.099999999999999e-05,-79.72667637964746,0.4787770177603832,-8.260606667896266,-79.72667637964746
7.2e-05,-75.46559756545965,1.8288735069310103,-6.076047908003598,-75.46559756545965
7.3e-05,-66.44066008220955,2.984602302620419,-10.37099840997341,-66.44066008220955
7.4e-05,-53.76942938415421,3.807399112460431,-11.000397075266697,-53.76942938415421
7.5e-05,-38.65001375333847,4.300538164779538,-7.090930048303113,-38.65001375333847
7.599999999999999e-05,-22.239052806670557,4.5159984489496585,4.9576293969832825,-22.239052806670557
7.7e-05,-5.2164190572567035,4.6051463215437405,36.03551485575642,-5.2164190572567035
7.8e-05,12.400099655809438,4.967586918798009,67.90286702855619,12.400099655809438
7.9e-05,35.818102935954144,7.801777498159186,98.41578864149565,35.818102935954144
7.999999999999999e-05,71.9700808198873,10.450265506215842,126.62060333701739,71.9700808198873
8.099999999999999e-05,111.93865171750748,10.597986211861718,149.30569530454613,111.93865171750748
8.2e-05,149.13516571730344,8.57948350541766,163.43076268893842,149.13516571730344
8.3e-05,175.4841995939478,5.542635047088138,173.300158571153,175.4841995939478
8.4e-05,193.80868438890474,4.532283516099382,173.68657684741953,193.80868438890474
8.499999999999999e-05,209.0552875388673,3.66258186121151,167.6550142910281,209.0552875388673
8.599999999999999e-05,220.5251484422184,2.479278321996116,157.1394550014248,220.5251484422184
8.7e-05,227.01676319188442,0.9688165797137271,149.49679193318514,227.01676319188442
8.8e-05,227.62313728169127,-0.6240155480255392,150.80647209909716,227.62313728169127
8.9e-05,222.5883602118024,-2.081904136913894,142.67163701048196,222.5883602118024
8.999999999999999e-05,212.19184217958667,-3.52412949458585,132.9014717181094,212.19184217958667
9.099999999999999e-05,196.67579593750685,-4.83489347307302,114.56102801139,196.67579593750685
9.2e-05,168.1414960303952,-10.894520661923737,95.77209956818353,168.1414960303952
9.3e-05,120.68543710175626,-13.039218906778302,85.37020392274434,120.68543710175626
9.4e-05,78.22900615137883,-9.044325305082435,76.150526861169,78.22900615137883
9.499999999999999e-05,53.54312088604803,-4.861520889082181,61.07285231590079,53.54312088604803
9.6e-05,37.36404381450158,-4.017682896788536,44.50069381217985,37.36404381450158
9.7e-05,23.54447696076046,-3.439405731402463,33.07016250066404,23.54447696076046
9.8e-05,11.805627248975261,-2.888876011639027,21.186008656293307,11.805627248975261
9.9e-05,1.9964756107537003,-2.4028418281483432,12.29141817664395,1.9964756107537003
9.999999999999999e-05,-6.083064301957549,-1.9509184531498875,5.0336706871648085,-6.083064301957549
0.000101,-12.488255770860198,-1.5222760069500798,-0.7837858981139811,-12.488255770860198
0.000102,-17.407138077431018,-1.0986225676548291,6.588839045113928,-17.407138077431018
0.000103,-20.430647079819767,-0.5268062492876078,15.079941475070049,-20.430647079819767
0.000104,-21.082434760041064,0.18970972766593436,11.220551878817592,-21.082434760041064
0.00010499999999999999,-19.23519841296757,0.7675717831435148,5.65668555454717,-19.23519841296757
0.000106,-15.597716959576424,1.177846407099613,-0.6724539394683281,-15.597716959576424
0.000107,-10.714539450290436,1.4225412504129484,-2.7296825415423456,-10.714539450290436
0.000108,-5.353741346180042,1.445787980579167,-7.575427419038933,-5.353741346180042
0.00010899999999999999,-0.28178041821691613,1.2625135010077775,-11.894223588255246,-0.28178041821691613
0.00010999999999999999,3.784875853484391,0.9205128526225725,-11.02591385339215,3.784875853484391
0.000111,6.505737530047353,0.5451357460773274,-6.612178034711142,6.505737530047353
0.000112,7.918696205092697,0.2203442008743379,-9.090173139324504,7.918696205092697
0.000113,8.079174790109823,-0.1284626310227218,-14.743405342774773,8.079174790109823
0.00011399999999999999,6.84308642335042,-0.5422735895395303,-22.57338624189577,6.84308642335042
0.00011499999999999999,3.9072027346733575,-1.0427349576043872,-29.488755293785974,3.9072027346733575
0.000116,-0.9580753904865553,-1.5807011296876152,-24.748144103823257,-0.9580753904865553
0.000117,-7.5107845263288295,-1.9089881783550238,-18.19658751549715,-7.5107845263288295
0.000118,-14.689859493524626,-1.9371935087699224,-17.949978986622604,-14.689859493524626
0.00011899999999999999,-21.69762091204254,-1.8207187240135612,-10.963689317952046,-21.69762091204254
0.00011999999999999999,-27.82951559263937,-1.4520087106238722,8.51480799260576,-27.82951559263937
0.000121,-31.847538790766272,-0.6089713388651257,28.793191355434548,-31.847538790766272
0.000122,-31.85763048699455,0.6107670506528752,35.65143763850499,-31.85763048699455
0.00012299999999999998,-27.272177874807745,1.8621324340017815,37.36997282898257,-27.272177874807745
0.000124,-18.278918416593292,2.952993346462778,43.11668552319868,-18.278918416593292
0.000125,-5.568597772900876,3.878667180971841,44.949535255325586,-5.568597772900876
0.000126,10.103959866466692,4.536550418288957,48.06886922082067,10.103959866466692
0.000127,27.710347525994724,4.906610036858395,52.832815390445916,27.710347525994724
0.000128,45.97651032721369,4.8932386409555155,51.220428028510774,45.97651032721369
0.000129,63.46614244920081,4.479598831944804,42.845313546337955,63.46614244920081
0.00013,78.51570459472504,3.5805929277086053,16.769338154837172,78.51570459472504
0.00013099999999999999,88.91039222544379,1.9842514442584385,-12.815797376553297,88.91039222544379
0.00013199999999999998,92.2144980185669,-0.2024628313512725,-38.93888190373494,92.2144980185669
0.000133,86.72080000138813,-2.7275970500231232,-62.20935633935294,86.72080000138813
0.000134,71.00568753592499,-7.449667763213639,-73.0756266863832,71.00568753592499
0.000135,12.996304163424924,-21.132787572625976,-86.01816906954883,12.996304163424924
0.000136,-67.45083723354094,-19.993696408932013,-97.9079613034553,-67.45083723354094
0.000137,-125.8683916556864,-10.859975447929195,-102.56842237607387,-125.8683916556864
0.000138,-150.84659041176758,-4.597127630293304,-98.18086395553095,-150.84659041176758
0.000139,-165.079096216829,-3.076406286312981,-97.27746517642542,-165.079096216829
0.00014,-173.47360543465973,-1.4285729789746622,-90.22852856149862,-173.47360543465973
0.00014099999999999998,-175.50584396639644,0.33500921167825415,-83.1722128962417,-175.50584396639644
0.00014199999999999998,-170.96044062363,2.1092520565237454,-80.9398122283796,-170.96044062363
0.000143,-160.14706323779941,3.679995641046178,-76.1615357814427,-160.14706323779941
0.000144,-143.8201190860168,5.246145163075987,-70.36464679244388,-143.8201190860168
0.000145,-113.50556717668593,10.541073995906714,-67.59137668014743,-113.50556717668593
0.000146,-74.3645103813413,9.505875450534417,-65.15890377351022,-74.3645103813413
0.000147,-47.04875783958115,5.347054761962953,-63.91830077452006,-47.04875783958115
0.000148,-29.703926780855383,4.187540351525422,-60.66699170043738,-29.703926780855383
0.000149,-16.054642018326422,3.1786823565654325,-51.06560090232368,-16.054642018326422
0.00015,-6.058022104687206,2.2554758465400537,-35.37951574408033,-6.058022104687206
0.00015099999999999998,0.8674350859921693,1.4754206775493894,-24.667065728674,0.8674350859921693
0.00015199999999999998,5.094980096824067,0.8134013001926529,-9.132576859772435,5.094980096824067
0.000153,7.2577589530775,0.39958190136884864,-5.527728981297021,7.2577589530775
0.000154,8.16860417738511,0.10214411333506246,-5.154103825718307,8.16860417738511
0.000155,8.040411675650905,-0.16331622964756903,-1.3865360798099944,8.040411675650905
0.000156,7.133630181103317,-0.30117077832667966,2.77772041697001,7.133630181103317
0.000157,5.912554115070988,-0.35378262654417286,2.4999356681486145,5.912554115070988
0.000158,4.499428422288384,-0.4116980255260402,-0.3709668686235832,4.499428422288384
0.000159,2.8631341778883166,-0.46664589149136576,-6.265102463891601,2.8631341778883166
0.00015999999999999999,0.9233635430373326,-0.584034802690277,-13.070495622481094,0.9233635430373326
0.00016099999999999998,-1.604376500055899,-0.7850279116377226,-13.495292158806858,-1.604376500055899
0.00016199999999999998,-4.817449194669634,-0.9338876407322154,-11.567292458881633,-4.817449194669634
0.000163,-8.381347191206874,-0.977045177646676,-11.8982673398715,-8.381347191206874
0.000164,-11.979610865194322,-0.9555446539882274,-7.481464161325703,-11.979610865194322
0.000165,-15.246251335470145,-0.7914354643470893,-0.10220032606072055,-15.246251335470145
0.000166,-17.57561797894657,-0.44636572859379814,11.04824941230552,-17.57561797894657
0.000167,-18.211292782737118,0.12017554617352463,22.301679385872436,-18.211292782737118
0.000168,-16.416592771686215,0.862533787120914,25.7089555358677,-16.416592771686215
0.000169,-11.852446536949525,1.5858370093070395,24.762651364050534,-11.852446536949525
0.00016999999999999999,-4.88718776456618,2.1538901265646544,27.797059063475544,-4.88718776456618
0.00017099999999999998,3.9480116920590724,2.594165424471961,33.700775561563816,3.9480116920590724
0.00017199999999999998,14.233191473850827,2.9362497379217007,38.24111938400136,14.233191473850827
0.000173,25.56982932957343,3.166883390230789,43.32478994095577,25.56982932957343
0.000174,37.45780554123524,3.203160243815894,52.42745529456719,37.45780554123524
0.000175,49.20003777054236,3.1530524188149927,57.355280605962605,49.20003777054236
0.000176,60.68031372849541,3.017945550102815,61.81014473423926,60.68031372849541
0.000177,71.41582156320435,2.752583133088266,63.18856252986441,71.41582156320435
0.000178,80.87054434894647,2.3280178875479294,63.15288502942822,80.87054434894647
0.000179,88.47930495111932,1.7597333407950966,68.75279985207555,88.47930495111932
0.00017999999999999998,93.94662969067709,1.225185744219302,78.57320781881945,93.94662969067709
0.00018099999999999998,97.73074758530976,0.8393371974747273,91.63826789995954,97.73074758530976
0.00018199999999999998,100.52590463016405,0.7201964859809038,107.62612672031189,100.52590463016405
0.000183,103.32063158942722,0.7913474848272828,120.11750193049501,103.32063158942722
0.000184,106.6010354443547,1.0168783172153804,130.29380034190635,106.6010354443547
0.000185,111.02078052311829,1.3826926128217503,134.95472385872844,111.02078052311829
0.000186,116.79124670866466,1.7092043178411527,136.9603899678864,116.79124670866466
0.000187,123.5859422307627,1.9436056331382776,135.6331680579354,123.5859422307627
0.000188,130.94083773606917,1.9924523491085626,133.24303986747165,130.94083773606917
0.00018899999999999999,138.07006821379707,1.8269676498471217,131.0294485184209,138.07006821379707
0.00018999999999999998,144.2880802421238,1.5016421764714196,126.2178082924111,144.2880802421238
0.00019099999999999998,148.9785952645896,1.0164991477543501,129.00351932180106,148.9785952645896
0.000192,151.84085676303894,0.5326217623773541,123.99155103997234,151.84085676303894
0.000193,152.75400009409404,-0.07436997486701658,111.74989844889411,152.75400009409404
0.000194,151.05149522243013,-0.8517195872488754,106.38982696090692,151.05149522243013
0.000195,146.46094465709044,-1.6234981027697173,106.97774193418887,146.46094465709044
0.000196,139.23336239810612,-2.2411024221271845,110.6052547480719,139.23336239810612
0.000197,130.16381998101997,-2.6028572090380497,115.29722089481683,130.16381998101997
0.000198,120.3404698072159,-2.6558021602125197,115.95241093609374,120.3404698072159
0.00019899999999999999,110.80085520729877,-2.4647818082431576,109.44449198844885,110.80085520729877
0.00019999999999999998,102.00892099038583,-2.2903153945387578,100.80362621032458,102.00892099038583
0.00020099999999999998,93.81207744519439,-2.1362604297778187,90.30587769290258,93.81207744519439
0.000202,86.13352965634293,-2.0140848856022338,84.97502357872503,86.13352965634293
0.000203,78.93357729443989,-1.8768945467568097,78.6041680151142,78.93357729443989
0.000204,72.26349648250084,-1.7328975099796622,67.25746912755201,72.26349648250084
0.000205,65.94845509983779,-1.6613503736015314,55.3814775540681,65.94845509983779
0.000206,59.75900031370775,-1.712145893815575,46.515274839335106,59.75900031370775
0.000207,53.1686264501825,-1.84895604775254,35.32678020331353,53.1686264501825
0.000208,45.916530312900285,-2.075855828976434,21.56824923400816,45.916530312900285
0.00020899999999999998,37.668788316424056,-2.3575956889677587,11.59925672941669,37.668788316424056
0.00020999999999999998,28.33590958266325,-2.6488272382593108,4.878331357167166,28.33590958266325
0.00021099999999999998,18.062997237991432,-2.9067516093665637,-3.3068057905034447,18.062997237991432
0.000212,6.966080913471755,-3.048204095415648,-12.143033062139084,6.966080913471755
0.000213,-4.477788669271211,-3.11647891253884,-19.89397121770846,-4.477788669271211
0.000214,-16.138227539134753,-3.205419212416919,-34.81260372019537,-16.138227539134753
0.000215,-28.185859443651168,-3.2562533571830974,-55.632192747888894,-28.185859443651168
0.000216,-40.51676746403092,-3.4470693413644162,-75.91974665487955,-40.51676746403092
0.000217,-54.07629804434555,-3.83549125652592,-91.07362955108741,-54.07629804434555
0.00021799999999999999,-69.04947683512853,-4.217830571125928,-96.98052057160771,-69.04947683512853
0.00021899999999999998,-85.0514795249919,-4.3389623947866,-89.88494437575595,-85.0514795249919
0.00021999999999999998,-100.52263238261126,-3.9191598337226736,-76.64771798649306,-100.52263238261126
0.00022099999999999998,-113.35029745705415,-2.934453653776604,-65.17220601870986,-113.35029745705415
0.000222,-121.94348618887307,-1.6610132092317489,-57.164858564145206,-121.94348618887307
0.000223,-125.44085985640486,-0.22142443219025187,-55.580417214551744,-125.44085985640486
0.000224,-123.67914807158807,1.1560025960913984,-55.100433798516015,-123.67914807158807
0.000225,-117.05773955298334,2.387333865983671,-54.786802679935754,-117.05773955298334
0.000226,-106.31792587711664,3.3709339356693437,-53.313433328179514,-106.31792587711664
