time,V_C,I_L,V_IN,V_C
0.0,0.0,0.0,42.90406346937621,0.0
1e-06,0.8339020337443972,0.8178534307127021,38.866801269637,0.8339020337443972
2e-06,3.1485377851726883,1.4590610675306477,36.81336492589607,3.1485377851726883
3e-06,6.578429774837,1.9423974593128464,28.90331255212628,6.578429774837
4e-06,10.724220447380464,2.1661877630515884,23.186341848464867,10.724220447380464
4.9999999999999996e-06,15.08438538812771,2.1649069703921473,21.508262811482055,15.08438538812771
6e-06,19.316902417942377,2.065053878737407,37.051599460274645,19.316902417942377
7e-06,23.543290675349812,2.1611887306815514,60.858138753354595,23.543290675349812
8e-06,28.28268740697659,2.6603963632269356,78.59191848926348,28.28268740697659
9e-06,34.32905584228768,3.3512642907624,83.40993008731002,34.32905584228768
9.999999999999999e-06,41.627951222046775,3.91543333410287,79.09597086165525,41.627951222046775
1.1e-05,49.79728279198146,4.204785326249495,70.09065535932294,49.79728279198146
1.2e-05,58.14982570840992,4.067428140938637,56.67787332114727,58.14982570840992
1.3e-05,65.85486115889495,3.6208582662421565,38.97410056349341,65.85486115889495
1.4e-05,72.32454620334337,2.7573539984989215,20.819855022749508,72.32454620334337
1.4999999999999999e-05,76.55401582706737,1.4591259402898917,4.791809324256692,76.55401582706737
1.6e-05,77.9308589275604,-0.07950768902729446,-10.54713676964898,77.9308589275604
1.7e-05,76.06314703279457,-1.7778224295252114,-26.642426056898543,76.06314703279457
1.8e-05,70.69154804479011,-3.5583544113451744,-38.75603638735979,70.69154804479011
1.8999999999999998e-05,61.80872192997869,-5.296306299034404,-34.48789202202381,61.80872192997869
1.9999999999999998e-05,49.86163415456145,-6.5846408830843774,-37.26821237301315,49.86163415456145
2.1e-05,35.670882786561556,-7.555238889742159,-45.005097738648374,35.670882786561556
2.2e-05,19.79466262483263,-8.280804813952136,-48.067298633600494,19.79466262483263
2.3e-05,2.7504823978593365,-8.708133160965561,-49.16631372527301,2.7504823978593365
2.4e-05,-14.804250669513099,-8.779237088315849,-45.00412474950443,-14.804250669513099
2.4999999999999998e-05,-32.04735275864464,-8.37877992629359,-33.5888552029165,-32.04735275864464
2.6e-05,-48.004244963040925,-7.514211115945193,-15.345867024163214,-48.004244963040925
2.7e-05,-61.7001184863651,-6.079023440706392,1.7721847960273687,-61.7001184863651
2.8e-05,-72.04850849408733,-4.244848675563334,10.21323488377752,-72.04850849408733
2.9e-05,-78.59499334844269,-2.2782837852123676,17.81994872017017,-78.59499334844269
2.9999999999999997e-05,-81.16380030017456,-0.30307770949512314,13.44891063627736,-81.16380030017456
3.1e-05,-79.90434053673967,1.517002319677997,6.336866626756976,-79.90434053673967
3.2e-05,-75.36276790515058,2.949504426571826,-3.3332415303323906,-75.36276790515058
3.2999999999999996e-05,-68.36836656078505,3.981611009288076,-15.510921246641786,-68.36836656078505
3.4e-05,-59.7845373508246,4.530075461254004,-21.432189101376593,-59.7845373508246
3.5e-05,-50.44162254404805,4.77782363475645,-23.364040896257404,-50.44162254404805
3.6e-05,-40.83376934339337,4.800437589752135,-20.61961768552262,-40.83376934339337
3.7e-05,-31.3371883233638,4.66099702885441,-23.95546358720909,-31.3371883233638
3.7999999999999995e-05,-22.34864015735906,4.301478573037905,-21.675925082996542,-22.34864015735906
3.9e-05,-14.140642231201898,3.901716346250941,-15.274009638943303,-14.140642231201898
3.9999999999999996e-05,-6.747557192298739,3.4893669357583037,-11.357742755086845,-6.747557192298739
4.1e-05,-0.2233797073458561,3.012683367966186,-16.748780603666415,-0.2233797073458561
4.2e-05,5.185666275874589,2.371552652589567,-25.55546402963947,5.185666275874589
4.2999999999999995e-05,9.063717649364055,1.4453813754800449,-43.13900591030935,9.063717649364055
4.4e-05,10.808413750157888,0.30467246992843294,-62.28369222698862,10.808413750157888
4.4999999999999996e-05,10.046108387376893,-1.0712898824190393,-55.38542074539512,10.046108387376893
4.6e-05,6.749916270799391,-2.1492065933622637,-36.25832461181955,6.749916270799391
4.7e-05,1.8385121147783714,-2.6950847860415816,-11.362752990026047,1.8385121147783714
4.8e-05,-3.552693561972047,-2.655842133452497,6.665559967973126,-3.552693561972047
4.9e-05,-8.438374486771728,-2.202799177166017,23.081662469385442,-8.438374486771728
4.9999999999999996e-05,-12.070881275808562,-1.35175162825327,39.19393988275042,-12.070881275808562
5.1e-05,-13.632382579625867,-0.22596968892147717,53.07514272723758,-13.632382579625867
5.2e-05,-12.855552721826234,1.0432798364007256,61.076213981543795,-12.855552721826234
5.3e-05,-9.44987831879467,2.3370611240238297,59.84245548569376,-9.44987831879467
5.4e-05,-3.6776134668049174,3.360596288382305,45.82593336769998,-3.6776134668049174
5.4999999999999995e-05,3.671253038200679,3.9262378041783657,36.41509365810866,3.671253038200679
5.6e-05,11.764249275188916,4.11620522014223,33.91002299512383,11.764249275188916
5.6999999999999996e-05,20.0151291588873,4.117806723163135,37.65638036317288,20.0151291588873
5.8e-05,28.196376156737006,4.0526129233961,41.56916875709592,28.196376156737006
5.9e-05,36.166967871884964,3.9181766508143396,51.77068469097005,36.166967871884964
5.9999999999999995e-05,43.92084918269633,3.8321836563273726,54.60665284657059,43.92084918269633
6.1e-05,51.405631661839834,3.6169276550899374,48.40512222795771,51.405631661839834
6.2e-05,58.2239994882693,3.168105376262579,45.67598213907132,58.2239994882693
6.3e-05,64.00029826965473,2.5990522958407936,38.882084183146624,64.00029826965473
6.4e-05,68.57419362244482,1.9365637857106903,25.428900951665707,68.57419362244482
6.5e-05,71.51679698556211,0.9857045570652256,15.863258122587096,71.51679698556211
6.599999999999999e-05,72.34874595690806,-0.19384517754275343,13.822921780258813,72.34874595690806
6.7e-05,70.84614974054881,-1.287284453977197,15.160284548050244,70.84614974054881
6.8e-05,67.3164663226509,-2.213248113332685,25.248813678994203,67.3164663226509
6.9e-05,62.24447188826391,-2.7288807087903812,56.744123203182944,62.24447188826391
7e-05,56.924168217890205,-2.5039934044554717,88.47695120596642,56.924168217890205
7.099999999999999e-05,52.81375779672461,-1.4827067232509634,113.5605525440655,52.81375779672461
7.2e-05,51.18346642556266,-0.15228292788878006,117.79849322927757,51.18346642556266
7.3e-05,52.175999353015776,1.1306789192679503,117.51541324923332,52.175999353015776
7.4e-05,55.59557700349167,2.2554595709062304,117.80907283590903,55.59557700349167
7.5e-05,61.087801070108156,3.1962104387653136,111.65588847479557,61.087801070108156
7.599999999999999e-05,68.15276249545163,3.8127447063879965,98.98357929579451,68.15276249545163
7.7e-05,75.96894532842549,3.9180379887117422,87.87872794571129,75.96894532842549
7.8e-05,83.63014539843986,3.6870611552042964,75.3122603264103,83.63014539843986
7.9e-05,90.48460014496327,3.1115014965618797,62.41645946321931,90.48460014496327
7.999999999999999e-05,95.87216519869392,2.2554805579045616,59.67522801655247,95.87216519869392
8.099999999999999e-05,99.44694666956981,1.3289797723986176,65.52577806562341,99.44694666956981
8.2e-05,101.2800827732571,0.5296530665706054,70.04778642141302,101.2800827732571
8.3e-05,101.64043238060147,-0.15346786695333914,69.37575923012042,101.64043238060147
8.4e-05,100.72875051789067,-0.7497058262104185,70.32778820037066,100.72875051789067
8.499999999999999e-05,98.70831122526683,-1.2438837427536535,75.09064808303923,98.70831122526683
8.599999999999999e-05,95.8798961203192,-1.5592635055858386,78.21203239431524,95.8798961203192
8.7e-05,92.55863841750165,-1.7647293139245686,69.6643765168886,92.55863841750165
8.8e-05,88.76337822177409,-2.0414405308559993,58.385058696882254,88.76337822177409
8.9e-05,84.2916567809721,-2.4452062792658342,51.51793665000947,84.2916567809721
8.999999999999999e-05,79.00970540306002,-2.8159622475245496,50.78860018423693,79.00970540306002
9.099999999999999e-05,73.12197826487602,-3.03845629463968,56.16391482025542,73.12197826487602
9.2e-05,67.01318156484453,-3.037772536272866,61.72862671185315,67.01318156484453
9.3e-05,61.11827815363651,-2.834136511065239,56.77396464265583,61.11827815363651
9.4e-05,55.671705884291015,-2.614402537280958,44.11066175471389,55.671705884291015
9.499999999999999e-05,50.59534882861165,-2.5048869463825025,29.096626268986824,50.59534882861165
9.6e-05,45.49867338297406,-2.6141033891640086,27.146978760678362,45.49867338297406
9.7e-05,40.166469225818645,-2.699626352078723,29.20608452570971,40.166469225818645
9.8e-05,34.85254244879262,-2.5785746217939858,34.678912745267155,34.85254244879262
9.9e-05,29.971654672460343,-2.2604880332346724,43.34159260243836,29.971654672460343
9.999999999999999e-05,25.951381363072784,-1.7412591772921187,45.349152712700835,25.951381363072784
0.000101,23.012586642629298,-1.216899275751207,37.485711045578626,23.012586642629298
0.000102,20.924928826106196,-0.9068496728396167,26.801701643614898,20.924928826106196
0.000103,19.298910404002896,-0.7415856701950393,19.735719981536054,19.298910404002896
0.000104,17.920407245802394,-0.622990508374752,24.166999876137677,17.920407245802394
0.00010499999999999999,16.854410150391807,-0.4414407164067634,31.566650486497927,16.854410150391807
0.000106,16.241761520102322,-0.14798442987033367,31.424850459445064,16.241761520102322
0.000107,16.254345117042085,0.16153581833030412,33.868565123424354,16.254345117042085
0.000108,16.905830248578777,0.49633855588913656,37.79633979016802,16.905830248578777
0.00010899999999999999,18.234211938024313,0.8113418526605793,33.869629178582116,18.234211938024313
0.00010999999999999999,20.08149193561827,1.0246982454857265,25.187031347054067,20.08149193561827
0.000111,22.169297169709363,1.012538029935753,8.287853872212708,22.169297169709363
0.000112,23.820934543487162,0.6441524809048234,-4.317004087383969,23.820934543487162
0.000113,24.55285779878337,0.0538329336894689,-16.151149413319256,24.55285779878337
0.00011399999999999999,23.869005935954043,-0.7257137299331691,-32.82949770558657,23.869005935954043
0.00011499999999999999,21.606242050545106,-1.5686430652998293,-48.315899402880746,21.606242050545106
0.000116,17.416126668299313,-2.6355411602011567,-57.514032840940395,17.416126668299313
0.000117,10.988157414245299,-3.8166488946942954,-64.18105240896776,10.988157414245299
0.000118,2.2762319016610046,-4.854609755045573,-64.66118122830376,2.2762319016610046
0.00011899999999999999,-8.227929842572822,-5.6016945756697964,-60.626249075626944,-8.227929842572822
0.00011999999999999999,-19.89974120496361,-6.017023335056249,-60.53729381751092,-19.89974120496361
0.000121,-32.156776578516,-6.185070587230368,-57.97256580635184,-32.156776578516
0.000122,-44.39930396003798,-6.000011520090376,-42.235892079208504,-44.39930396003798
0.00012299999999999998,-55.68620167704623,-5.2381733177641285,-28.161327355219203,-55.68620167704623
0.000124,-65.12066713787735,-4.129176180423141,-22.415275490706083,-65.12066713787735
0.000125,-72.1787681002943,-2.9061406953692455,-20.70286509668517,-72.1787681002943
0.000126,-76.7535773298166,-1.6746401347262716,-24.692520297066626,-76.7535773298166
0.000127,-78.92561970305316,-0.5169774836579438,-21.19641753659383,-78.92561970305316
0.000128,-78.81463787291624,0.6175809324487765,-12.834526595593896,-78.81463787291624
0.000129,-76.39951547687983,1.8369061837534317,1.3448783490772966,-76.39951547687983
0.00013,-71.39080039954928,3.1357267341645017,18.01987326508813,-71.39080039954928
0.00013099999999999999,-63.75660733538646,4.532101631960526,33.56772108567937,-63.75660733538646
0.00013199999999999998,-53.271892047807725,5.9228712999514554,49.30410080523955,-53.271892047807725
0.000133,-40.04131703386746,7.300245925831909,59.5499657944919,-40.04131703386746
0.000134,-24.23106438830219,8.443468654095664,59.28052207209538,-24.23106438830219
0.000135,-6.547113014012819,9.145590026598628,49.6985901643158,-6.547113014012819
0.000136,11.793134827840248,9.09539224135743,33.76298038104579,11.793134827840248
0.000137,29.484478308152113,8.48498554563954,9.886637365201514,29.484478308152113
0.000138,45.23041503259654,7.157476854306099,-1.9216816921779358,45.23041503259654
0.000139,57.912752194625725,5.494578297995657,-17.375101755794056,57.912752194625725
0.00014,66.90628710270985,3.4342996627557962,-31.919708846847595,66.90628710270985
0.00014099999999999998,71.53109545980487,1.1952411020844087,-51.50565724509583,71.53109545980487
0.00014199999999999998,71.65017080918055,-1.1032264855854055,-76.42545783491359,71.65017080918055
0.000143,66.85572306286592,-3.686269535773433,-94.20527813754302,66.85572306286592
0.000144,56.80247183284508,-6.413858005673875,-105.13919852697681,56.80247183284508
0.000145,41.476910939961776,-8.8386530135625,-109.45656199499378,41.476910939961776
0.000146,21.756500018357254,-10.780286477098947,-106.78745189938434,21.756500018357254
0.000147,-1.2569356786937647,-12.151143956039547,-103.72952405089855,-1.2569356786937647
0.000148,-26.368487397748265,-12.84884981579039,-96.08324367741723,-26.368487397748265
0.000149,-52.19482056991225,-12.848441348839305,-84.8900416194588,-52.19482056991225
0.00015,-77.23095082526785,-12.101955001486399,-76.30524610324674,-77.23095082526785
0.00015099999999999998,-100.2095810924568,-10.798074158445754,-69.25363660168222,-100.2095810924568
0.00015199999999999998,-120.16770731408282,-9.067990680834013,-59.434168972996325,-120.16770731408282
0.000153,-136.1825335202219,-6.89234652666403,-49.61835875764322,-136.1825335202219
0.000154,-147.56498710302924,-4.465959106518743,-44.1861715642589,-147.56498710302924
0.000155,-154.0414939747185,-2.021986457837125,-52.43985913891777,-154.0414939747185
0.000156,-155.88074516840237,0.10232157466238467,-58.39955749592441,-155.88074516840237
0.000157,-153.78372334021938,1.9214717250872617,-58.45033894880518,-153.78372334021938
0.000158,-148.2938916716291,3.5538167674735597,-56.32050632597039,-148.2938916716291
0.000159,-139.7319285735308,5.024844310580121,-48.2666372477104,-139.7319285735308
0.00015999999999999999,-128.4805171652266,6.193800959922415,-29.765337943531197,-128.4805171652266
0.00016099999999999998,-114.78857853454711,7.5138272485849305,-12.366060672497923,-114.78857853454711
0.00016199999999999998,-98.50276725027781,8.754745945784995,2.289698132391603,-98.50276725027781
0.000163,-79.92398565131704,9.783494782844365,6.6653768650739105,-79.92398565131704
0.000164,-59.66252297490937,10.372592342905165,2.6154427470678994,-59.66252297490937
0.000165,-38.706853600125754,10.50045799209616,-5.668377493358347,-38.706853600125754
0.000166,-18.125807132982473,9.990418394290682,-17.53059152235306,-18.125807132982473
0.000167,0.8767107691720577,8.934994306856334,-27.75541005111495,0.8767107691720577
0.000168,17.414106290130743,7.515093098185069,-39.35176514170615,17.414106290130743
0.000169,30.585975263862068,5.61250535099413,-50.3303964301471,30.585975263862068
0.00016999999999999999,39.686198017607325,3.4665580369580606,-67.14370380796653,39.686198017607325
0.00017099999999999998,44.22608766818808,0.9814115140483595,-88.64177672292828,44.22608766818808
0.00017199999999999998,43.52713167013,-1.6354749189061941,-107.86152966951701,43.52713167013
0.000173,37.642057943269535,-4.258358014385932,-125.24678190300479,37.642057943269535
0.000174,26.52001907251821,-6.875229777853424,-138.89449696404165,26.52001907251821
0.000175,10.273703482764123,-9.296786726563907,-148.4020801748664,10.273703482764123
0.000176,-10.421053162635648,-11.316367240258355,-151.05422405074506,-10.421053162635648
0.000177,-34.51522460317935,-12.674544089757513,-140.1444281103163,-34.51522460317935
0.000178,-60.65423705076992,-13.335336967383336,-117.84981149541383,-60.65423705076992
0.000179,-87.3180824489422,-13.129630792929712,-93.65629637739885,-87.3180824489422
0.00017999999999999998,-112.3328399926541,-11.744114806520596,-73.11072902993831,-112.3328399926541
0.00018099999999999998,-133.8612330525438,-9.7043452506356,-51.22866898768228,-133.8612330525438
0.00018199999999999998,-150.7712690019563,-7.138524975629618,-44.94262511375378,-150.7712690019563
0.000183,-162.20697283123727,-4.279874264361058,-52.4445303217226,-162.20697283123727
0.000184,-168.1403923047706,-1.7092785694253712,-56.84126523932274,-168.1403923047706
0.000185,-169.23003303266466,0.5782562655796957,-57.8063700917215,-169.23003303266466
0.000186,-165.9784152514761,2.6369339376042698,-57.30562043749507,-165.9784152514761
0.000187,-158.8308568394062,4.456277898663312,-57.68321705701133,-158.8308568394062
0.000188,-148.4413755377702,5.8720221278358125,-67.26231344535589,-148.4413755377702
0.00018899999999999999,-135.80688244016758,6.681658396308066,-78.29423503037644,-135.80688244016758
0.00018999999999999998,-121.99657641430893,7.047835264753739,-75.89543821085937,-121.99657641430893
0.00019099999999999998,-107.71662517115837,7.20811617795865,-65.42680430985973,-107.71662517115837
0.000192,-93.22814734459274,7.250684779454838,-56.00643704342507,-93.22814734459274
0.000193,-78.80158794983369,7.17145374659326,-39.377324152617135,-78.80158794983369
0.000194,-64.47814662186215,7.177628238319145,-31.486420524025533,-64.47814662186215
0.000195,-50.20554979244414,7.049057055800645,-29.373116967304615,-50.20554979244414
0.000196,-36.42635129389325,6.70167183014024,-27.94846489899185,-36.42635129389325
0.000197,-23.558002672532922,6.127911960153122,-33.33735426971414,-23.558002672532922
0.000198,-12.132930851028508,5.253044909263093,-40.48508871987351,-12.132930851028508
0.00019899999999999999,-2.6999737987048142,4.122141004260633,-46.20163742748956,-2.6999737987048142
0.00019999999999999998,4.289042730472778,2.861735651344195,-49.63093079294305,4.289042730472778
0.00020099999999999998,8.760486360718447,1.615887944452334,-44.86697205994461,8.760486360718447
0.000202,10.79608935816893,0.4429759135454745,-37.40513460027841,10.79608935816893
0.000203,10.692074266552805,-0.5190525499876069,-37.80340953885015,10.692074266552805
0.000204,8.77011374860083,-1.3932836152739791,-41.88726472819591,8.77011374860083
0.000205,5.149298808510816,-2.2145750582709534,-43.20484696204983,5.149298808510816
0.000206,0.006527789115129634,-2.8985875499051614,-44.068843689866036,0.006527789115129634
0.000207,-6.345794698769891,-3.426648447025697,-47.140495900756676,-6.345794698769891
0.000208,-13.650808645569882,-3.8618219559594116,-44.93184354217291,-13.650808645569882
0.00020899999999999998,-21.59650036868117,-4.029945744729735,-37.7123472376171,-21.59650036868117
0.00020999999999999998,-29.546942867886457,-3.877269743939262,-32.944437386020894,-29.546942867886457
0.00021099999999999998,-36.981231035789925,-3.5328187957683004,-27.52318373112732,-36.981231035789925
0.000212,-43.51211128291607,-2.98325344255451,-33.83502106091666,-43.51211128291607
0.000213,-49.07714865468973,-2.609127438724777,-47.52331467215228,-49.07714865468973
0.000214,-54.01289712469379,-2.3487999251697342,-55.6795383362663,-54.01289712469379
0.000215,-58.55464415432099,-2.2179994880060883,-65.04566058747517,-58.55464415432099
0.000216,-62.89222904718844,-2.1061348565395854,-76.41813514935981,-62.89222904718844
0.000217,-67.09760240258991,-2.1245770797725383,-85.41347182010472,-67.09760240258991
0.00021799999999999999,-71.48271109960027,-2.262649471382951,-92.35288448779815,-71.48271109960027
0.00021899999999999998,-76.18047488094034,-2.4295869293656085,-95.27863318312423,-76.18047488094034
0.00021999999999999998,-81.16018454838637,-2.5316280979578836,-102.63801783857836,-81.16018454838637
0.00022099999999999998,-86.30197823584354,-2.6141340776276887,-103.20967517656315,-86.30197823584354
0.000222,-91.60033413882039,-2.647994723862947,-82.34272071914548,-91.60033413882039
0.000223,-96.49469314261677,-2.2200846219498933,-63.94768336074744,-96.49469314261677
0.000224,-100.19912961436826,-1.4222908977358388,-59.4191094829543,-100.19912961436826
0.000225,-102.11046450719557,-0.4952266223866094,-52.59750676898473,-102.11046450719557
0.000226,-102.10149615335634,0.4914516894336961,-40.16492047803035,-102.10149615335634
0.000227,-99.99980040937271,1.6422502277246025,-21.609514981013156,-99.99980040937271
