time,V_C,I_L,V_IN,V_C
0.0,0.0,0.0,5.469233292175913,0.0
1e-06,0.19959524913265408,0.10597035748116578,-7.549197211070576,0.19959524913265408
2e-06,0.31276485587993685,-0.06003299926321291,-19.1619905602321,0.31276485587993685
3e-06,-0.6177663021793056,-0.4352717854064146,-21.32210037272719,-0.6177663021793056
4e-06,-2.9233301570338903,-0.8142481853333238,-25.262580983351853,-2.9233301570338903
4.9999999999999996e-06,-6.636508325933745,-1.18550701164674,-29.22589172065908,-6.636508325933745
6e-06,-11.66676933632045,-1.5170469327829723,-29.398264484308395,-11.66676933632045
7e-06,-17.708460888873226,-1.7281910697032565,-34.2456399160951,-17.708460888873226
8e-06,-24.448698135923177,-1.8978498509621173,-35.58590172228631,-24.448698135923177
9e-06,-31.572860312032528,-1.9113444108483426,-30.889917944698837,-31.572860312032528
9.999999999999999e-06,-38.349509273834556,-1.72610514673063,-33.57782864558493,-38.349509273834556
1.1e-05,-44.295331813014776,-1.47242952008495,-35.553885894320764,-44.295331813014776
1.2e-05,-49.18559739741165,-1.1532789021552587,-33.56036277253533,-49.18559739741165
1.3e-05,-52.69241542958494,-0.7180093069931981,-28.688032453194236,-52.69241542958494
1.4e-05,-54.3917608269596,-0.20449460053471835,-32.132415145450516,-54.3917608269596
1.4999999999999999e-05,-54.30629248007253,0.23616511565681478,-41.96920452857866,-54.30629248007253
1.6e-05,-53.005430240543866,0.45423851214851335,-46.84691781023352,-53.005430240543866
1.7e-05,-51.12134482382317,0.5397997101363945,-46.93382386871883,-51.12134482382317
1.8e-05,-49.06278471236524,0.5701544745868024,-43.86246696300593,-49.06278471236524
1.8999999999999998e-05,-46.881972899873716,0.6179632877970621,-39.542407845956504,-46.881972899873716
1.9999999999999998e-05,-44.437405989153184,0.6983383784361612,-38.47141852786923,-44.437405989153184
2.1e-05,-41.778618743578946,0.737080085138202,-36.103575251317736,-41.778618743578946
2.2e-05,-38.928427541594765,0.8015494119391648,-32.81570457088963,-38.928427541594765
2.3e-05,-35.859243011678664,0.8481550997108669,-30.519395574789023,-35.859243011678664
2.4e-05,-32.68324739293035,0.8575717339072527,-18.3699295918345,-32.68324739293035
2.4999999999999998e-05,-29.254441278700003,1.0329229006546288,-5.855789848355361,-29.254441278700003
2.6e-05,-24.733651898721213,1.4041230822779383,-1.3496544924662994,-24.733651898721213
2.7e-05,-18.88665796901884,1.7462952057040677,2.650532502020646,-18.88665796901884
2.8e-05,-11.890249467583725,1.9998178086319247,2.270406225099405,-11.890249467583725
2.9e-05,-4.270041849126848,2.105884287335912,6.653271695385249,-4.270041849126848
2.9999999999999997e-05,3.5921415012766955,2.1283561635623722,15.810665006122422,3.5921415012766955
3.1e-05,11.549016025724468,2.1596063742932925,20.709745146918394,11.549016025724468
3.2e-05,19.555725957434014,2.1715351613940217,28.705778861149426,19.555725957434014
3.2999999999999996e-05,27.591732806753583,2.1437277792522047,38.69636044816599,27.591732806753583
3.4e-05,35.54050329404092,2.1347984902590245,53.05025958713402,35.54050329404092
3.5e-05,43.6188694958506,2.234621239189725,73.5540136531648,43.6188694958506
3.6e-05,52.58077529208936,2.591718095999164,87.26955590150322,52.58077529208936
3.7e-05,62.9106698720182,2.999367957311361,90.07407146963024,62.9106698720182
3.7999999999999995e-05,74.56763991243396,3.243113706390358,83.48052979898614,74.56763991243396
3.9e-05,86.46963988142889,3.0999147826371045,71.35319257384299,86.46963988142889
3.9999999999999996e-05,96.96453695802153,2.519355877398954,60.04456152930027,96.96453695802153
4.1e-05,104.66566070198328,1.5681659665273426,52.646996824275966,104.66566070198328
4.2e-05,108.33257513272186,0.4064648935953314,49.26502708786348,108.33257513272186
4.2999999999999995e-05,107.63717603699926,-0.7729556148946486,50.628976612851915,107.63717603699926
4.4e-05,102.79574614347317,-1.8082875091913373,53.87210292530089,102.79574614347317
4.4999999999999996e-05,94.59170699163434,-2.5517630067588017,62.69933536526561,94.59170699163434
4.6e-05,84.35631817718964,-2.91234280875265,72.3623919172148,84.35631817718964
4.7e-05,73.65290333766478,-2.773490872450706,93.3629750982926,73.65290333766478
4.8e-05,64.4685372779818,-2.138775815900353,112.6383109228887,64.4685372779818
4.9e-05,58.34973006667507,-1.0762955933156928,119.33711810982828,58.34973006667507
4.9999999999999996e-05,56.80661384122443,0.23813431762577064,115.83889573148228,56.80661384122443
5.1e-05,59.82762742239873,1.3536522858537494,111.9383597599247,59.82762742239873
5.2e-05,66.52550776327914,2.22536102192819,107.31192338129334,66.52550776327914
5.3e-05,75.99802220220658,2.833248291954681,106.0605879565435,75.99802220220658
5.4e-05,87.17361143845433,3.1476774386365136,106.41435811712235,87.17361143845433
5.4999999999999995e-05,99.0865381018036,3.2525334872325447,103.58079971001993,99.0865381018036
5.6e-05,110.84998028971677,3.0463609804859093,92.61470523776998,110.84998028971677
5.6999999999999996e-05,121.04604688665833,2.4188623800193234,72.81831589013049,121.04604688665833
5.8e-05,128.02508424223709,1.2996314576667605,53.68236274863182,128.02508424223709
5.9e-05,130.08521734792774,-0.21565489124968285,42.835354676695935,130.08521734792774
5.9999999999999995e-05,126.27437740914715,-1.8604281772531461,34.384396325036576,126.27437740914715
6.1e-05,116.29817177430397,-3.5157828634805464,21.25825970567043,116.29817177430397
6.2e-05,100.15103732023567,-5.411927447249907,11.058011175292,100.15103732023567
6.3e-05,65.02379719150653,-12.68897641680094,4.29757931763091,65.02379719150653
6.4e-05,16.47206540769767,-12.05780398650873,-4.855258771749039,16.47206540769767
6.5e-05,-19.47699815250196,-7.12359249152067,-11.732972619571738,-19.47699815250196
6.599999999999999e-05,-39.50078900704988,-4.445704751390921,-17.75432978612378,-39.50078900704988
6.7e-05,-54.399520504078154,-3.598486663904186,-27.441552020744375,-54.399520504078154
6.8e-05,-66.15078801797937,-2.719033809330903,-32.7705501900697,-66.15078801797937
6.9e-05,-74.50776801571573,-1.7914723476392331,-31.038468512537282,-74.50776801571573
7e-05,-79.26148702061586,-0.7315676870797299,-21.081490698692118,-79.26148702061586
7.099999999999999e-05,-79.72667638768908,0.4787770180769959,-8.260606667896264,-79.72667638768908
7.2e-05,-75.46559756691215,1.8288735089002488,-6.076047908003593,-75.46559756691215
7.3e-05,-66.44066008360078,2.984602299285228,-10.370998409973406,-66.44066008360078
7.4e-05,-53.76942939869754,3.80739911002364,-11.000397075266692,-53.76942939869754
7.5e-05,-38.65001377963736,4.300538163695777,-7.09093004830311,-38.65001377963736
7.599999999999999e-05,-22.2390528169911,4.515998466138818,4.957629396983289,-22.2390528169911
7.7e-05,-5.216418957840753,4.605146354504371,36.035514855756425,-5.216418957840753
7.8e-05,12.400100287647373,4.967587133023437,67.90286702855622,12.400100287647373
7.9e-05,35.818106018563306,7.801778417299587,98.41578864149567,35.818106018563306
7.999999999999999e-05,71.97008631333658,10.450265631553536,126.6206033370174,71.97008631333658
8.099999999999999e-05,111.93865708705876,10.597985987082009,149.30569530454613,111.93865708705876
8.2e-05,149.1351692666866,8.579482878642374,163.43076268893844,149.1351692666866
8.3e-05,175.48420145312312,5.542634815524968,173.300158571153,175.48420145312312
8.4e-05,193.80868584522617,4.532283451146395,173.68657684741953,193.80868584522617
8.499999999999999e-05,209.05528865619456,3.662581698956668,167.6550142910281,209.05528865619456
8.599999999999999e-05,220.52514804270905,2.479277577329875,157.1394550014248,220.52514804270905
8.7e-05,227.0167586729917,0.9688151306382418,149.49679193318514,227.0167586729917
8.8e-05,227.62312773488844,-0.6240167113049091,150.80647209909716,227.62312773488844
8.9e-05,222.58834670043728,-2.0819055665921455,142.67163701048196,222.58834670043728
8.999999999999999e-05,212.19182261246556,-3.524131063391283,132.90147171810938,212.19182261246556
9.099999999999999e-05,196.6757713008605,-4.834894468712353,114.56102801138996,196.6757713008605
9.2e-05,168.14146058627912,-10.894522618782151,95.7720995681835,168.14146058627912
9.3e-05,120.68540383936848,-13.039215933041616,85.37020392274431,120.68540383936848
9.4e-05,78.22898710512042,-9.044320770257624,76.15052686116897,78.22898710512042
9.499999999999999e-05,53.54311457053629,-4.861519177827156,61.072852315900754,53.54311457053629
9.6e-05,37.36403980520983,-4.017682497908987,44.50069381217982,37.36403980520983
9.7e-05,23.544473368524187,-3.4394057107401017,33.070162500664004,23.544473368524187
9.8e-05,11.805623171707506,-2.8888762051584735,21.186008656293286,11.805623171707506
9.9e-05,1.9964701517459194,-2.402842252291126,12.291418176643926,1.9964701517459194
9.999999999999999e-05,-6.083071603447371,-1.9509189037706915,5.03367068716479,-6.083071603447371
0.000101,-12.488264961073142,-1.522276545441228,-0.7837858981139978,-12.488264961073142
0.000102,-17.407148801550917,-1.0986227643572497,6.588839045113913,-17.407148801550917
0.000103,-20.430658100846344,-0.5268061933996961,15.079941475070031,-20.430658100846344
0.000104,-21.0824449850223,0.18971005168447885,11.220551878817579,-21.0824449850223
0.00010499999999999999,-19.235207186175376,0.7675722493129274,5.656685554547164,-19.235207186175376
0.000106,-15.597723755642857,1.1778470022762941,-0.6724539394683331,-15.597723755642857
0.000107,-10.714543787058291,1.4225419867493638,-2.7296825415423482,-10.714543787058291
0.000108,-5.353742802761829,1.4457888040874807,-7.575427419038933,-5.353742802761829
0.00010899999999999999,-0.28177868041540544,1.2625144076442356,-11.894223588255246,-0.28177868041540544
0.00010999999999999999,3.784880863875162,0.9205136462470918,-11.025913853392149,3.784880863875162
0.000111,6.505745139053635,0.5451363231353876,-6.612178034711141,6.505745139053635
0.000112,7.918705253320752,0.22034455713747889,-9.090173139324502,7.918705253320752
0.000113,8.079184772908215,-0.12846244487929892,-14.743405342774773,8.079184772908215
0.00011399999999999999,6.843097352764034,-0.5422733284520251,-22.57338624189577,6.843097352764034
0.00011499999999999999,3.9072151552292977,-1.0427345573809998,-29.488755293785974,3.9072151552292977
0.000116,-0.9580609249822418,-1.5807006781401618,-24.74814410382326,-0.9580609249822418
0.000117,-7.510770072607118,-1.908988697609583,-18.196587515497153,-7.510770072607118
0.000118,-14.689848291921919,-1.9371944406259671,-17.949978986622604,-14.689848291921919
0.00011899999999999999,-21.697613597117147,-1.8207200874353717,-10.963689317952047,-21.697613597117147
0.00011999999999999999,-27.82951485469657,-1.4520109715974685,8.514807992605757,-27.82951485469657
0.000121,-31.84755343224516,-0.6089769736709383,28.793191355434544,-31.84755343224516
0.000122,-31.857667301238166,0.6107610823042445,35.65143763850499,-31.857667301238166
0.00012299999999999998,-27.272236809123225,1.8621268530718438,37.36997282898257,-27.272236809123225
0.000124,-18.27899526490305,2.9529890340893137,43.11668552319867,-18.27899526490305
0.000125,-5.568688847949716,3.878664011475988,44.949535255325586,-5.568688847949716
0.000126,10.103859731045517,4.536548555339676,48.06886922082066,10.103859731045517
0.000127,27.7102443579856,4.906610386500596,52.832815390445916,27.7102443579856
0.000128,45.9764129666317,4.893241359980435,51.220428028510774,45.9764129666317
0.000129,63.4660593829101,4.4796045212151325,42.84531354633795,63.4660593829101
0.00013,78.51564641026421,3.580602925172215,16.769338154837165,78.51564641026421
0.00013099999999999999,88.91037617976633,1.9842658285239079,-12.815797376553304,88.91037617976633
0.00013199999999999998,92.21453887422363,-0.2024459329600503,-38.93888190373495,92.21453887422363
0.000133,86.72090626980317,-2.7275802271605656,-62.20935633935294,86.72090626980317
0.000134,71.00591397902365,-7.449520251748337,-73.0756266863832,71.00591397902365
0.000135,12.99689636574066,-21.13273683049263,-86.01816906954883,12.99689636574066
0.000136,-67.45025751015339,-19.993735030562878,-97.9079613034553,-67.45025751015339
0.000137,-125.8680357040291,-10.860045687886787,-102.56842237607387,-125.8680357040291
0.000138,-150.84640006974684,-4.5971387899099225,-98.18086395553095,-150.84640006974684
0.000139,-165.07895248965087,-3.076419360368441,-97.27746517642542,-165.07895248965087
0.00014,-173.47353420099773,-1.428601653836496,-90.22852856149862,-173.47353420099773
0.00014099999999999998,-175.50589818933767,0.3349668591331525,-83.1722128962417,-175.50589818933767
0.00014199999999999998,-170.96063750173386,2.109216499548543,-80.9398122283796,-170.96063750173386
0.000143,-160.1473801951714,3.680001051272855,-76.1615357814427,-160.1473801951714
0.000144,-143.82045530088615,5.245892840316977,-70.36464679244388,-143.82045530088615
0.000145,-113.50657936956117,10.540908144685398,-67.59137668014743,-113.50657936956117
0.000146,-74.36571029618156,9.505924305079246,-65.15890377351022,-74.36571029618156
0.000147,-47.049803584496686,5.346542083609206,-63.91830077452005,-47.049803584496686
0.000148,-29.70457437222939,4.188017759114331,-60.66699170043737,-29.70457437222939
0.000149,-16.05258838242505,3.1803381391355314,-51.06560090232367,-16.05258838242505
0.00015,-6.046473181338998,2.260206594376792,-35.37951574408033,-6.046473181338998
0.00015099999999999998,0.8962640673645481,1.4805158807615006,-24.667065728673997,0.8962640673645481
0.00015199999999999998,5.144985504597314,0.8188352215633119,-9.132576859772435,5.144985504597314
0.000153,7.335969813695655,0.4071084247413349,-5.5277289812970185,7.335969813695655
0.000154,8.273022119740828,0.10819381118924312,-5.1541038257183045,8.273022119740828
0.000155,8.162736405616629,-0.15961457988656658,-1.3865360798099915,8.162736405616629
0.000156,7.264635082877151,-0.30041318534109374,2.7777204169700114,7.264635082877151
0.000157,6.0413356651324275,-0.355612353804208,2.4999356681486167,6.0413356651324275
0.000158,4.618212291150874,-0.4152114275689931,-0.3709668686235818,4.618212291150874
0.000159,2.9653015366669075,-0.47185231721358667,-6.265102463891599,2.9653015366669075
0.00015999999999999999,1.0065724690137727,-0.5892993986771198,-13.070495622481094,1.0065724690137727
0.00016099999999999998,-1.5367544612471766,-0.7894640273569692,-13.495292158806858,-1.5367544612471766
0.00016199999999999998,-4.768165070500617,-0.9399882226714195,-11.567292458881633,-4.768165070500617
0.000163,-8.356521328191416,-0.9835391540172695,-11.8982673398715,-8.356521328191416
0.000164,-11.974780720828969,-0.950892613668834,-7.481464161325703,-11.974780720828969
0.000165,-15.159023529901273,-0.7367889349379834,-0.10220032606072008,-15.159023529901273
0.000166,-17.235807193547362,-0.3721693920040777,11.048249412305521,-17.235807193547362
0.000167,-17.55406024475619,0.25984893154864885,22.301679385872436,-17.55406024475619
0.000168,-15.177212976162165,1.0048617208879127,25.70895553586771,-15.177212976162165
0.000169,-10.168451136367612,1.691676031982571,24.762651364050537,-10.168451136367612
0.00016999999999999999,-2.8764521517554273,2.216805879425547,27.797059063475544,-2.8764521517554273
0.00017099999999999998,6.0976640748958335,2.6048744464155735,33.700775561563816,6.0976640748958335
0.00017199999999999998,16.31943720168139,2.9026195425318693,38.24111938400136,16.31943720168139
0.000173,27.415703339640327,3.052256547451148,43.32478994095577,27.415703339640327
0.000174,38.701534449517474,3.0351446645379236,52.42745529456719,38.701534449517474
0.000175,49.934992434906135,3.0192508407057677,57.355280605962605,49.934992434906135
0.000176,60.93311056692572,2.8950561364024483,61.81014473423926,60.93311056692572
0.000177,71.19287252780003,2.628011782042157,63.18856252986441,71.19287252780003
0.000178,80.20837379113415,2.2163378643306726,63.15288502942822,80.20837379113415
0.000179,87.45404668182141,1.6720682116038228,68.75279985207554,87.45404668182141
0.00017999999999999998,92.66419984957062,1.1664458679813965,78.57320781881944,92.66419984957062
0.00018099999999999998,96.26553576458122,0.7997800911014938,91.63826789995953,96.26553576458122
0.00018199999999999998,98.94312275095187,0.644772807053391,107.62612672031187,98.94312275095187
0.000183,101.53064773303485,0.7910800066229243,120.11750193049497,101.53064773303485
0.000184,105.02788635809202,1.086727486033382,130.29380034190632,105.02788635809202
0.000185,109.75377886754539,1.4831491622487172,134.95472385872839,109.75377886754539
0.000186,115.94468851147674,1.8362076692466245,136.96038996788636,115.94468851147674
0.000187,123.22064197294466,2.0664066329732904,135.6331680579353,123.22064197294466
0.000188,131.01183227441007,2.1077695365563387,133.2430398674716,131.01183227441007
0.00018899999999999999,138.5681190601528,1.9377876329708685,131.0294485184208,138.5681190601528
0.00018999999999999998,145.14833023170877,1.5896795823158818,126.21780829241101,145.14833023170877
0.00019099999999999998,150.12378531131327,1.080568757222879,129.003519321801,150.12378531131327
0.000192,153.14479630373373,0.5408557714752535,123.99155103997228,153.14479630373373
0.000193,154.01558609255267,-0.08309219990995717,111.74989844889409,154.01558609255267
0.000194,152.21760866761457,-0.9145413976947522,106.3898269609069,152.21760866761457
0.000195,147.28964871502617,-1.7181421443683722,106.97774193418883,147.28964871502617
0.000196,139.72390807799732,-2.3247126527372215,110.60525474807187,139.72390807799732
0.000197,130.40506087286158,-2.6607822295964985,115.29722089481682,130.40506087286158
0.000198,120.40039520295412,-2.6966819654465,115.95241093609371,120.40039520295412
0.00019899999999999999,110.67536855224107,-2.5341640569299417,109.4444919884488,110.67536855224107
0.00019999999999999998,101.62478216069347,-2.360540133031282,100.80362621032455,101.62478216069347
0.00020099999999999998,93.2103129759316,-2.1811628455016026,90.30587769290257,93.2103129759316
0.000202,85.3230753420365,-2.080663745513449,84.975023578725,85.3230753420365
0.000203,77.92884657997276,-1.8889582708479977,78.60416801511418,77.92884657997276
0.000204,71.29600746951172,-1.679000323068182,67.25746912755201,71.29600746951172
0.000205,65.31507878941066,-1.5907939814994796,55.381477554068084,65.31507878941066
0.000206,59.288544309924866,-1.6424709934740238,46.515274839335106,59.288544309924866
0.000207,53.043597533573816,-1.7760987203165868,35.32678020331353,53.043597533573816
0.000208,46.097869699164065,-1.954119690764097,21.56824923400816,46.097869699164065
0.00020899999999999998,38.349337712139054,-2.250172912799364,11.599256729416691,38.349337712139054
0.00020999999999999998,29.376693788779445,-2.559385762037555,4.878331357167168,29.376693788779445
0.00021099999999999998,19.464913067736845,-2.7958669708138286,-3.3068057905034447,19.464913067736845
0.000212,8.730273583520168,-2.974877540144321,-12.143033062139084,8.730273583520168
0.000213,-2.5658321478946657,-3.1288820327010542,-19.893971217708465,-2.5658321478946657
0.000214,-14.31054084227857,-3.2013629366128824,-34.81260372019537,-14.31054084227857
0.000215,-26.46075399436336,-3.3867936843784037,-55.632192747888894,-26.46075399436336
0.000216,-39.501887047736076,-3.6290294858350305,-75.91974665487955,-39.501887047736076
0.000217,-53.482978400775906,-3.9752745228710182,-91.07362955108741,-53.482978400775906
0.00021799999999999999,-68.96003386975185,-4.340282921177168,-96.98052057160771,-68.96003386975185
0.00021899999999999998,-85.3738467805862,-4.463151448894609,-89.88494437575595,-85.3738467805862
0.00021999999999999998,-101.38806830909238,-4.106161480671377,-76.64771798649306,-101.38806830909238
0.00022099999999999998,-115.0454872461809,-3.1729077529611596,-65.17220601870986,-115.0454872461809
0.000222,-124.49937750489957,-1.9121701653749335,-57.164858564145206,-124.49937750489957
0.000223,-128.9279530598616,-0.45313709568073995,-55.580417214551744,-128.9279530598616
0.000224,-127.87807631980195,1.009071703076937,-55.100433798516015,-127.87807631980195
0.000225,-121.62852373766879,2.3314761126894914,-54.786802679935754,-121.62852373766879
0.000226,-110.89478369816925,3.422668164675467,-53.31343332817951,-110.89478369816925
