time,V_C,I_L,V_IN,V_C
0.0,0.0,0.0,5.469233292175913,0.0
1e-06,0.19646950172484998,0.09614190501149232,-7.549197211070576,0.19646950172484998
2e-06,0.25085912966195123,-0.07542598559794901,-19.1619905602321,0.25085912966195123
3e-06,-0.7246321247527987,-0.4437106450060698,-21.32210037272719,-0.7246321247527987
4e-06,-3.0394882941660306,-0.809776138068971,-25.262580983351853,-3.0394882941660306
4.9999999999999996e-06,-6.713329914554621,-1.1656934807137598,-29.22589172065908,-6.713329914554621
6e-06,-11.643513214718094,-1.4873922451773516,-29.398264484308395,-11.643513214718094
7e-06,-17.57401558181584,-1.6885092349942816,-34.2456399160951,-17.57401558181584
8e-06,-24.11897695563669,-1.8416336678664589,-35.58590172228631,-24.11897695563669
9e-06,-31.070430080265872,-1.881413848942583,-30.889917944698837,-31.070430080265872
9.999999999999999e-06,-37.77123121087131,-1.7115882576937653,-33.57782864558493,-37.77123121087131
1.1e-05,-43.68434921401503,-1.4744468105615418,-35.553885894320764,-43.68434921401503
1.2e-05,-48.61348575742482,-1.1752291138011814,-33.56036277253533,-48.61348575742482
1.3e-05,-52.25814814617065,-0.7779513407322463,-28.688032453194236,-52.25814814617065
1.4e-05,-54.223195611264394,-0.27027962239890335,-32.132415145450516,-54.223195611264394
1.4999999999999999e-05,-54.359708287086804,0.17688919504714803,-41.96920452857866,-54.359708287086804
1.6e-05,-53.254461604101685,0.37731052722348124,-46.84691781023352,-53.254461604101685
1.7e-05,-51.68656135297164,0.4647989532420272,-46.93382386871883,-51.68656135297164
1.8e-05,-49.86366910746945,0.516819933527676,-43.86246696300593,-49.86366910746945
1.8999999999999998e-05,-47.80336418933711,0.6043680919514776,-39.542407845956504,-47.80336418933711
1.9999999999999998e-05,-45.362874624130285,0.707302804396071,-38.47141852786923,-45.362874624130285
2.1e-05,-42.59235124690645,0.7883758187279586,-36.103575251317736,-42.59235124690645
2.2e-05,-39.561016125835685,0.8374518008200191,-32.81570457088963,-39.561016125835685
2.3e-05,-36.38797174961203,0.8752961395842559,-30.519395574789023,-36.38797174961203
2.4e-05,-33.07241590501255,0.9431581888474306,-18.3699295918345,-33.07241590501255
2.4999999999999998e-05,-29.18871592179589,1.1756091352417042,-5.855789848355361,-29.18871592179589
2.6e-05,-24.1338369508235,1.559340593495228,-1.3496544924662994,-24.1338369508235
2.7e-05,-17.777360280276838,1.8436790031666854,2.650532502020646,-17.777360280276838
2.8e-05,-10.572129275451317,2.0364412121150677,2.270406225099405,-10.572129275451317
2.9e-05,-2.8738949858933465,2.0965375289750567,6.653271695385249,-2.8738949858933465
2.9999999999999997e-05,4.895706362226035,2.094815277703079,15.810665006122422,4.895706362226035
3.1e-05,12.748467294799816,2.1468042882230054,20.709745146918394,12.748467294799816
3.2e-05,20.654863660762395,2.0947860600524377,28.705778861149426,20.654863660762395
3.2999999999999996e-05,28.310288417541614,2.0432029198915878,38.69636044816599,28.310288417541614
3.4e-05,36.0194230981332,2.160219544648553,53.05025958713402,36.0194230981332
3.5e-05,44.29970779323037,2.2929978864034535,73.5540136531648,44.29970779323037
3.6e-05,53.42211863280064,2.666654017884845,87.26955590150322,53.42211863280064
3.7e-05,64.13249512789011,3.0843143868520215,90.07407146963024,64.13249512789011
3.7999999999999995e-05,76.01156494272196,3.2676590429436017,83.48052979898614,76.01156494272196
3.9e-05,87.83005949435278,3.0380407226439323,71.35319257384299,87.83005949435278
3.9999999999999996e-05,97.85564993022777,2.30613072606705,60.04456152930027,97.85564993022777
4.1e-05,104.62047219284182,1.2985670186866627,52.646996824275966,104.62047219284182
4.2e-05,107.3949746188434,0.2068498774223957,49.26502708786348,107.3949746188434
4.2999999999999995e-05,106.1001887960036,-0.9048299618533818,50.628976612851915,106.1001887960036
4.4e-05,100.86287358013224,-1.8784736480885624,53.87210292530089,100.86287358013224
4.4999999999999996e-05,92.48773169691462,-2.594032732240551,62.69933536526561,92.48773169691462
4.6e-05,82.16161720918437,-2.9246996417141733,72.3623919172148,82.16161720918437
4.7e-05,71.40058207969042,-2.7830568061952037,93.3629750982926,71.40058207969042
4.8e-05,62.2529234670443,-2.1033014123016747,112.6383109228887,62.2529234670443
4.9e-05,56.32432663752478,-1.0153463719257354,119.33711810982828,56.32432663752478
4.9999999999999996e-05,55.036847602688745,0.3194893961148142,115.83889573148228,55.036847602688745
5.1e-05,58.46243590813624,1.4735684536702434,111.9383597599247,58.46243590813624
5.2e-05,65.64443832458602,2.353941457428628,107.31192338129334,65.64443832458602
5.3e-05,75.5651605197638,2.964173040381836,106.0605879565435,75.5651605197638
5.4e-05,87.21452910728809,3.284953918270304,106.41435811712235,87.21452910728809
5.4999999999999995e-05,99.54139745949765,3.321782491665576,103.58079971001993,99.54139745949765
5.6e-05,111.48820417242564,3.091907128325009,92.61470523776998,111.48820417242564
5.6999999999999996e-05,121.87579486247277,2.4357858122109097,72.81831589013049,121.87579486247277
5.8e-05,128.61384026383928,1.1005575415660116,53.68236274863182,128.61384026383928
5.9e-05,129.81427181772196,-0.44289939720483096,42.835354676695935,129.81427181772196
5.9999999999999995e-05,125.180306549092,-2.057477279523759,34.384396325036576,125.180306549092
6.1e-05,114.53169798742839,-3.7015035388581077,21.25825970567043,114.53169798742839
6.2e-05,97.95394227017616,-5.2078491026385105,11.058011175292,97.95394227017616
6.3e-05,76.24838237444843,-6.455695730614279,4.29757931763091,76.24838237444843
6.4e-05,50.725663043195674,-7.2497009662172704,-4.855258771749039,50.725663043195674
6.5e-05,23.011095793356958,-7.647842366557311,-11.732972619571738,23.011095793356958
6.599999999999999e-05,-5.3940832051431045,-7.628999137196913,-17.75432978612378,-5.3940832051431045
6.7e-05,-32.878033746225356,-7.12808186116557,-27.441552020744375,-32.878033746225356
6.8e-05,-57.87706174162162,-6.322276239905395,-32.7705501900697,-57.87706174162162
6.9e-05,-79.41827292783611,-5.2683231807719215,-31.038468512537282,-79.41827292783611
7e-05,-96.51694349326817,-3.8878770505992404,-21.081490698692118,-96.51694349326817
7.099999999999999e-05,-107.5715797396467,-2.0511075490705677,-8.260606667896264,-107.5715797396467
7.2e-05,-111.29887499518796,0.08044391277957796,-6.076047908003593,-111.29887499518796
7.3e-05,-107.20049948059973,2.0986909713761888,-10.370998409973406,-107.20049948059973
7.4e-05,-96.18377824679364,3.786122817430386,-11.000397075266692,-96.18377824679364
7.5e-05,-79.70989658502452,5.036976059381775,-7.09093004830311,-79.70989658502452
7.599999999999999e-05,-59.277971050100085,5.969502910306842,4.957629396983289,-59.277971050100085
7.7e-05,-35.18402353446403,7.020335756008242,36.035514855756425,-35.18402353446403
7.8e-05,-7.64780663908884,7.834231242340149,67.90286702855622,-7.64780663908884
7.9e-05,22.939213272053813,8.700541550814078,98.41578864149567,22.939213272053813
7.999999999999999e-05,56.540898455670884,9.34574519484432,126.6206033370174,56.540898455670884
8.099999999999999e-05,91.9835265809035,9.768318573516988,149.30569530454613,91.9835265809035
8.2e-05,128.59407236990194,9.961382342831147,163.43076268893844,128.59407236990194
8.3e-05,165.1668037384623,9.673308392735038,173.300158571153,165.1668037384623
8.4e-05,199.5885836852561,8.82920334950059,173.68657684741953,199.5885836852561
8.499999999999999e-05,230.01282732820508,7.514394927623318,167.6550142910281,230.01282732820508
8.599999999999999e-05,254.67583730693713,5.664423725011,157.1394550014248,254.67583730693713
8.7e-05,271.3535749351974,3.3080333767354366,149.49679193318514,271.3535749351974
8.8e-05,278.69360029187567,0.6711112131798291,150.80647209909716,278.69360029187567
8.9e-05,276.4715901600638,-1.8286229751154617,142.67163701048196,276.4715901600638
8.999999999999999e-05,265.1958887978501,-4.247991899288681,132.90147171810938,265.1958887978501
9.099999999999999e-05,245.28591897036864,-6.454562767349688,114.56102801138996,245.28591897036864
9.2e-05,217.6680208941045,-8.407991929865009,95.7720995681835,217.6680208941045
9.3e-05,183.4934846716198,-9.973100482413614,85.37020392274431,183.4934846716198
9.4e-05,144.50922823647815,-10.963346770318816,76.15052686116897,144.50922823647815
9.499999999999999e-05,102.96079097382244,-11.364528975188634,61.072852315900754,102.96079097382244
9.6e-05,61.15522719929194,-11.111499713461738,44.50069381217982,61.15522719929194
9.7e-05,21.45035561831098,-10.28332418288231,33.070162500664004,21.45035561831098
9.8e-05,-14.694896457131208,-9.16884504459108,21.186008656293286,-14.694896457131208
9.9e-05,-45.974918655250875,-7.642436442051617,12.291418176643926,-45.974918655250875
9.999999999999999e-05,-70.8836811972913,-5.776574658442168,5.03367068716479,-70.8836811972913
0.000101,-88.65840108224714,-3.8012572459090865,-0.7837858981139978,-88.65840108224714
0.000102,-98.97810771830574,-1.768385894962785,6.588839045113913,-98.97810771830574
0.000103,-101.59222858267874,0.3820485199831176,15.079941475070031,-101.59222858267874
0.000104,-96.22904541385445,2.482012603203776,11.220551878817579,-96.22904541385445
0.00010499999999999999,-83.51306156081046,4.3077104311277195,5.656685554547164,-83.51306156081046
0.000106,-64.91234756054152,5.63267150140231,-0.6724539394683331,-64.91234756054152
0.000107,-42.56745842145045,6.340919863141098,-2.7296825415423482,-42.56745842145045
0.000108,-18.623284155875176,6.4987224896069895,-7.575427419038933,-18.623284155875176
0.00010899999999999999,4.897392684540158,6.10575939732647,-11.894223588255246,4.897392684540158
0.00010999999999999999,25.977146605606983,5.214660910304741,-11.025913853392149,25.977146605606983
0.000111,43.13985131035672,4.025258587631374,-6.612178034711141,43.13985131035672
0.000112,55.61735932465291,2.688165882408569,-9.090173139324502,55.61735932465291
0.000113,62.84475181320289,1.1953162251391418,-14.743405342774773,62.84475181320289
0.00011399999999999999,64.34640450635423,-0.4114031015146373,-22.57338624189577,64.34640450635423
0.00011499999999999999,59.74713820314317,-2.058964452971094,-29.488755293785974,59.74713820314317
0.000116,49.25288998043298,-3.560388186388229,-24.74814410382326,49.25288998043298
0.000117,33.926182327147394,-4.636780895014431,-18.196587515497153,33.926182327147394
0.000118,15.535447058709007,-5.216135217898935,-17.949978986622604,15.535447058709007
0.00011899999999999999,-4.169645678487129,-5.3353369617316035,-10.963689317952047,-4.169645678487129
0.00011999999999999999,-23.385979382979286,-4.952052676828863,8.514807992605757,-23.385979382979286
0.000121,-39.8926346672279,-3.8607971688747456,28.793191355434544,-39.8926346672279
0.000122,-51.13542504213869,-2.1363735763404397,35.65143763850499,-51.13542504213869
0.00012299999999999998,-55.58183809296313,-0.27262738043049106,37.36997282898257,-55.58183809296313
0.000124,-53.14214270344608,1.5822129335440818,43.11668552319867,-53.14214270344608
0.000125,-44.047276023099755,3.287361278571094,44.949535255325586,-44.047276023099755
0.000126,-29.15450061014124,4.700441427255878,48.06886922082066,-29.15450061014124
0.000127,-9.685751296191823,5.739839451983769,52.832815390445916,-9.685751296191823
0.000128,12.873148534740803,6.390306338898595,51.220428028510774,12.873148534740803
0.000129,36.98387642675595,6.502666815860156,42.84531354633795,36.98387642675595
0.00013,60.31041759362016,5.9718334134483655,16.769338154837165,60.31041759362016
0.00013099999999999999,80.02517842844549,4.608242566782287,-12.815797376553304,80.02517842844549
0.00013199999999999998,93.44424381569452,2.476416251459456,-38.93888190373495,93.44424381569452
0.000133,97.40650475810486,-0.3751259139606017,-62.20935633935294,97.40650475810486
0.000134,90.27912216673133,-3.4188450552261678,-73.0756266863832,90.27912216673133
0.000135,72.20040577883626,-6.324135027279231,-86.01816906954883,72.20040577883626
0.000136,43.93194096451636,-8.848596608634207,-97.9079613034553,43.93194096451636
0.000137,7.352941234683861,-10.782513476657186,-102.56842237607387,7.352941234683861
0.000138,-34.842094261108954,-11.856557279956444,-98.18086395553095,-34.842094261108954
0.000139,-79.2365176876705,-11.971207682130855,-97.27746517642542,-79.2365176876705
0.00014,-122.34107260733788,-11.160151461853324,-90.22852856149862,-122.34107260733788
0.00014099999999999998,-160.8133427214259,-9.454763076619862,-83.1722128962417,-160.8133427214259
0.00014199999999999998,-191.57325053145308,-7.072974015858032,-80.9398122283796,-191.57325053145308
0.000143,-212.66764717130647,-4.263910535383725,-76.1615357814427,-212.66764717130647
0.000144,-222.87433543074982,-1.2122897918231157,-70.36464679244388,-222.87433543074982
0.000145,-221.65701791211592,1.8438181504733238,-67.59137668014743,-221.65701791211592
0.000146,-209.54200816883753,4.639828299366394,-65.15890377351022,-209.54200816883753
0.000147,-187.86305610383607,6.977134908150818,-63.91830077452005,-187.86305610383607
0.000148,-158.61140849869253,8.71091081790393,-60.66699170043737,-158.61140849869253
0.000149,-124.03110045634017,9.861116252551067,-51.06560090232367,-124.03110045634017
0.00015,-86.39692295784268,10.355866983056456,-35.37951574408033,-86.39692295784268
0.00015099999999999998,-48.000665908555746,10.32420685166656,-24.667065728673997,-48.000665908555746
0.00015199999999999998,-10.306302484954045,9.941005557489948,-9.132576859772435,-10.306302484954045
0.000153,25.058992763584726,9.052599928969723,-5.5277289812970185,25.058992763584726
0.000154,56.07008741076385,7.593853165170735,-5.1541038257183045,56.07008741076385
0.000155,80.85578413514358,5.7432201491066674,-1.3865360798099915,80.85578413514358
0.000156,98.27129132037301,3.6596523604271463,2.7777204169700114,98.27129132037301
0.000157,107.82721971714616,1.4891978890670239,2.4999356681486167,107.82721971714616
0.000158,109.26547914211461,-0.7021525202420369,-0.3709668686235818,109.26547914211461
0.000159,102.8142222836741,-2.7559794738758336,-6.265102463891599,102.8142222836741
0.00015999999999999999,89.14982551549289,-4.592463440639738,-13.070495622481094,89.14982551549289
0.00016099999999999998,69.21001020298324,-6.093029022490513,-13.495292158806858,69.21001020298324
0.00016199999999999998,44.55793218679217,-7.111673416239769,-11.567292458881633,44.55793218679217
0.000163,17.231561287283387,-7.533777409353264,-11.8982673398715,17.231561287283387
0.000164,-10.466376907387215,-7.330003996719523,-7.481464161325703,-10.466376907387215
0.000165,-36.38758706192031,-6.583094466501974,-0.10220032606072008,-36.38758706192031
0.000166,-58.6217394311076,-5.305588514802648,11.048249412305521,-58.6217394311076
0.000167,-74.85519408341797,-3.4000834597322402,22.301679385872436,-74.85519408341797
0.000168,-83.39886928605863,-1.1958397827256397,25.70895553586771,-83.39886928605863
0.000169,-83.7592227227207,1.0008579856483077,24.762651364050537,-83.7592227227207
0.00016999999999999999,-76.19517461584881,3.036343566704341,27.797059063475544,-76.19517461584881
0.00017099999999999998,-61.64698870312024,4.749888305436463,33.700775561563816,-61.64698870312024
0.00017199999999999998,-41.423141958003995,6.120420241718575,38.24111938400136,-41.423141958003995
0.000173,-16.75478481186999,7.120426518948776,43.32478994095577,-16.75478481186999
0.000174,10.712640596876918,7.621069049834979,52.42745529456719,10.712640596876918
0.000175,39.15500064364462,7.675716264094402,57.355280605962605,39.15500064364462
0.000176,67.06472639686733,7.323578710714983,61.81014473423926,67.06472639686733
0.000177,92.9026125256791,6.551360359150287,63.18856252986441,92.9026125256791
0.000178,115.07884329267556,5.359002958874793,63.15288502942822,115.07884329267556
0.000179,132.31565038693597,3.9148725046263686,68.75279985207554,132.31565038693597
0.00017999999999999998,143.90613120909194,2.337494977983704,78.57320781881944,143.90613120909194
0.00018099999999999998,149.76340023854138,0.8735267668476321,91.63826789995953,149.76340023854138
0.00018199999999999998,150.71399642067712,-0.3336886942574436,107.62612672031187,150.71399642067712
0.000183,147.58403650690002,-1.2665841704525327,120.11750193049497,147.58403650690002
0.000184,141.9746967119019,-1.6978571906690503,130.29380034190632,141.9746967119019
0.000185,135.54852792002185,-1.717134404023811,134.95472385872839,135.54852792002185
0.000186,129.41849415074364,-1.5749244611160385,136.96038996788636,129.41849415074364
0.000187,124.09224440531044,-1.2787829238912978,135.6331680579353,124.09224440531044
0.000188,119.99061361642629,-0.9347258239261894,133.2430398674716,119.99061361642629
0.00018899999999999999,117.12858652558239,-0.6126797977047709,131.0294485184208,117.12858652558239
0.00018999999999999998,115.44479148180406,-0.3080714469071755,126.21780829241101,115.44479148180406
0.00019099999999999998,114.76468534917053,-0.052116535991534985,129.003519321801,114.76468534917053
0.000192,115.09290428666785,0.21181150375349636,123.99155103997228,115.09290428666785
0.000193,116.16512647789436,0.3624999160382058,111.74989844889409,116.16512647789436
0.000194,117.33438863558565,0.25429233758502195,106.3898269609069,117.33438863558565
0.000195,117.87430153082398,0.024881718378794465,106.97774193418883,117.87430153082398
0.000196,117.57011235055272,-0.17437911110231402,110.60525474807187,117.57011235055272
0.000197,116.69883196613056,-0.28766823281845233,115.29722089481682,116.69883196613056
0.000198,115.61075688816433,-0.2912669815736955,115.95241093609371,115.61075688816433
0.00019899999999999999,114.58077917531263,-0.2654822754446286,109.4444919884488,114.58077917531263
0.00019999999999999998,113.42743301908403,-0.39191689878791136,100.80362621032455,113.42743301908403
0.00020099999999999998,111.58458067356298,-0.5942181863813578,90.30587769290257,111.58458067356298
0.000202,108.80664132546954,-0.9299493853344677,84.975023578725,108.80664132546954
0.000203,104.63987315956594,-1.303673845644243,78.60416801511418,104.63987315956594
0.000204,99.07069398310769,-1.7324459175469007,67.25746912755201,99.07069398310769
0.000205,91.728766866017,-2.2360940707757373,55.381477554068084,91.728766866017
0.000206,82.37219918933583,-2.8169388905479256,46.515274839335106,82.37219918933583
0.000207,71.0396727617828,-3.2920294126317953,35.32678020331353,71.0396727617828
0.000208,57.88780747450502,-3.8127117653178706,21.56824923400816,57.88780747450502
0.00020899999999999998,42.988097616958626,-4.2128449755622706,11.599256729416691,42.988097616958626
0.00020999999999999998,26.799475254953965,-4.500310130171022,4.878331357167168,26.799475254953965
0.00021099999999999998,9.992100394018614,-4.5443188864280515,-3.3068057905034447,9.992100394018614
0.000212,-6.744938975617885,-4.4715334360061805,-12.143033062139084,-6.744938975617885
0.000213,-22.836121445688214,-4.186269871575514,-19.893971217708465,-22.836121445688214
0.000214,-37.754762309559666,-3.8718710415064566,-34.81260372019537,-37.754762309559666
0.000215,-51.382760057841324,-3.4483886810479225,-55.632192747888894,-51.382760057841324
0.000216,-63.56931938279901,-3.1923528305037037,-75.91974665487955,-63.56931938279901
0.000217,-75.37272261485029,-3.142776334910143,-91.07362955108741,-75.37272261485029
0.00021799999999999999,-87.01514568078171,-3.16216106470565,-96.98052057160771,-87.01514568078171
0.00021899999999999998,-98.61252794080742,-3.0602153238481096,-89.88494437575595,-98.61252794080742
0.00021999999999999998,-109.22764147265822,-2.61243295679956,-76.64771798649306,-109.22764147265822
0.00022099999999999998,-117.35048809860646,-1.6964041608564546,-65.17220601870986,-117.35048809860646
0.000222,-121.4828253690608,-0.5178372241913753,-57.164858564145206,-121.4828253690608
0.000223,-121.02470797570355,0.7721177500130301,-55.580417214551744,-121.02470797570355
0.000224,-115.90794259147425,1.9530424392134285,-55.100433798516015,-115.90794259147425
0.000225,-106.78349373109015,2.9335439329070776,-54.786802679935754,-106.78349373109015
0.000226,-94.49454366106261,3.660630901988026,-53.31343332817951,-94.49454366106261
