time,V_C,I_L,V_IN,V_C
0.0,0.0,0.0,-1.067945040484694,0.0
1e-06,-0.03646813195157028,-0.5856244791730547,-1.1058364791306112,-0.03646813195157028
2e-06,-0.14317869889925666,-1.1342852267984431,-1.1445287968147224,-0.14317869889925666
3e-06,-0.3157339362207336,-1.6793143213318908,-1.1732183580771498,-0.3157339362207336
4e-06,-0.5671196327980862,-2.3990791311042345,-1.19402529965996,-0.5671196327980862
4.9999999999999996e-06,-0.8861167317325851,-2.6160206369242043,-1.1798136031065043,-0.8861167317325851
6e-06,-1.1779668639825422,-2.0649511506751113,-1.1397090039551863,-1.1779668639825422
7e-06,-1.3950556549599067,-1.4923318416347622,-1.1275300437750586,-1.3950556549599067
8e-06,-1.5511788993826892,-1.0352523414900925,-1.172085977188958,-1.5511788993826892
9e-06,-1.6516952941792091,-0.606325855950352,-1.2580604470276828,-1.6516952941792091
9.999999999999999e-06,-1.7023844909008023,-0.22044979484808466,-1.3263597206814703,-1.7023844909008023
1.1e-05,-1.7082344711220019,0.12125675383060691,-1.4134439131146301,-1.7082344711220019
1.2e-05,-1.6759070138827068,0.3926934856186531,-1.5089315784944002,-1.6759070138827068
1.3e-05,-1.6159083680999133,0.5566609036598095,-1.6042672674888359,-1.6159083680999133
1.4e-05,-1.542973683720829,0.6167882639557307,-1.697903265859918,-1.542973683720829
1.4999999999999999e-05,-1.468458391490075,0.5638425924532917,-1.8270787505451274,-1.468458391490075
1.6e-05,-1.4082274138524844,0.39983395718680664,-1.9307317723282655,-1.4082274138524844
1.7e-05,-1.372634154151104,0.1660018111606334,-1.9891228110293961,-1.372634154151104
1.8e-05,-1.3681423578391372,-0.09163858626891967,-2.022951355988771,-1.3681423578391372
1.8999999999999998e-05,-1.395658144684798,-0.3510729720885651,-2.048087255408364,-1.395658144684798
1.9999999999999998e-05,-1.4536693201518347,-0.5817191454637888,-2.0534419172228855,-1.4536693201518347
2.1e-05,-1.5368772429700581,-0.7559007992325979,-2.0552150566395317,-1.5368772429700581
2.2e-05,-1.6373788105560803,-0.8612432018681103,-2.112384008749505,-1.6373788105560803
2.3e-05,-1.747436319361511,-0.9113968791867749,-2.1050899676523227,-1.747436319361511
2.4e-05,-1.8597497099065208,-0.8961016877378348,-2.064846698831651,-1.8597497099065208
2.4999999999999998e-05,-1.9649983079135191,-0.7933908945071124,-2.039004859019462,-1.9649983079135191
2.6e-05,-2.052604344819517,-0.6152364516493168,-2.0180421060968072,-2.052604344819517
2.7e-05,-2.114572009405869,-0.3822237260862776,-1.976688431510718,-2.114572009405869
2.8e-05,-2.1459500777476888,-0.1254713343895408,-1.946211454414739,-2.1459500777476888
2.9e-05,-2.1455259292370816,0.13082297959005632,-1.9563240486383187,-2.1455259292370816
2.9999999999999997e-05,-2.1143869974098037,0.3717743979692653,-1.9049584464126703,-2.1143869974098037
3.1e-05,-2.0538025369669333,0.6081017636717303,-1.8295757258110616,-2.0538025369669333
3.2e-05,-1.9653025136590354,0.8159771011343073,-1.729077278275214,-1.9653025136590354
3.2999999999999996e-05,-1.8541593322889747,0.9894795064598281,-1.6346981065514672,-1.8541593322889747
3.4e-05,-1.7198332249920985,1.1809736102805157,-1.4994250217842735,-1.7198332249920985
3.5e-05,-1.5642302375795545,1.331317091595294,-1.3498387069340518,-1.5642302375795545
3.6e-05,-1.390755240691438,1.4770913111199675,-1.2017020732749253,-1.390755240691438
3.7e-05,-1.202931152636565,1.5486592890904642,-1.0866291732096616,-1.202931152636565
3.7999999999999995e-05,-1.007952501007995,1.6119474940247676,-0.9465041294905443,-1.007952501007995
3.9e-05,-0.8107832468411453,1.5405398106218877,-0.7802358832828288,-0.8107832468411453
3.9999999999999996e-05,-0.6286282912134271,1.4137318136027581,-0.5931502075317114,-0.6286282912134271
4.1e-05,-0.4589764307782328,1.3192441349415378,-0.44400042422002495,-0.4589764307782328
4.2e-05,-0.3021649311327083,1.2094146789159608,-0.31529467908027725,-0.3021649311327083
4.2999999999999995e-05,-0.16056738143978652,1.0996104084408684,-0.14393331177838828,-0.16056738143978652
4.4e-05,-0.030056467618249125,1.0009767273044716,-0.014012811864924568,-0.030056467618249125
4.4999999999999996e-05,0.08703384766231273,0.9001400924374198,0.09381751921298567,0.08703384766231273
4.6e-05,0.19294624542099179,0.8061782776977967,0.22048296770557316,0.19294624542099179
4.7e-05,0.28779120229558214,0.7244091687044035,0.34345685352817185,0.28779120229558214
4.8e-05,0.37358412147265346,0.6598676247986766,0.46193506151167973,0.37358412147265346
4.9e-05,0.4526086208727791,0.6304888394755123,0.5550613423952997,0.4526086208727791
4.9999999999999996e-05,0.5283346101992247,0.5874917308193444,0.6290797860862483,0.5283346101992247
5.1e-05,0.5976561707430373,0.5357520424486794,0.6638429646963862,0.5976561707430373
5.2e-05,0.6606138801378136,0.4829784724850266,0.7306286673255848,0.6606138801378136
5.3e-05,0.7169095516393481,0.42999734891843455,0.786445419462996,0.7169095516393481
5.4e-05,0.766760497288438,0.3771275792949494,0.8126212068245081,0.766760497288438
5.4999999999999995e-05,0.809428309817201,0.31049960326158926,0.842107864172587,0.809428309817201
5.6e-05,0.8431850921216497,0.23583950509612575,0.841995301368916,0.8431850921216497
5.6999999999999996e-05,0.8674097820011367,0.1540690148538337,0.7807708766478068,0.8674097820011367
5.8e-05,0.8791032139897935,0.030333131070254555,0.6774847644806682,0.8791032139897935
5.9e-05,0.8721263973176437,-0.14538728559817377,0.5957504958682645,0.8721263973176437
5.9999999999999995e-05,0.8416346943460306,-0.3492977085849158,0.5217119229860073,0.8416346943460306
6.1e-05,0.7855688463278467,-0.5574036785877406,0.45892582332792997,0.7855688463278467
6.2e-05,0.704932651562763,-0.73938135556087,0.42624587107191025,0.704932651562763
6.3e-05,0.60489599306093,-0.8726035627762583,0.3627839253458152,0.60489599306093
6.4e-05,0.49075065031381,-0.9722393479657003,0.27211098968045827,0.49075065031381
6.5e-05,0.3664079196425151,-1.030350259557544,0.17647730750309312,0.3664079196425151
6.599999999999999e-05,0.23882059673523115,-1.0309635065041014,0.09365735821503855,0.23882059673523115
6.7e-05,0.11202670574622577,-1.0196438376374257,0.019584496685467665,0.11202670574622577
6.8e-05,-0.012234541392237553,-0.9937099052750783,-0.05344333386271473,-0.012234541392237553
6.9e-05,-0.1300822694711452,-0.9043110367749163,-0.12031328486414769,-0.1300822694711452
7e-05,-0.23518672553222914,-0.7932597677863827,-0.18625960514139045,-0.23518672553222914
7.099999999999999e-05,-0.3256011713260726,-0.6708261047841115,-0.271283233549345,-0.3256011713260726
7.2e-05,-0.39935238708039367,-0.5315615415792386,-0.37073191367078634,-0.39935238708039367
7.3e-05,-0.4592768142227394,-0.4414559024104072,-0.4580552604759355,-0.4592768142227394
7.4e-05,-0.5093970141307027,-0.37078884344447754,-0.5649807997613919,-0.5093970141307027
7.5e-05,-0.5529817696944672,-0.3503005454567349,-0.6981895272005616,-0.5529817696944672
7.599999999999999e-05,-0.5969358450166654,-0.3586163405606395,-0.8273196587447732,-0.5969358450166654
7.7e-05,-0.643998090321287,-0.4025248748477553,-0.9213806052207933,-0.643998090321287
7.8e-05,-0.6973392155635653,-0.463156700010348,-0.9324217390189578,-0.6973392155635653
7.9e-05,-0.7571032410922266,-0.4982922794016507,-0.9337329773424393,-0.7571032410922266
7.999999999999999e-05,-0.8187481656537544,-0.4920658682798591,-0.8990415676104047,-0.8187481656537544
8.099999999999999e-05,-0.8761412236237436,-0.42898516572171497,-0.8433843300914232,-0.8761412236237436
8.2e-05,-0.9218607566961563,-0.3030297566002071,-0.816253552031229,-0.9218607566961563
8.3e-05,-0.9498576315088079,-0.1468065518470433,-0.7826881683321475,-0.9498576315088079
8.4e-05,-0.9576128816267254,0.019588412703117546,-0.8023176597010797,-0.9576128816267254
8.499999999999999e-05,-0.9458841395577192,0.1686103557972922,-0.9014334010451058,-0.9458841395577192
8.599999999999999e-05,-0.9188151528523538,0.25496304125485975,-0.9958641903594344,-0.9188151528523538
8.7e-05,-0.8871885509989479,0.233669687669377,-1.1171421843436808,-0.8871885509989479
8.8e-05,-0.8637512946018205,0.14056445533600048,-1.2185362494385794,-0.8637512946018205
8.9e-05,-0.8553881006812288,-0.006470349362672739,-1.3022385274271457,-0.8553881006812288
8.999999999999999e-05,-0.8672546234062989,-0.18665446805384148,-1.310404082143697,-0.8672546234062989
9.099999999999999e-05,-0.9006465342743047,-0.3477881903675614,-1.2674196100250217,-0.9006465342743047
9.2e-05,-0.9503550514862475,-0.4465816562400973,-1.2350504525438022,-0.9503550514862475
9.3e-05,-1.0087245411783974,-0.4918825462291661,-1.2349653670045317,-1.0087245411783974
9.4e-05,-1.0704370602991027,-0.5040582506861261,-1.2743206951351895,-1.0704370602991027
9.499999999999999e-05,-1.1323197774253713,-0.4951746030528173,-1.3255163070715388,-1.1323197774253713
9.6e-05,-1.1926481821756298,-0.48202249013210735,-1.3763554685307215,-1.1926481821756298
9.7e-05,-1.2507100914882103,-0.4542300007089038,-1.423779436253143,-1.2507100914882103
9.8e-05,-1.3045436957205998,-0.41697392601266375,-1.4489059696701985,-1.3045436957205998
9.9e-05,-1.3531737009115177,-0.3669731633623219,-1.4396358044635258,-1.3531737009115177
9.999999999999999e-05,-1.3936121944828521,-0.2805303185974129,-1.414162541466436,-1.3936121944828521
0.000101,-1.4214256717388065,-0.16763383058277723,-1.417069984285198,-1.4214256717388065
0.000102,-1.4351526024642887,-0.05925536757548192,-1.4507780270662618,-1.4351526024642887
0.000103,-1.4365816327264491,0.03520755623912181,-1.4446575908316943,-1.4365816327264491
0.000104,-1.4267470383311742,0.12233977911539669,-1.4475248634326527,-1.4267470383311742
0.00010499999999999999,-1.4067851157202373,0.19733025378995783,-1.4712336538839885,-1.4067851157202373
0.000106,-1.3790965552853756,0.24170753213573995,-1.518938934221887,-1.3790965552853756
0.000107,-1.3507123322298147,0.2123258525864106,-1.6160629020444042,-1.3507123322298147
0.000108,-1.328851558568582,0.13382901313794354,-1.721970954325899,-1.328851558568582
0.00010899999999999999,-1.320536823849592,-0.015440927650776703,-1.8155858811880197,-1.320536823849592
0.00010999999999999999,-1.3335978142199312,-0.19366211707142023,-1.8631434310055053,-1.3335978142199312
0.000111,-1.368658027888777,-0.3715789326981859,-1.866119586573732,-1.368658027888777
0.000112,-1.4236291210324337,-0.509499423583795,-1.8446778306566902,-1.4236291210324337
0.000113,-1.4919253547626292,-0.5831396639580501,-1.7835617897510896,-1.4919253547626292
0.00011399999999999999,-1.5632599013759154,-0.5567760098940835,-1.703434069898621,-1.5632599013759154
0.00011499999999999999,-1.6270303124096839,-0.46958209673845386,-1.6217118980195395,-1.6270303124096839
0.000116,-1.6757330009207692,-0.30506676884813494,-1.5391225176873857,-1.6757330009207692
0.000117,-1.6997467067474177,-0.080038039957312,-1.467613880365241,-1.6997467067474177
0.000118,-1.6939175069281724,0.17320896823636822,-1.413963614357529,-1.6939175069281724
0.00011899999999999999,-1.6565997071586909,0.4278113887676273,-1.380406576946163,-1.6565997071586909
0.00011999999999999999,-1.5893567823699786,0.652671270138009,-1.3786618433657325,-1.5893567823699786
0.000121,-1.4978803496956852,0.816560560751069,-1.3768085175103872,-1.4978803496956852
0.000122,-1.3906033845183705,0.9072761081496289,-1.3891980840589333,-1.3906033845183705
0.00012299999999999998,-1.2771218290404898,0.920821322889207,-1.3747098112220453,-1.2771218290404898
0.000124,-1.166276907366741,0.8650207585828258,-1.3553153934420368,-1.166276907366741
0.000125,-1.0662536019524718,0.7461272040567789,-1.3270844718417443,-1.0662536019524718
0.000126,-0.9826800426979238,0.6032892366658946,-1.2741306462417212,-0.9826800426979238
0.000127,-0.9176359212299995,0.4507016604419098,-1.2104245832027767,-0.9176359212299995
0.000128,-0.8717050728870758,0.2979267369305803,-1.1949593230451612,-0.8717050728870758
0.000129,-0.8438413660070315,0.1538995603119122,-1.18582425589404,-0.8438413660070315
0.00013,-0.8335604281850267,0.011461262763144775,-1.1588725474847343,-0.8335604281850267
0.00013099999999999999,-0.8398856018338796,-0.11095016064196998,-1.1724051351979996,-0.8398856018338796
0.00013199999999999998,-0.8606522255491422,-0.2235060039740191,-1.1960028384890606,-0.8606522255491422
0.000133,-0.8948204510622753,-0.33296900106889565,-1.2850013044653683,-0.8948204510622753
0.000134,-0.943581241173707,-0.4590233182491496,-1.4018548843698748,-0.943581241173707
0.000135,-1.0096630887176994,-0.6070485395374124,-1.5130977687418297,-1.0096630887176994
0.000136,-1.0946137561435516,-0.7634413256308455,-1.6584955434035922,-1.0946137561435516
0.000137,-1.2000296069318317,-0.9438669027169307,-1.827837169804241,-1.2000296069318317
0.000138,-1.3275213223457807,-1.1116708704632574,-2.0013628609189325,-1.3275213223457807
0.000139,-1.4772494905603764,-1.3049761328828697,-2.0955714291285745,-1.4772494905603764
0.00014,-1.6477003508879233,-1.4348089101091492,-2.141330727722388,-1.6477003508879233
0.00014099999999999998,-1.8270564220351575,-1.449301339028099,-2.1505015680582953,-1.8270564220351575
0.00014199999999999998,-2.0000798903561763,-1.334079683287631,-2.1511840306719754,-2.0000798903561763
0.000143,-2.152377533566086,-1.1201169265035686,-2.164930339397177,-2.152377533566086
0.000144,-2.2743526222603268,-0.8518007451166264,-2.2194357930132913,-2.2743526222603268
0.000145,-2.3623988623578045,-0.572647829704582,-2.2802295371514583,-2.3623988623578045
0.000146,-2.4164948002352915,-0.3100593436207872,-2.3375844996462947,-2.4164948002352915
0.000147,-2.4399828336748683,-0.07183349879477333,-2.342242470283358,-2.4399828336748683
0.000148,-2.4347998363188443,0.15288472248942095,-2.278297612375309,-2.4347998363188443
0.000149,-2.4014061986438366,0.3862170723957044,-2.148960515473031,-2.4014061986438366
0.00015,-2.3374415890181206,0.645192678136204,-1.993233415009761,-2.3374415890181206
0.00015099999999999998,-2.2406509138160273,0.9298565965549895,-1.8701499575745597,-2.2406509138160273
0.00015199999999999998,-2.1071859422336834,1.2163835381830264,-1.7873712745680277,-2.1071859422336834
0.000153,-1.941717188825515,1.4486163550455498,-1.6877702542601836,-1.941717188825515
0.000154,-1.750888567368621,1.6205731503113683,-1.5904074314743641,-1.750888567368621
0.000155,-1.5449616062019982,1.6974240613087541,-1.5477856856155856,-1.5449616062019982
0.000156,-1.3398565926906303,1.5917684721013605,-1.4978547472746357,-1.3398565926906303
0.000157,-1.1559431967544036,1.378615282891742,-1.4178266377619468,-1.1559431967544036
0.000158,-0.9999340222486055,1.1532978693410434,-1.3347947312737507,-0.9999340222486055
0.000159,-0.872007766875069,0.9134348641297301,-1.2680668659450973,-0.872007766875069
0.00015999999999999999,-0.7748494216155888,0.6583498511459969,-1.2421313886230083,-0.7748494216155888
0.00016099999999999998,-0.7098950241951141,0.3915766221178234,-1.2574867165785508,-0.7098950241951141
0.00016199999999999998,-0.679064645212702,0.10615649735937932,-1.2514883113356225,-0.679064645212702
0.000163,-0.6831060088344968,-0.16819217121310115,-1.2445357239269983,-0.6831060088344968
0.000164,-0.7192906081956815,-0.4089600177378567,-1.2267792685936383,-0.7192906081956815
0.000165,-0.7826036901220302,-0.6062339102170352,-1.1463853110893865,-0.7826036901220302
0.000166,-0.8628100751148556,-0.6698323081979983,-1.0336593595464507,-0.8628100751148556
0.000167,-0.9439308393484747,-0.6339550696743604,-0.9135944715028117,-0.9439308393484747
0.000168,-1.0144077884112868,-0.48581349616872865,-0.7862843137999191,-1.0144077884112868
0.000169,-1.059445150465441,-0.24323612348393286,-0.6105486976347946,-1.059445150465441
0.00016999999999999999,-1.0692204660894824,0.11793535048987873,-0.3844222425624594,-1.0692204660894824
0.00017099999999999998,-1.0274708565548032,0.5546058069897631,-0.142730632376781,-1.0274708565548032
0.00017199999999999998,-0.9277071628837953,1.0622433813489527,0.07221744673385358,-0.9277071628837953
0.000173,-0.7594878473593799,1.7042966590295636,0.1948235644820296,-0.7594878473593799
0.000174,-0.47225791915282134,3.074633833439623,0.28522725671330024,-0.47225791915282134
0.000175,-0.03448605253711688,3.719512350074805,0.3582026408519775,-0.03448605253711688
0.000176,0.38780871060924904,2.9332653249294225,0.4279058309417222,0.38780871060924904
0.000177,0.6814749885927094,1.8908338684808734,0.49268215759683,0.6814749885927094
0.000178,0.8788177875385418,1.3552338057086475,0.461729667604741,0.8788177875385418
0.000179,1.0168199172523216,0.8728399022218492,0.39643475795111927,1.0168199172523216
0.00017999999999999998,1.09322154534208,0.36564402935318857,0.33881743732795155,1.09322154534208
0.00018099999999999998,1.106493094693606,-0.15096237764559864,0.26361246992503906,1.106493094693606
0.00018199999999999998,1.0546380673616516,-0.6968368451803529,0.15721575400372517,1.0546380673616516
0.000183,0.9357720536104311,-1.2146974409315856,0.08440987509146729,0.9357720536104311
0.000184,0.752705272365519,-1.78461153992955,0.029154911232232482,0.752705272365519
0.000185,0.4840267650464313,-2.5536433350039585,-0.043834807320840934,0.4840267650464313
0.000186,0.1444152113211635,-2.795289851707023,-0.09653587630691585,0.1444152113211635
0.000187,-0.17282126756265953,-2.251849485541363,-0.11276919698574994,-0.17282126756265953
0.000188,-0.4097084712074256,-1.6285077275729574,-0.11308446797067129,-0.4097084712074256
0.00018899999999999999,-0.5827450772411544,-1.1794873897173181,-0.08696847827228955,-0.5827450772411544
0.00018999999999999998,-0.6999559870579695,-0.7148435321844566,-0.05895460079517005,-0.6999559870579695
0.00019099999999999998,-0.7587460073590188,-0.23778209527154126,-0.05594256424380101,-0.7587460073590188
0.000192,-0.7598229195076013,0.21405772309465151,-0.09297692211178672,-0.7598229195076013
0.000193,-0.7081635541795523,0.6118844557465514,-0.13380167773226861,-0.7081635541795523
0.000194,-0.6118885409151575,0.9304279167360251,-0.15524101002151916,-0.6118885409151575
0.000195,-0.4823626364972526,1.1514409201394893,-0.1446761567269951,-0.4823626364972526
0.000196,-0.33192429767289056,1.2680128978918757,-0.12811751737186378,-0.33192429767289056
0.000197,-0.17375218129762363,1.2759731146852087,-0.10765692117508954,-0.17375218129762363
0.000198,-0.02132765599330008,1.1772059312760494,-0.12268826345234515,-0.02132765599330008
0.00019899999999999999,0.1131593859279212,0.9876151959189033,-0.1673945404803883,0.1131593859279212
0.00019999999999999998,0.21889989207807742,0.7138883779188223,-0.222414384494067,0.21889989207807742
0.00020099999999999998,0.28680503998026946,0.3735917308364273,-0.29512526894806784,0.28680503998026946
0.000202,0.30998721264182283,0.002993183740209219,-0.3338389591395625,0.30998721264182283
0.000203,0.28763555187286977,-0.3624547116657739,-0.3419373138892184,0.28763555187286977
0.000204,0.22172659852974835,-0.6961436476312732,-0.3318510988459154,0.22172659852974835
0.000205,0.11931331577515873,-0.9464047232911005,-0.29215251032605444,0.11931331577515873
0.000206,-0.007575122830599727,-1.0858716160683837,-0.19465311914510905,-0.007575122830599727
0.000207,-0.1418668809925023,-1.064806849633397,-0.12781620202440944,-0.1418668809925023
0.000208,-0.26596429380770836,-0.9341104410684209,-0.14086161913836345,-0.26596429380770836
0.00020899999999999998,-0.3702258141044926,-0.7480500737004719,-0.16185996530196264,-0.3702258141044926
0.00020999999999999998,-0.4493313177837085,-0.5288871648733677,-0.18309364219189944,-0.4493313177837085
0.00021099999999999998,-0.5004658619651762,-0.3020263922424517,-0.22463719558883888,-0.5004658619651762
0.000212,-0.5244628804588511,-0.08704178504158872,-0.2967868548484908,-0.5244628804588511
0.000213,-0.5242265502385495,0.0853154113882535,-0.37612808296807243,-0.5242265502385495
0.000214,-0.5062607691906075,0.1984554961961045,-0.4432335897207361,-0.5062607691906075
0.000215,-0.47796419597577156,0.2527438362819042,-0.4925312681942013,-0.47796419597577156
0.000216,-0.4459802567474994,0.2585966673583737,-0.46776592282285756,-0.4459802567474994
0.000217,-0.41430338233977854,0.2517774844773613,-0.46227184845634095,-0.41430338233977854
