time,V_C,I_L,V_IN,V_C
0.0,0.0,0.0,5.469233292175913,0.0
1e-06,0.19742872627383512,0.10359672307861935,-7.549197211070576,0.19742872627383512
2e-06,0.28511168297312534,-0.07203680448484284,-19.1619905602321,0.28511168297312534
3e-06,-0.6812101497842891,-0.4424402623849292,-21.32210037272719,-0.6812101497842891
4e-06,-3.0097753774230664,-0.8191863188605842,-25.262580983351853,-3.0097753774230664
4.9999999999999996e-06,-6.734459113293443,-1.1861027801854565,-29.22589172065908,-6.734459113293443
6e-06,-11.756979075062148,-1.511390258009229,-29.398264484308395,-11.756979075062148
7e-06,-17.764837902054566,-1.720204226076832,-34.2456399160951,-17.764837902054566
8e-06,-24.462819592282152,-1.8846098281634598,-35.58590172228631,-24.462819592282152
9e-06,-31.55635353672767,-1.9132961239653183,-30.889917944698837,-31.55635353672767
9.999999999999999e-06,-38.35365990476372,-1.7301987161411065,-33.57782864558493,-38.35365990476372
1.1e-05,-44.30478363013772,-1.477290019082615,-35.553885894320764,-44.30478363013772
1.2e-05,-49.21873526605904,-1.1655009867199158,-33.56036277253533,-49.21873526605904
1.3e-05,-52.809538908268074,-0.7587343400891778,-28.688032453194236,-52.809538908268074
1.4e-05,-54.69070328633251,-0.24368578427289733,-32.132415145450516,-54.69070328633251
1.4999999999999999e-05,-54.71740860401593,0.208685403690333,-41.96920452857866,-54.71740860401593
1.6e-05,-53.4844263621593,0.41470542572286057,-46.84691781023352,-53.4844263621593
1.7e-05,-51.775425776058384,0.5033478229702587,-46.93382386871883,-51.775425776058384
1.8e-05,-49.80943758136763,0.5571322054804986,-43.86246696300593,-49.80943758136763
1.8999999999999998e-05,-47.61312937158058,0.6210243322414152,-39.542407845956504,-47.61312937158058
1.9999999999999998e-05,-45.14954213668526,0.7154514609546667,-38.47141852786923,-45.14954213668526
2.1e-05,-42.369251500733824,0.7741899809314564,-36.103575251317736,-42.369251500733824
2.2e-05,-39.4247899151733,0.8161834783415663,-32.81570457088963,-39.4247899151733
2.3e-05,-36.28913206082465,0.8678320467936288,-30.519395574789023,-36.28913206082465
2.4e-05,-33.00363194421679,0.8972543423867252,-18.3699295918345,-33.00363194421679
2.4999999999999998e-05,-29.3756943338328,1.1205960477905785,-5.855789848355361,-29.3756943338328
2.6e-05,-24.536869558740644,1.4827231067397695,-1.3496544924662994,-24.536869558740644
2.7e-05,-18.414063762399223,1.8143792069471096,2.650532502020646,-18.414063762399223
2.8e-05,-11.221907901283428,2.0480451303268894,2.270406225099405,-11.221907901283428
2.9e-05,-3.4603299572807877,2.123569337458636,6.653271695385249,-3.4603299572807877
2.9999999999999997e-05,4.419080304406566,2.1156775793408253,15.810665006122422,4.419080304406566
3.1e-05,12.259817066016517,2.134000548844115,20.709745146918394,12.259817066016517
3.2e-05,20.13655527010439,2.090173808849525,28.705778861149426,20.13655527010439
3.2999999999999996e-05,27.78021461521641,2.054583505470456,38.69636044816599,27.78021461521641
3.4e-05,35.47883521011036,2.0776867029699777,53.05025958713402,35.47883521011036
3.5e-05,43.430097297272226,2.2910243884291988,73.5540136531648,43.430097297272226
3.6e-05,52.711576921718546,2.7297808661712346,87.26955590150322,52.711576921718546
3.7e-05,63.697482981368104,3.1800505219330373,90.07407146963024,63.697482981368104
3.7999999999999995e-05,75.94415961349317,3.38903774009979,83.48052979898614,75.94415961349317
3.9e-05,88.28462929446982,3.1946331565702226,71.35319257384299,88.28462929446982
3.9999999999999996e-05,98.99715962855022,2.554945010108205,60.04456152930027,98.99715962855022
4.1e-05,106.67339871314549,1.5699907489321632,52.646996824275966,106.67339871314549
4.2e-05,110.36997192690886,0.3912268595875277,49.26502708786348,110.36997192690886
4.2999999999999995e-05,109.55426031481781,-0.8131064545919784,50.628976612851915,109.55426031481781
4.4e-05,104.58054211117127,-1.8342602159948416,53.87210292530089,104.58054211117127
4.4999999999999996e-05,96.27778681815968,-2.5858656720554807,62.69933536526561,96.27778681815968
4.6e-05,86.02822263431312,-2.875882764185109,72.3623919172148,86.02822263431312
4.7e-05,75.31464417814098,-2.8622190654575106,93.3629750982926,75.31464417814098
4.8e-05,65.68631979340104,-2.287277631358952,112.6383109228887,65.68631979340104
4.9e-05,58.993843135108186,-1.242176073243084,119.33711810982828,58.993843135108186
4.9999999999999996e-05,56.761250198238706,0.02741884433559072,115.83889573148228,56.761250198238706
5.1e-05,58.991960738582335,1.1439574932666474,111.9383597599247,58.991960738582335
5.2e-05,64.96858005968225,2.0539082181663204,107.31192338129334,64.96858005968225
5.3e-05,73.84580976973638,2.689318392788071,106.0605879565435,73.84580976973638
5.4e-05,84.5704601088322,3.062438301602016,106.41435811712235,84.5704601088322
5.4999999999999995e-05,96.22784788829544,3.183901154534275,103.58079971001993,96.22784788829544
5.6e-05,107.89332136267761,3.0754224517560362,92.61470523776998,107.89332136267761
5.6999999999999996e-05,118.21758912199071,2.4050293618603993,72.81831589013049,118.21758912199071
5.8e-05,125.08851488502796,1.2318192080145727,53.68236274863182,125.08851488502796
5.9e-05,126.81817430323046,-0.34322085354399245,42.835354676695935,126.81817430323046
5.9999999999999995e-05,122.56522091913752,-1.9153179273312064,34.384396325036576,122.56522091913752
6.1e-05,112.69823899508694,-3.401879307741628,21.25825970567043,112.69823899508694
6.2e-05,97.33633902786008,-4.83427413016528,11.058011175292,97.33633902786008
6.3e-05,77.13158745523556,-6.02776808502651,4.29757931763091,77.13158745523556
6.4e-05,53.105907462682794,-6.885934224247401,-4.855258771749039,53.105907462682794
6.5e-05,26.533945593272335,-7.391381918055723,-11.732972619571738,26.533945593272335
6.599999999999999e-05,-1.1718751477151628,-7.500097447714857,-17.75432978612378,-1.1718751477151628
6.7e-05,-28.443298500657903,-7.160355890557055,-27.441552020744375,-28.443298500657903
6.8e-05,-53.863524989688926,-6.51004665852209,-32.7705501900697,-53.863524989688926
6.9e-05,-76.19445588365042,-5.4987776351578255,-31.038468512537282,-76.19445588365042
7e-05,-94.0972805517402,-4.092468378472848,-21.081490698692118,-94.0972805517402
7.099999999999999e-05,-105.99807312222337,-2.2809320702973515,-8.260606667896264,-105.99807312222337
7.2e-05,-110.5726074987404,-0.17152075783070142,-6.076047908003593,-110.5726074987404
7.3e-05,-107.4230863095233,1.8244691759462714,-10.370998409973406,-107.4230863095233
7.4e-05,-97.45328075141256,3.503710370415818,-11.000397075266692,-97.45328075141256
7.5e-05,-81.8918750803455,4.8388063066960365,-7.09093004830311,-81.8918750803455
7.599999999999999e-05,-61.923208835249284,5.896203845596888,4.957629396983289,-61.923208835249284
7.7e-05,-38.596789131397124,6.650584393142967,36.035514855756425,-38.596789131397124
7.8e-05,-12.320655010764607,7.605315806515288,67.90286702855622,-12.320655010764607
7.9e-05,17.560799508876425,8.414402838161013,98.41578864149567,17.560799508876425
7.999999999999999e-05,49.942591382037996,9.079288462170718,126.6206033370174,49.942591382037996
8.099999999999999e-05,84.92471652684497,9.701087478615527,149.30569530454613,84.92471652684497
8.2e-05,121.60260638385884,10.04123679141466,163.43076268893844,121.60260638385884
8.3e-05,158.7918138253521,9.960321178381314,173.300158571153,158.7918138253521
8.4e-05,194.67726551914757,9.2899592692396,173.68657684741953,194.67726551914757
8.499999999999999e-05,227.00277384318147,8.087815441240402,167.6550142910281,227.00277384318147
8.599999999999999e-05,253.6552966130326,6.205535389836152,157.1394550014248,253.6552966130326
8.7e-05,272.52577014315784,3.931909580076665,149.49679193318514,272.52577014315784
8.8e-05,282.13810824145673,1.2361076702186542,150.80647209909716,282.13810824145673
8.9e-05,281.7726814547455,-1.4018871069807597,142.67163701048196,281.7726814547455
8.999999999999999e-05,271.84654562893695,-3.9518651172710415,132.90147171810938,271.84654562893695
9.099999999999999e-05,252.81936046016563,-6.269741999073218,114.56102801138996,252.81936046016563
9.2e-05,225.78445612455658,-8.312925525708692,95.7720995681835,225.78445612455658
9.3e-05,191.55722061749393,-10.062550842692676,85.37020392274431,191.55722061749393
9.4e-05,151.95127114780976,-11.175798406742615,76.15052686116897,151.95127114780976
9.499999999999999e-05,109.76881877661327,-11.515344226058767,61.072852315900754,109.76881877661327
9.6e-05,67.07143477891734,-11.440107505842171,44.50069381217982,67.07143477891734
9.7e-05,25.655005362837404,-10.828840528487307,33.070162500664004,25.655005362837404
9.8e-05,-12.26990134954545,-9.588239718323745,21.186008656293286,-12.26990134954545
9.9e-05,-45.031342787589764,-8.039492946884524,12.291418176643926,-45.031342787589764
9.999999999999999e-05,-71.48841692832463,-6.1992448877963895,5.03367068716479,-71.48841692832463
0.000101,-90.62547430178816,-4.115580164459065,-0.7837858981139978,-90.62547430178816
0.000102,-101.77310125708107,-1.8896779608719312,6.588839045113913,-101.77310125708107
0.000103,-104.57160394840163,0.3803068515510959,15.079941475070031,-104.57160394840163
0.000104,-98.96162917535469,2.622892144593099,11.220551878817579,-98.96162917535469
0.00010499999999999999,-85.48162767502083,4.586520712561509,5.656685554547164,-85.48162767502083
0.000106,-65.87174617142108,5.899515007050315,-0.6724539394683331,-65.87174617142108
0.000107,-42.576554456562,6.5842959286796505,-2.7296825415423482,-42.576554456562
0.000108,-17.770393623345022,6.692727354334588,-7.575427419038933,-17.770393623345022
0.00010899999999999999,6.380334958688525,6.268298549793955,-11.894223588255246,6.380334958688525
0.00010999999999999999,28.01874787877886,5.3414165675005485,-11.025913853392149,28.01874787877886
0.000111,45.59958872553079,4.117002381936185,-6.612178034711141,45.59958872553079
0.000112,58.31421381457382,2.7217172579511293,-9.090173139324502,58.31421381457382
0.000113,65.5434721053845,1.174318002738159,-14.743405342774773,65.5434721053845
0.00011399999999999999,66.9632725403148,-0.4334438030853427,-22.57338624189577,66.9632725403148
0.00011499999999999999,62.16774040493963,-2.1493756857523554,-29.488755293785974,62.16774040493963
0.000116,51.210882987532905,-3.707945813225458,-24.74814410382326,51.210882987532905
0.000117,35.27778965979065,-4.810557425365946,-18.196587515497153,35.27778965979065
0.000118,16.21529739549881,-5.406598847606745,-17.949978986622604,16.21529739549881
0.00011899999999999999,-4.202746800091045,-5.532142254992476,-10.963689317952047,-4.202746800091045
0.00011999999999999999,-23.820443071031352,-4.937154175556638,8.514807992605757,-23.820443071031352
0.000121,-40.062550013084035,-3.720495280046663,28.793191355434544,-40.062550013084035
0.000122,-50.67073724893644,-1.9559378609582891,35.65143763850499,-50.67073724893644
0.00012299999999999998,-54.50311337503549,-0.1181672437424155,37.36997282898257,-54.50311337503549
0.000124,-51.6182717182651,1.6602743771376614,43.11668552319867,-51.6182717182651
0.000125,-42.307302629593956,3.325699537824903,44.949535255325586,-42.307302629593956
0.000126,-27.354512014123046,4.681251818829269,48.06886922082066,-27.354512014123046
0.000127,-8.049244556244965,5.6990355920283395,52.832815390445916,-8.049244556244965
0.000128,14.371792639815602,6.3394910784212355,51.220428028510774,14.371792639815602
0.000129,38.24128972682616,6.432201545028591,42.84531354633795,38.24128972682616
0.00013,61.28820322238923,5.902383653253287,16.769338154837165,61.28820322238923
0.00013099999999999999,80.70007936767185,4.411200867664743,-12.815797376553304,80.70007936767185
0.00013199999999999998,92.90764460552265,2.109337573069843,-38.93888190373495,92.90764460552265
0.000133,95.57723221827729,-0.6879541558151491,-62.20935633935294,95.57723221827729
0.000134,87.4086421299778,-3.671963841621814,-73.0756266863832,87.4086421299778
0.000135,68.5826287588493,-6.407228203686601,-86.01816906954883,68.5826287588493
0.000136,40.36479797939366,-8.782205933460723,-97.9079613034553,40.36479797939366
0.000137,4.193158187115136,-10.620564817053175,-102.56842237607387,4.193158187115136
0.000138,-37.34506605138539,-11.666977845962679,-98.18086395553095,-37.34506605138539
0.000139,-81.04852112116652,-11.778829087796089,-97.27746517642542,-81.04852112116652
0.00014,-123.49383641842343,-10.978339290933928,-90.22852856149862,-123.49383641842343
0.00014099999999999998,-161.38104848602262,-9.32083442016327,-83.1722128962417,-161.38104848602262
0.00014199999999999998,-191.65997909720556,-6.958374338324665,-80.9398122283796,-191.65997909720556
0.000143,-212.3272089596616,-4.175909095749007,-76.1615357814427,-212.3272089596616
0.000144,-222.3874672776844,-1.2134138939626582,-70.36464679244388,-222.3874672776844
0.000145,-221.30989814434076,1.7763962168650789,-67.59137668014743,-221.30989814434076
0.000146,-209.41689672055062,4.569939741389257,-65.15890377351022,-209.41689672055062
0.000147,-187.9769125884518,6.9136990853372176,-63.91830077452005,-187.9769125884518
0.000148,-158.91781015237044,8.671715287291004,-60.66699170043737,-158.91781015237044
0.000149,-124.58680584774777,9.746839970090267,-51.06560090232367,-124.58680584774777
0.00015,-87.4235977012117,10.233526223856046,-35.37951574408033,-87.4235977012117
0.00015099999999999998,-49.28116155211643,10.315634584652605,-24.667065728673997,-49.28116155211643
0.00015199999999999998,-11.79750913730301,9.810987825542664,-9.132576859772435,-11.79750913730301
0.000153,22.931848090851446,8.8978173833037,-5.5277289812970185,22.931848090851446
0.000154,53.487124303138174,7.51412356221547,-5.1541038257183045,53.487124303138174
0.000155,78.09363181562719,5.718896843984178,-1.3865360798099915,78.09363181562719
0.000156,95.52854545298392,3.6709299476622834,2.7777204169700114,95.52854545298392
0.000157,105.18010478506307,1.5462194496882482,2.4999356681486167,105.18010478506307
0.000158,106.95301018885857,-0.5800717700403029,-0.3709668686235818,106.95301018885857
0.000159,101.00209018516037,-2.6285606639670043,-6.265102463891599,101.00209018516037
0.00015999999999999999,87.72445144679017,-4.497788303876856,-13.070495622481094,87.72445144679017
0.00016099999999999998,68.10922011402585,-6.023975275289692,-13.495292158806858,68.10922011402585
0.00016199999999999998,43.79477167173023,-7.012827871894012,-11.567292458881633,43.79477167173023
0.000163,16.89092687959801,-7.43357868871962,-11.8982673398715,16.89092687959801
0.000164,-10.512043661140765,-7.264585001158809,-7.481464161325703,-10.512043661140765
0.000165,-36.16854677638678,-6.466003331346237,-0.10220032606072008,-36.16854677638678
0.000166,-57.91837605371527,-5.204058205017845,11.048249412305521,-57.91837605371527
0.000167,-73.94306386910392,-3.3792699370234036,22.301679385872436,-73.94306386910392
0.000168,-82.46658823238624,-1.1917874529544876,25.70895553586771,-82.46658823238624
0.000169,-82.81667745323405,0.9874762769671759,24.762651364050537,-82.81667745323405
0.00016999999999999999,-75.4014707161983,2.9783801253807924,27.797059063475544,-75.4014707161983
0.00017099999999999998,-61.105049943635905,4.688203996061011,33.700775561563816,-61.105049943635905
0.00017199999999999998,-41.20473914861904,5.983170625190882,38.24111938400136,-41.20473914861904
0.000173,-17.16598136198499,6.913296750992438,43.32478994095577,-17.16598136198499
0.000174,9.607057736499648,7.490040150324658,52.42745529456719,9.607057736499648
0.000175,37.7812029896341,7.639652377919683,57.355280605962605,37.7812029896341
0.000176,65.64079616970183,7.327316085029074,61.81014473423926,65.64079616970183
0.000177,91.49303440943926,6.568748980706675,63.18856252986441,91.49303440943926
0.000178,113.75581440254486,5.394326252757578,63.15288502942822,113.75581440254486
0.000179,131.17463967790212,3.978289076227235,68.75279985207554,131.17463967790212
0.00017999999999999998,143.03711510394396,2.4187443361974137,78.57320781881944,143.03711510394396
0.00018099999999999998,149.3162083104538,1.028848845887957,91.63826789995953,149.3162083104538
0.00018199999999999998,150.90732446720378,-0.1225976791345611,107.62612672031187,150.90732446720378
0.000183,148.9223629562748,-0.9310853278067748,120.11750193049497,148.9223629562748
0.000184,144.45064641918273,-1.4170801719334758,130.29380034190632,144.45064641918273
0.000185,138.8450677016024,-1.5598521087225272,134.95472385872839,138.8450677016024
0.000186,133.15463424152588,-1.4918481303535653,136.96038996788636,133.15463424152588
0.000187,127.93458948488671,-1.3097814765595048,135.6331680579353,127.93458948488671
0.000188,123.56326989406837,-1.03602517999758,133.2430398674716,123.56326989406837
0.00018899999999999999,120.27415535906788,-0.7496707427775331,131.0294485184208,120.27415535906788
0.00018999999999999998,117.99878628947424,-0.4870597046456445,126.21780829241101,117.99878628947424
0.00019099999999999998,116.56704747418269,-0.2858208143563105,129.003519321801,116.56704747418269
0.000192,115.98117242920118,-0.03188607227005484,123.99155103997228,115.98117242920118
0.000193,116.15632833513236,0.12280498733366972,111.74989844889409,116.15632833513236
0.000194,116.43686085767658,0.024527854135200033,106.3898269609069,116.43686085767658
0.000195,116.15986102306421,-0.17030703097057698,106.97774193418883,116.15986102306421
0.000196,115.22126875334216,-0.32710415411826665,110.60525474807187,115.22126875334216
0.000197,113.8910114112627,-0.3676799918281747,115.29722089481682,113.8910114112627
0.000198,112.63026228547241,-0.30572772857334785,115.95241093609371,112.63026228547241
0.00019899999999999999,111.66473762820608,-0.2144568276774977,109.4444919884488,111.66473762820608
0.00019999999999999998,110.83547449004224,-0.23870536476622478,100.80362621032455,110.83547449004224
0.00020099999999999998,109.63627424905604,-0.4076720772041122,90.30587769290257,109.63627424905604
0.000202,107.60640206244548,-0.7239875881222323,84.975023578725,107.60640206244548
0.000203,104.22664332879971,-1.0869522696171776,78.60416801511418,104.22664332879971
0.000204,99.48909076874011,-1.4969426571615683,67.25746912755201,99.48909076874011
0.000205,93.0377740868299,-1.9788064081895826,55.381477554068084,93.0377740868299
0.000206,84.82834585636279,-2.484046864467426,46.515274839335106,84.82834585636279
0.000207,74.46927559802776,-3.0963558697901785,35.32678020331353,74.46927559802776
0.000208,62.023175180607076,-3.6031263890728114,21.56824923400816,62.023175180607076
0.00020899999999999998,47.7344794308174,-4.107756421213707,11.599256729416691,47.7344794308174
0.00020999999999999998,31.83730560594287,-4.428650088233692,4.878331357167168,31.83730560594287
0.00021099999999999998,15.112601127779996,-4.577977338746362,-3.3068057905034447,15.112601127779996
0.000212,-1.794855126024026,-4.506706817317937,-12.143033062139084,-1.794855126024026
0.000213,-18.041591030791924,-4.263924546648366,-19.893971217708465,-18.041591030791924
0.000214,-33.48936892167833,-4.060223665332923,-34.81260372019537,-33.48936892167833
0.000215,-47.97711071837171,-3.7550735894486293,-55.632192747888894,-47.97711071837171
0.000216,-61.586177090422666,-3.639528850074736,-75.91974665487955,-61.586177090422666
0.000217,-75.01731933944288,-3.58905546247923,-91.07362955108741,-75.01731933944288
0.00021799999999999999,-88.2689177219327,-3.5726374624015618,-96.98052057160771,-88.2689177219327
0.00021899999999999998,-101.27496767216155,-3.4005118610689786,-89.88494437575595,-101.27496767216155
0.00021999999999999998,-112.9563347552665,-2.819833768452763,-76.64771798649306,-112.9563347552665
0.00022099999999999998,-121.65396744284163,-1.8273722931517606,-65.17220601870986,-121.65396744284163
0.000222,-126.03730273477889,-0.5007659882520219,-57.164858564145206,-126.03730273477889
0.000223,-125.31464739799023,0.8774037438689986,-55.580417214551744,-125.31464739799023
0.000224,-119.67652571493085,2.1386018662844783,-55.100433798516015,-119.67652571493085
0.000225,-109.75152647010343,3.1775152235009116,-54.786802679935754,-109.75152647010343
0.000226,-96.48836868038387,3.934749727693094,-53.31343332817951,-96.48836868038387
