time,V_C,I_L,V_IN,V_C
0.0,0.0,0.0,5.469233292175913,0.0
1e-06,0.19955996058222655,0.10532819668099723,-7.549197211070576,0.19955996058222655
2e-06,0.30377072661291515,-0.05401238031480853,-19.1619905602321,0.30377072661291515
3e-06,-0.5931245462680479,-0.42801202881012307,-21.32210037272719,-0.5931245462680479
4e-06,-2.901114942519935,-0.823876734065064,-25.262580983351853,-2.901114942519935
4.9999999999999996e-06,-6.63949299493852,-1.1779660663400706,-29.22589172065908,-6.63949299493852
6e-06,-11.571209318079523,-1.4790135371250175,-29.398264484308395,-11.571209318079523
7e-06,-17.457021742152023,-1.6769859467349248,-34.2456399160951,-17.457021742152023
8e-06,-23.932848120703326,-1.8099848800225964,-35.58590172228631,-23.932848120703326
9e-06,-30.77781047412568,-1.8617128979956976,-30.889917944698837,-30.77781047412568
9.999999999999999e-06,-37.42127981051239,-1.6953586103011733,-33.57782864558493,-37.42127981051239
1.1e-05,-43.19981386452688,-1.4147314339579622,-35.553885894320764,-43.19981386452688
1.2e-05,-47.89431433677026,-1.1132316863990015,-33.56036277253533,-47.89431433677026
1.3e-05,-51.26579135083171,-0.6837489609751526,-28.688032453194236,-51.26579135083171
1.4e-05,-52.860855746261535,-0.17490992355092178,-32.132415145450516,-52.860855746261535
1.4999999999999999e-05,-52.67521106431889,0.2565536971366389,-41.96920452857866,-52.67521106431889
1.6e-05,-51.33163361152855,0.42166143334775186,-46.84691781023352,-51.33163361152855
1.7e-05,-49.67396692239503,0.468536937440661,-46.93382386871883,-49.67396692239503
1.8e-05,-47.910586765165284,0.4796544612655735,-43.86246696300593,-47.910586765165284
1.8999999999999998e-05,-46.06318584458799,0.5294778185259261,-39.542407845956504,-46.06318584458799
1.9999999999999998e-05,-43.949543063674284,0.6071253107514849,-38.47141852786923,-43.949543063674284
2.1e-05,-41.58542154261915,0.6695610035232207,-36.103575251317736,-41.58542154261915
2.2e-05,-39.021615478530805,0.7104490856055397,-32.81570457088963,-39.021615478530805
2.3e-05,-36.31916178292389,0.7633568797302509,-30.519395574789023,-36.31916178292389
2.4e-05,-33.13539980579833,0.9635697223194513,-18.3699295918345,-33.13539980579833
2.4999999999999998e-05,-29.1533472839277,1.1971913951546467,-5.855789848355361,-29.1533472839277
2.6e-05,-24.10351637106354,1.5452032324143212,-1.3496544924662994,-24.10351637106354
2.7e-05,-17.76355236607581,1.8640902637222143,2.650532502020646,-17.76355236607581
2.8e-05,-10.39960288358795,2.084459674958612,2.270406225099405,-10.39960288358795
2.9e-05,-2.5381246477889547,2.1351944433962147,6.653271695385249,-2.5381246477889547
2.9999999999999997e-05,5.391434326271909,2.1575067069448846,15.810665006122422,5.391434326271909
3.1e-05,13.436986756307835,2.171693351992233,20.709745146918394,13.436986756307835
3.2e-05,21.48672181715883,2.1780671089558084,28.705778861149426,21.48672181715883
3.2999999999999996e-05,29.51470715771985,2.167203614302987,38.69636044816599,29.51470715771985
3.4e-05,37.66741410933737,2.242823634485044,53.05025958713402,37.66741410933737
3.5e-05,46.12239549726897,2.313155537321437,73.5540136531648,46.12239549726897
3.6e-05,55.219670649169984,2.5985540127389926,87.26955590150322,55.219670649169984
3.7e-05,65.54898905777968,2.9651590517574222,90.07407146963024,65.54898905777968
3.7999999999999995e-05,76.98231930141934,3.1634312426311655,83.48052979898614,76.98231930141934
3.9e-05,88.48385996830304,2.9849530456927598,71.35319257384299,88.48385996830304
3.9999999999999996e-05,98.47240771467519,2.3265025686455023,60.04456152930027,98.47240771467519
4.1e-05,105.33097625388017,1.355323075555345,52.646996824275966,105.33097625388017
4.2e-05,108.25917523597455,0.20086761860874391,49.26502708786348,108.25917523597455
4.2999999999999995e-05,106.81894943471944,-0.9585475518102405,50.628976612851915,106.81894943471944
4.4e-05,101.33866105699983,-1.9625184144580146,53.87210292530089,101.33866105699983
4.4999999999999996e-05,92.6094554139129,-2.7081338000766766,62.69933536526561,92.6094554139129
4.6e-05,81.84454838261759,-3.002898043487753,72.3623919172148,81.84454838261759
4.7e-05,70.82711939230197,-2.904707460845327,93.3629750982926,70.82711939230197
4.8e-05,61.193685345017805,-2.200300788765143,112.6383109228887,61.193685345017805
4.9e-05,55.301356229662396,-0.9300940443827233,119.33711810982828,55.301356229662396
4.9999999999999996e-05,54.34646157404145,0.4008680050527431,115.83889573148228,54.34646157404145
5.1e-05,58.056027822240736,1.5683027906697222,111.9383597599247,58.056027822240736
5.2e-05,65.6537044368195,2.4804812714762683,107.31192338129334,65.6537044368195
5.3e-05,76.01501116827258,3.060220564257542,106.0605879565435,76.01501116827258
5.4e-05,87.99582097239528,3.3626110037206782,106.41435811712235,87.99582097239528
5.4999999999999995e-05,100.54318453522417,3.3653427931160484,103.58079971001993,100.54318453522417
5.6e-05,112.5931473390795,3.104627200154419,92.61470523776998,112.5931473390795
5.6999999999999996e-05,122.98854687823079,2.4595740224525002,72.81831589013049,122.98854687823079
5.8e-05,130.11451573379094,1.2697791583437372,53.68236274863182,130.11451573379094
5.9e-05,131.82919240233517,-0.3258517743979172,42.835354676695935,131.82919240233517
5.9999999999999995e-05,127.47634625763727,-2.0529379433551886,34.384396325036576,127.47634625763727
6.1e-05,116.74691505549434,-3.716720864122472,21.25825970567043,116.74691505549434
6.2e-05,99.31034642667962,-6.723875929386802,11.058011175292,99.31034642667962
6.3e-05,58.943477780566184,-13.354384712955675,4.29757931763091,58.943477780566184
6.4e-05,10.875495221447329,-11.43911489511741,-4.855258771749039,10.875495221447329
6.5e-05,-22.023095429043103,-6.298010466759029,-11.732972619571738,-22.023095429043103
6.599999999999999e-05,-40.83932006951685,-4.468356823558431,-17.75432978612378,-40.83932006951685
6.7e-05,-55.75591172208194,-3.554125902529919,-27.441552020744375,-55.75591172208194
6.8e-05,-67.26498290844111,-2.647596372974829,-32.7705501900697,-67.26498290844111
6.9e-05,-75.38325591833988,-1.7206998964908102,-31.038468512537282,-75.38325591833988
7e-05,-80.01657224372431,-0.747051340207677,-21.081490698692118,-80.01657224372431
7.099999999999999e-05,-80.56126417959369,0.45396869193575373,-8.260606667896264,-80.56126417959369
7.2e-05,-76.38141441642476,1.8315493761358095,-6.076047908003593,-76.38141441642476
7.3e-05,-67.27942622762212,3.045345295764854,-10.370998409973406,-67.27942622762212
7.4e-05,-54.27495681828001,3.9139314133989602,-11.000397075266692,-54.27495681828001
7.5e-05,-38.76044577991349,4.408132185040259,-7.09093004830311,-38.76044577991349
7.599999999999999e-05,-21.85350540009132,4.690077041940507,4.957629396983289,-21.85350540009132
7.7e-05,-4.233210051111079,4.804571420999713,36.035514855756425,-4.233210051111079
7.8e-05,14.679122043705453,5.521372798353916,67.90286702855622,14.679122043705453
7.9e-05,41.54654897979526,8.287961301165067,98.41578864149567,41.54654897979526
7.999999999999999e-05,77.31597157881257,9.91985202236293,126.6206033370174,77.31597157881257
8.099999999999999e-05,114.87183657488528,9.848613787076465,149.30569530454613,114.87183657488528
8.2e-05,149.3934077819862,7.947072916562955,163.43076268893844,149.3934077819862
8.3e-05,174.76775819479553,6.354767048599376,173.300158571153,174.76775819479553
8.4e-05,194.50537947434287,4.532239561037148,173.68657684741953,194.50537947434287
8.499999999999999e-05,209.78351515178588,3.6790287157008534,167.6550142910281,209.78351515178588
8.599999999999999e-05,221.32105519270564,2.499394991682901,157.1394550014248,221.32105519270564
8.7e-05,227.82975986786596,1.0063596701771653,149.49679193318514,227.82975986786596
8.8e-05,228.5601109506427,-0.604145179649167,150.80647209909716,228.5601109506427
8.9e-05,223.5343206948484,-2.1107907948915168,142.67163701048196,223.5343206948484
8.999999999999999e-05,213.0667007480276,-3.5020861078930494,132.90147171810938,213.0667007480276
9.099999999999999e-05,197.72314928842619,-4.764312077131608,114.56102801138996,197.72314928842619
9.2e-05,170.628634184401,-10.499425069816041,95.7720995681835,170.628634184401
9.3e-05,124.11012022944635,-13.322888591337957,85.37020392274431,124.11012022944635
9.4e-05,79.72592070176366,-9.866224814926408,76.15052686116897,79.72592070176366
9.499999999999999e-05,52.59538974267696,-5.1230553495268465,61.072852315900754,52.59538974267696
9.6e-05,35.28896631067367,-4.2851242561191185,44.50069381217982,35.28896631067367
9.7e-05,20.60828923331179,-3.6316633372212044,33.070162500664004,20.60828923331179
9.8e-05,8.354358042770428,-2.997845437788624,21.186008656293286,8.354358042770428
9.9e-05,-1.810870012623349,-2.5156938930227652,12.291418176643926,-1.810870012623349
9.999999999999999e-05,-10.212493885864259,-1.9961570344247528,5.03367068716479,-10.212493885864259
0.000101,-16.64543556589473,-1.4854071534050612,-0.7837858981139978,-16.64543556589473
0.000102,-21.280566506698968,-0.9951526552238724,6.588839045113913,-21.280566506698968
0.000103,-23.798003438953973,-0.3590507367543726,15.079941475070031,-23.798003438953973
0.000104,-23.734286171095622,0.39844545118817576,11.220551878817579,-23.734286171095622
0.00010499999999999999,-21.049754890863838,1.0300623457410576,5.656685554547164,-21.049754890863838
0.000106,-16.418520328092693,1.4485243561704977,-0.6724539394683331,-16.418520328092693
0.000107,-10.678655291295417,1.6093151225594011,-2.7296825415423482,-10.678655291295417
0.000108,-4.672242803823654,1.613544048543104,-7.575427419038933,-4.672242803823654
0.00010899999999999999,0.9896495393126495,1.4106449846667624,-11.894223588255246,0.9896495393126495
0.00010999999999999999,5.537487180343204,1.0324455220919262,-11.025913853392149,5.537487180343204
0.000111,8.589952869392304,0.6111334643170403,-6.612178034711141,8.589952869392304
0.000112,10.15104434249629,0.2440305630385537,-9.090173139324502,10.15104434249629
0.000113,10.351263117115206,-0.15261637572339348,-14.743405342774773,10.351263117115206
0.00011399999999999999,8.914627709713798,-0.6252652608675008,-22.57338624189577,8.914627709713798
0.00011499999999999999,5.600570502547024,-1.1839878771756558,-29.488755293785974,5.600570502547024
0.000116,0.13057076268273782,-1.7495332817545646,-24.74814410382326,0.13057076268273782
0.000117,-7.0578629376763935,-2.0780105414081014,-18.196587515497153,-7.0578629376763935
0.000118,-14.88331553537089,-2.1080048363844166,-17.949978986622604,-14.88331553537089
0.00011899999999999999,-22.46855131357945,-1.9438400249036398,-10.963689317952047,-22.46855131357945
0.00011999999999999999,-28.96169508867382,-1.5430555078264176,8.514807992605757,-28.96169508867382
0.000121,-33.24618643900587,-0.684646818961247,28.793191355434544,-33.24618643900587
0.000122,-33.39951312422783,0.589705781635671,35.65143763850499,-33.39951312422783
0.00012299999999999998,-28.806917168650486,1.8754074416084723,37.36997282898257,-28.806917168650486
0.000124,-19.709718348789508,3.0151642895622235,43.11668552319867,-19.709718348789508
0.000125,-6.673353335859278,3.9755499666779337,44.949535255325586,-6.673353335859278
0.000126,9.388070074782014,4.643884630484543,48.06886922082066,9.388070074782014
0.000127,27.424096998655173,5.05752551751194,52.832815390445916,27.424096998655173
0.000128,46.5098698145069,5.167390145471468,51.220428028510774,46.5098698145069
0.000129,64.90048747389272,4.666476014416611,42.84531354633795,64.90048747389272
0.00013,80.27042472125075,3.5063053028009055,16.769338154837165,80.27042472125075
0.00013099999999999999,90.35186768714672,1.8961768079286718,-12.815797376553304,90.35186768714672
0.00013199999999999998,93.42300017656399,-0.2507784448491628,-38.93888190373495,93.42300017656399
0.000133,87.96191246416498,-2.7366880992974822,-62.20935633935294,87.96191246416498
0.000134,71.72487406120236,-8.038957180280029,-73.0756266863832,71.72487406120236
0.000135,11.868650755649636,-21.236886842352376,-86.01816906954883,11.868650755649636
0.000136,-67.65889544538831,-19.66804443882629,-97.9079613034553,-67.65889544538831
0.000137,-125.22824623475316,-10.655056483489467,-102.56842237607387,-125.22824623475316
0.000138,-149.81008165163635,-4.591866220593384,-98.18086395553095,-149.81008165163635
0.000139,-164.0895006487726,-3.0950080564538904,-97.27746517642542,-164.0895006487726
0.00014,-172.60584612651678,-1.4875620344631368,-90.22852856149862,-172.60584612651678
0.00014099999999999998,-174.90598490377826,0.25595259755010447,-83.1722128962417,-174.90598490377826
0.00014199999999999998,-170.63457184837003,2.0360757558226994,-80.9398122283796,-170.63457184837003
0.000143,-160.09544277043503,3.617943219905815,-76.1615357814427,-160.09544277043503
0.000144,-144.0210957657825,5.10625270923213,-70.36464679244388,-144.0210957657825
0.000145,-114.37043983864959,10.415380203880574,-67.59137668014743,-114.37043983864959
0.000146,-75.41721319754141,9.500885991698283,-65.15890377351022,-75.41721319754141
0.000147,-47.92225301744058,5.370224064428744,-63.91830077452005,-47.92225301744058
0.000148,-30.554901413696683,4.209162961999871,-60.66699170043737,-30.554901413696683
0.000149,-16.76845394343559,3.2202883150170334,-51.06560090232367,-16.76845394343559
0.00015,-6.565634069448905,2.288690472186054,-35.37951574408033,-6.565634069448905
0.00015099999999999998,0.5090655962914697,1.52657828763555,-24.667065728673997,0.5090655962914697
0.00015199999999999998,5.00226159179728,0.8856635169526426,-9.132576859772435,5.00226159179728
0.000153,7.477562406162134,0.48631698375367993,-5.5277289812970185,7.477562406162134
0.000154,8.717358054669097,0.18564428328859764,-5.1541038257183045,8.717358054669097
0.000155,8.867004827852247,-0.10045730599774386,-1.3865360798099915,8.867004827852247
0.000156,8.119559109680026,-0.2926660572255312,2.7777204169700114,8.119559109680026
0.000157,6.870221335863798,-0.3723491182991622,2.4999356681486167,6.870221335863798
0.000158,5.391944391113756,-0.42140670074735515,-0.3709668686235818,5.391944391113756
0.000159,3.7040736464002615,-0.4878537639693708,-6.265102463891599,3.7040736464002615
0.00015999999999999999,1.6520582477282735,-0.6211003372338396,-13.070495622481094,1.6520582477282735
0.00016099999999999998,-1.025650808854035,-0.8301673734674295,-13.495292158806858,-1.025650808854035
0.00016199999999999998,-4.420277553942411,-0.9879088932604427,-11.567292458881633,-4.420277553942411
0.000163,-8.193426803289611,-1.0338896786549272,-11.8982673398715,-8.193426803289611
0.000164,-11.998225150300652,-1.0114337143279297,-7.481464161325703,-11.998225150300652
0.000165,-15.46907962589561,-0.8214999451312287,-0.10220032606072008,-15.46907962589561
0.000166,-17.80470434183449,-0.4161813171607519,11.048249412305521,-17.80470434183449
0.000167,-18.215699002852695,0.19867152018629286,22.301679385872436,-18.215699002852695
0.000168,-16.035261149186034,0.9662684780635161,25.70895553586771,-16.035261149186034
0.000169,-11.156482687281564,1.6619718378892832,24.762651364050537,-11.156482687281564
0.00016999999999999999,-3.8717403755579713,2.2475473605509984,27.797059063475544,-3.8717403755579713
0.00017099999999999998,5.279630118264751,2.652229293988428,33.700775561563816,5.279630118264751
0.00017199999999999998,15.57860942490648,2.902170862460461,38.24111938400136,15.57860942490648
0.000173,26.696492411505226,3.077920506424029,43.32478994095577,26.696492411505226
0.000174,38.22748999831324,3.1138861546994563,52.42745529456719,38.22748999831324
0.000175,49.58343036550467,3.0203410185764508,57.355280605962605,49.58343036550467
0.000176,60.546698870354916,2.8850813684601007,61.81014473423926,60.546698870354916
0.000177,70.84561252979252,2.647895999443658,63.18856252986441,70.84561252979252
0.000178,79.95548025231327,2.2444796675068934,63.15288502942822,79.95548025231327
0.000179,87.29946644088501,1.7073389728354935,68.75279985207554,87.29946644088501
0.00017999999999999998,92.72083548711844,1.2492374766888865,78.57320781881944,92.72083548711844
0.00018099999999999998,96.63388121731042,0.8596101483298171,91.63826789995953,96.63388121731042
0.00018199999999999998,99.42496032862242,0.6559666201041804,107.62612672031187,99.42496032862242
0.000183,101.8944053991155,0.70317359360639,120.11750193049497,101.8944053991155
0.000184,104.89790497536629,0.9399288404702422,130.29380034190632,104.89790497536629
0.000185,109.03758026664231,1.3221290068856255,134.95472385872839,109.03758026664231
0.000186,114.68691888028332,1.7057251998861376,136.96038996788636,114.68691888028332
0.000187,121.54376208801105,1.9716033797203896,135.6331680579353,121.54376208801105
0.000188,129.05675035410923,2.051953164809162,133.2430398674716,129.05675035410923
0.00018899999999999999,136.4802211318371,1.9232453202892466,131.0294485184208,136.4802211318371
0.00018999999999999998,143.09489755702253,1.6197664428971306,126.21780829241101,143.09489755702253
0.00019099999999999998,148.24685656921685,1.1475396279074899,129.003519321801,148.24685656921685
0.000192,151.60651008659914,0.664859368813481,123.99155103997228,151.60651008659914
0.000193,152.96171588804847,0.03050975138529166,111.74989844889409,152.96171588804847
0.000194,151.6014176041805,-0.7692977141044575,106.3898269609069,151.6014176041805
0.000195,147.27445992641518,-1.5617950750156278,106.97774193418883,147.27445992641518
0.000196,140.30478684790094,-2.1601548268396584,110.60525474807187,140.30478684790094
0.000197,131.557854208214,-2.5088840032088306,115.29722089481682,131.557854208214
0.000198,122.06568353217813,-2.5771874670162984,115.95241093609371,122.06568353217813
0.00019899999999999999,112.6818146850095,-2.473898675671596,109.4444919884488,112.6818146850095
0.00019999999999999998,103.68014592739024,-2.3924894193506216,100.80362621032455,103.68014592739024
0.00020099999999999998,95.08676893381585,-2.2203179457998514,90.30587769290257,95.08676893381585
0.000202,87.15262779390505,-2.0749196249268334,84.975023578725,87.15262779390505
0.000203,79.71100122363828,-1.923359862504628,78.60416801511418,79.71100122363828
0.000204,72.85906998207427,-1.7596224145968675,67.25746912755201,72.85906998207427
0.000205,66.49560074080078,-1.7281167052702637,55.381477554068084,66.49560074080078
0.000206,59.92716733218859,-1.8239932301188524,46.515274839335106,59.92716733218859
0.000207,52.83520061086777,-2.0163541521500354,35.32678020331353,52.83520061086777
0.000208,45.06479661701444,-2.1578064387627416,21.56824923400816,45.06479661701444
0.00020899999999999998,36.64834982803196,-2.4030569136352913,11.599256729416691,36.64834982803196
0.00020999999999999998,27.20016842091632,-2.682729523622099,4.878331357167168,27.20016842091632
0.00021099999999999998,16.855644221597707,-2.8941188921826813,-3.3068057905034447,16.855644221597707
0.000212,5.850889941013927,-3.0111488103354866,-12.143033062139084,5.850889941013927
0.000213,-5.402537991177093,-3.0537459417650794,-19.893971217708465,-5.402537991177093
0.000214,-16.829800777576335,-3.1539870139521433,-34.81260372019537,-16.829800777576335
0.000215,-28.682566879367847,-3.227643467530039,-55.632192747888894,-28.682566879367847
0.000216,-41.04912181365437,-3.4203126176910716,-75.91974665487955,-41.04912181365437
0.000217,-54.16944370817467,-3.6982336479088493,-91.07362955108741,-54.16944370817467
0.00021799999999999999,-68.63700496675403,-4.1106252254954265,-96.98052057160771,-68.63700496675403
0.00021899999999999998,-84.29018084425095,-4.279468187977258,-89.88494437575595,-84.29018084425095
0.00021999999999999998,-99.68656734628706,-3.947670613328829,-76.64771798649306,-99.68656734628706
0.00022099999999999998,-112.8251367279847,-3.0890260903915445,-65.17220601870986,-112.8251367279847
0.000222,-122.04521296507764,-1.8471671268396601,-57.164858564145206,-122.04521296507764
0.000223,-126.21868838187834,-0.3983032079184883,-55.580417214551744,-126.21868838187834
0.000224,-125.05602821407052,1.0075135155235253,-55.100433798516015,-125.05602821407052
0.000225,-118.9253935261459,2.272947834693102,-54.786802679935754,-118.9253935261459
0.000226,-108.4734183486955,3.330803379048114,-53.31343332817951,-108.4734183486955
