time,V_C,I_L,V_IN,V_C
0.0,0.0,0.0,151.41159120159043,0.0
1e-06,5.543477108186355,2.916139592005734,138.20976722821266,5.543477108186355
2e-06,21.347099425779053,6.7548965152494835,123.16281304371688,21.347099425779053
3e-06,65.36074144131386,14.909738713150581,113.5902083061564,65.36074144131386
4e-06,116.09776440660819,11.186889718650017,108.21807987052213,116.09776440660819
4.9999999999999996e-06,143.92181326626263,4.799489384373548,102.32405937259153,143.92181326626263
6e-06,159.22125285566264,3.4588711257218296,96.2813193110114,159.22125285566264
7e-06,169.15354897730575,1.8213750988347293,81.81018283985915,169.15354897730575
8e-06,172.43333922591745,-0.042671039811248646,60.081774942790915,172.43333922591745
9e-06,168.39195426631,-2.171180321675261,43.62210825966156,168.39195426631
9.999999999999999e-06,156.06199470280413,-4.408381991554012,33.12830978241011,156.06199470280413
1.1e-05,125.34017815137376,-14.128130820999939,32.33178506960512,125.34017815137376
1.2e-05,64.50971877386475,-16.004558509848714,47.24535395404959,64.50971877386475
1.3e-05,19.49148968055979,-7.890226189417829,64.62394484067033,19.49148968055979
1.4e-05,0.8347097426006718,-3.8581446644323654,73.96764410445462,0.8347097426006718
1.4999999999999999e-05,-10.086160098324253,-2.004231622599052,82.64636587958721,-10.086160098324253
1.6e-05,-13.821976027510573,-0.021530814618996086,80.62935755731917,-13.821976027510573
1.7e-05,-10.481897760652288,1.7807927568367972,73.02348859009282,-10.481897760652288
1.8e-05,-1.1549604411935697,3.186107390185431,67.62994907481331,-1.1549604411935697
1.8999999999999998e-05,12.713968285738611,4.255383821479754,70.99347403340904,12.713968285738611
1.9999999999999998e-05,30.030880537130397,5.1260526193497205,68.80499669069123,30.030880537130397
2.1e-05,51.35040654867623,6.146902554998227,59.9078359253561,51.35040654867623
2.2e-05,71.51622071154054,4.847415858280069,49.43920509087712,71.51622071154054
2.3e-05,87.77660409340545,3.894088539480201,38.506747777820195,87.77660409340545
2.4e-05,99.82895662538394,2.563502347963848,33.61122274882588,99.82895662538394
2.4999999999999998e-05,106.48734520925461,0.9881512014538827,22.7993726929555,106.48734520925461
2.6e-05,106.94874596923961,-0.7333457804699024,5.567342152790945,106.94874596923961
2.7e-05,100.64347208802202,-2.629818220499291,-12.160392089654156,100.64347208802202
2.8e-05,87.28877088308654,-4.5979634308957555,-25.5200900012226,87.28877088308654
2.9e-05,54.59698145348498,-14.026000218171173,-22.932463780426062,54.59698145348498
2.9999999999999997e-05,-2.1282757412786424,-14.697948926555881,-12.343359232208563,-2.1282757412786424
3.1e-05,-42.509564976925446,-6.677706239824508,-4.38903332897501,-42.509564976925446
3.2e-05,-60.2035194564536,-3.918570164586103,-4.07488364477677,-60.2035194564536
3.2999999999999996e-05,-71.99221888350024,-2.422564116481194,-2.0778713979044126,-71.99221888350024
3.4e-05,-78.01388100299322,-0.8260501461542796,-7.628237738629454,-78.01388100299322
3.5e-05,-78.32217261055838,0.6389628930986899,-20.03004728463339,-78.32217261055838
3.6e-05,-73.73713739807562,1.7613148928048257,-23.526854072235537,-73.73713739807562
3.7e-05,-65.64447513935296,2.581017266307644,-20.793061097335546,-65.64447513935296
3.7999999999999995e-05,-54.82001827569845,3.2501762762927937,-12.107322858640563,-54.82001827569845
3.9e-05,-41.70855389458396,3.7827645648389323,-1.018342700199079,-41.70855389458396
3.9999999999999996e-05,-26.85637062315245,4.228378987167522,11.592004400850682,-26.85637062315245
4.1e-05,-10.400985224843936,4.608805661952153,16.47491384446055,-10.400985224843936
4.2e-05,6.964290693869254,4.700050671892927,13.970737998114966,6.964290693869254
4.2999999999999995e-05,23.854237501016055,4.359246658061134,13.150653531051441,23.854237501016055
4.4e-05,38.881902676686266,3.699666491372592,7.473548001008482,38.881902676686266
4.4999999999999996e-05,50.85516487211116,2.7267431288836765,-2.660964335180334,50.85516487211116
4.6e-05,58.66947197056865,1.416336883242364,-13.654560907461144,58.66947197056865
4.7e-05,61.06334820077818,-0.11606146271041562,-22.59657352535097,61.06334820077818
4.8e-05,57.689029178565676,-1.700104263656194,-32.95469239340087,57.689029178565676
4.9e-05,48.4232645197533,-3.2869056060706145,-49.432860794205524,48.4232645197533
4.9999999999999996e-05,33.11211437168902,-5.05540107845222,-69.72429131414899,33.11211437168902
5.1e-05,-3.357363145410867,-13.941988867962172,-96.172024393135,-3.357363145410867
5.2e-05,-62.85312388150142,-16.51501829755423,-115.76213560040827,-62.85312388150142
5.3e-05,-118.45102904576525,-12.466294459752408,-138.19238603475918,-118.45102904576525
5.4e-05,-155.6794672396932,-7.477399762385657,-160.5950357148582,-155.6794672396932
5.4999999999999995e-05,-177.9502509405119,-4.90115352192924,-176.40995921305347,-177.9502509405119
5.6e-05,-195.00575609989622,-4.3331146514776435,-186.50996583644996,-195.00575609989622
5.6999999999999996e-05,-210.0232883738292,-3.7274988079752864,-184.44535959069256,-210.0232883738292
5.8e-05,-222.28691265420724,-2.863346812906845,-184.33776585673232,-222.28691265420724
5.9e-05,-231.0139279194519,-1.8246177251393754,-180.93184744497734,-231.0139279194519
5.9999999999999995e-05,-235.65620149647674,-0.6736955588230157,-176.58947717776533,-235.65620149647674
6.1e-05,-235.96646164803815,0.5196335340740748,-175.94911726269578,-235.96646164803815
6.2e-05,-231.81271374024467,1.7047308446270106,-170.86585396734475,-231.81271374024467
6.3e-05,-223.5103617009141,2.7495225349198282,-162.87190917266986,-223.5103617009141
6.4e-05,-211.50868591153426,3.677405408504747,-148.2646453542366,-211.50868591153426
6.5e-05,-196.21129813400557,4.60621322642246,-125.3851892888497,-196.21129813400557
6.599999999999999e-05,-173.5982915510825,8.828690492244553,-90.28111276320126,-173.5982915510825
6.7e-05,-128.3228012053174,14.157956441540296,-52.4528548807179,-128.3228012053174
6.8e-05,-71.4903974102158,14.667268235168695,-24.128634945823876,-71.4903974102158
6.9e-05,-21.46914531472409,11.545226418169113,-2.8442026741437534,-21.46914531472409
7e-05,13.143759880607552,6.651862325945986,20.049682901025506,13.143759880607552
7.099999999999999e-05,33.37092641448423,4.838273329996915,42.89186471030294,33.37092641448423
7.2e-05,50.664532206882996,4.544087338043003,61.04693422168494,50.664532206882996
7.3e-05,67.1368040256754,4.294575775243672,64.76718723882713,67.1368040256754
7.4e-05,82.21607973844954,3.810440932468325,62.80307964835601,82.21607973844954
7.5e-05,94.9133028523288,2.997575489600221,56.25837595751477,94.9133028523288
7.599999999999999e-05,104.11577895789736,1.9352763317918371,50.79578171176165,104.11577895789736
7.7e-05,109.05719691309723,0.7093748568741509,46.99071389714314,109.05719691309723
7.8e-05,109.28181039416586,-0.5787373077291695,48.89558959853373,109.28181039416586
7.9e-05,104.96907277029207,-1.7224245832163505,53.64451413416625,104.96907277029207
7.999999999999999e-05,96.95664513096058,-2.5415567389528695,60.37502425091588,96.95664513096058
8.099999999999999e-05,86.60193299186545,-2.9980926199624083,61.07032891428513,86.60193299186545
8.2e-05,74.988033065925,-3.244454917818026,53.66364097719157,74.988033065925
8.3e-05,62.71727065862101,-3.3546138212220176,43.465418051989644,62.71727065862101
8.4e-05,50.30440623377328,-3.3536262986117973,35.00937052063526,50.30440623377328
8.499999999999999e-05,37.952662984264954,-3.291757535739218,33.76386988262433,37.952662984264954
8.599999999999999e-05,26.1062484197148,-3.0523950381190903,45.716724569997005,26.1062484197148
8.7e-05,15.905928889735938,-2.3749707042075783,54.98221708929762,15.905928889735938
8.8e-05,8.876030746013871,-1.407578641453046,54.64550002240262,8.876030746013871
8.9e-05,5.556026040946207,-0.3990443944065607,49.32478053417972,5.556026040946207
8.999999999999999e-05,5.747761117380498,0.4923457489989684,42.02719451388571,5.747761117380498
9.099999999999999e-05,8.916820206209216,1.1767581587028688,35.568380972485805,8.916820206209216
9.2e-05,14.033728604317107,1.4964655502273323,21.91334075638817,14.033728604317107
9.3e-05,19.638298909466243,1.5096786108737297,9.913946311767385,19.638298909466243
9.4e-05,24.772340411329324,1.2123437097181442,2.185983044393339,24.772340411329324
9.499999999999999e-05,28.30696541534291,0.6526736405651178,-2.9582045772638557,28.30696541534291
9.6e-05,29.48498850074086,-0.012453021523346708,-10.231186760279913,29.48498850074086
9.7e-05,28.049984020199535,-0.7636478883879848,-19.822551448360805,28.049984020199535
9.8e-05,23.668668999815985,-1.5936381894726253,-35.881627262431465,23.668668999815985
9.9e-05,15.999945722065481,-2.565489089789812,-52.699041846119215,15.999945722065481
9.999999999999999e-05,4.36864931821335,-3.6653542163484447,-67.29317522840016,4.36864931821335
0.000101,-11.194429439121347,-4.7437558993930535,-76.92176982221383,-11.194429439121347
0.000102,-34.45936276349244,-8.43690128959975,-87.48235018369277,-34.45936276349244
0.000103,-70.18039510727935,-9.67564320470282,-88.30421036080025,-70.18039510727935
0.000104,-100.03713834867818,-6.0847413169368325,-80.72306152877105,-100.03713834867818
0.00010499999999999999,-118.188175055075,-4.267893846800707,-82.85960100903814,-118.188175055075
0.000106,-131.93993236943368,-3.1357371488168257,-82.0890358303273,-131.93993236943368
0.000107,-141.230004640336,-1.8618702579146713,-76.42644757480402,-141.230004640336
0.000108,-145.51073724395647,-0.42607258067914144,-74.15196162212308,-145.51073724395647
0.00010899999999999999,-144.41812546995448,0.9957925758989155,-74.39277099723142,-144.41812546995448
0.00010999999999999999,-138.31077811030295,2.2710856805844384,-74.89553721209035,-138.31077811030295
0.000111,-127.902573229769,3.300109348635657,-76.20037291941924,-127.902573229769
0.000112,-114.32717010057252,3.9652733426674285,-80.4931394365348,-114.32717010057252
0.000113,-99.03390712615665,4.206086526254535,-90.43730396706232,-99.03390712615665
0.00011399999999999999,-83.80088832653323,3.9589549801031767,-89.9405499286533,-83.80088832653323
0.00011499999999999999,-69.98082362331174,3.4755996007342507,-81.29520501733943,-69.98082362331174
0.000116,-58.10511717192477,2.9275468518400225,-78.86287876203835,-58.10511717192477
0.000117,-48.48044193289874,2.2370244079633332,-84.304633543248,-48.48044193289874
0.000118,-41.80973146270441,1.3304477900435767,-86.54927532867208,-41.80973146270441
0.00011899999999999999,-38.72671112611171,0.33631802018548496,-88.94711798781962,-38.72671112611171
0.00011999999999999999,-39.34199301721768,-0.6655742468257535,-89.44675026382,-39.34199301721768
0.000121,-43.54024312984761,-1.5767352473249046,-88.66171623387814,-43.54024312984761
0.000122,-50.79209313645509,-2.2847435255344792,-81.69896998616038,-50.79209313645509
0.00012299999999999998,-60.00540345425171,-2.612550799499536,-71.13464764862097,-60.00540345425171
0.000124,-69.71478874515114,-2.607447889462636,-67.35665240213736,-69.71478874515114
0.000125,-78.90758207423961,-2.3270177169663833,-74.70818068340401,-78.90758207423961
0.000126,-86.96341326488236,-2.0249861050475877,-88.77957528869716,-86.96341326488236
0.000127,-94.1555057698848,-1.8918199401852407,-97.92591036917204,-94.1555057698848
0.000128,-101.00233230331405,-1.7912999851428044,-109.65944909735272,-101.00233230331405
0.000129,-107.61691243610495,-1.8143107611611147,-121.6867182512498,-107.61691243610495
0.00013,-114.54492020391785,-1.9142904271790573,-132.45254451987313,-114.54492020391785
0.00013099999999999999,-121.95868503218769,-2.1185079957915596,-141.9841592185747,-121.95868503218769
0.00013199999999999998,-130.21501017145445,-2.3295029435263728,-157.28285992114658,-130.21501017145445
0.000133,-139.46911708200153,-2.64497206745666,-166.25391257188485,-139.46911708200153
0.000134,-149.83230204065288,-2.9163565634965125,-166.24796420382037,-149.83230204065288
0.000135,-160.81781063196374,-2.967366035970518,-162.28730959711132,-160.81781063196374
0.000136,-171.36081331947923,-2.678429948198069,-157.73462307722215,-171.36081331947923
0.000137,-180.34966039783453,-2.1309747831386296,-150.53219802312756,-180.34966039783453
0.000138,-186.80835666954093,-1.315058494898301,-144.15898052283092,-186.80835666954093
0.000139,-189.91881830979378,-0.37006635981902847,-149.1140997541937,-189.91881830979378
0.00014,-189.74846649105393,0.45160311225794636,-141.67620944841556,-189.74846649105393
0.00014099999999999998,-186.4551967348656,1.325559315012896,-129.54902159308335,-186.4551967348656
0.00014199999999999998,-179.72821513103176,2.291150817521082,-121.91673960793771,-179.72821513103176
0.000143,-169.53623152369303,3.187476625244587,-116.26757206436903,-169.53623152369303
0.000144,-156.2746263743887,3.905843929235564,-107.67271780735477,-156.2746263743887
0.000145,-140.65093291301503,4.495248313492223,-102.393999774642,-140.65093291301503
0.000146,-123.26854714676571,4.8470259798540205,-105.19497974415313,-123.26854714676571
0.000147,-105.10470173426019,4.9056065432727705,-96.16923643112102,-105.10470173426019
0.000148,-87.43347783610523,4.579690239727469,-83.89352635795392,-87.43347783610523
0.000149,-71.32760979595618,4.143498553773639,-68.49028502488699,-71.32760979595618
0.00015,-56.445462785642434,3.889415230293643,-55.99250372683211,-56.445462785642434
0.00015099999999999998,-42.5973327017192,3.585623247135099,-37.23034783329525,-42.5973327017192
0.00015199999999999998,-29.56609629049414,3.4927246795425733,-17.93709753932945,-29.56609629049414
0.000153,-16.75060265814357,3.378871367053576,-1.0156346424474036,-16.75060265814357
0.000154,-4.385244609626302,3.3233007435468953,8.19200757979472,-4.385244609626302
0.000155,7.878683511168607,3.269067843575513,21.542660845634927,7.878683511168607
0.000156,19.976676415072575,3.2331662026614123,38.668266578167,19.976676415072575
0.000157,32.12172492469747,3.317215054727663,58.09255384647067,32.12172492469747
0.000158,44.86758621268445,3.534095091520538,68.71462779139411,44.86758621268445
0.000159,58.42488141720892,3.7532186870222684,75.21491605181677,58.42488141720892
0.00015999999999999999,72.31144489958882,3.763792654863053,89.61733415462541,72.31144489958882
0.00016099999999999998,86.29572878930983,3.74335130041962,95.28934555906778,86.29572878930983
0.00016199999999999998,99.85688647724747,3.553232612368103,97.20521349785825,99.85688647724747
0.000163,112.36011827047864,3.1617348493532456,103.29407650690811,112.36011827047864
0.000164,123.18849385972976,2.674972992768292,108.80281062438726,123.18849385972976
0.000165,132.13048889155368,2.158907402876138,113.65767259951825,132.13048889155368
0.000166,139.108967371377,1.5924663444459235,114.09523901437592,139.108967371377
0.000167,143.83850930947037,0.9536530418393963,111.77464662425325,143.83850930947037
0.000168,146.08796470744073,0.23679651102765642,103.40225842811533,146.08796470744073
0.000169,145.40966901788,-0.6058532352858129,102.8599033704031,145.40966901788
0.00016999999999999999,141.70232449076295,-1.3834618629202482,100.94327724410186,141.70232449076295
0.00017099999999999998,135.30435383587312,-2.041557790808107,94.50576789579227,135.30435383587312
0.00017199999999999998,126.66166821082724,-2.6149131310969214,90.13117403317432,126.66166821082724
0.000173,116.02646149176776,-3.1348285515157963,81.28609521678429,116.02646149176776
0.000174,103.62230757851832,-3.535646908120874,62.7078041002959,103.62230757851832
0.000175,89.63603950520545,-3.980326054657655,39.217627485554544,89.63603950520545
0.000176,73.91491337096738,-4.520750592982783,23.016285077124863,73.91491337096738
0.000177,53.41653407611618,-6.6717554554561485,10.366105211648058,53.41653407611618
0.000178,25.879157446845547,-7.7928479989040325,1.486102114075897,25.879157446845547
0.000179,-0.8199810552704698,-6.110635308897878,-0.8156475890929444,-0.8199810552704698
0.00017999999999999998,-19.912801353592116,-4.55079501469182,-8.725089301696947,-19.912801353592116
0.00018099999999999998,-35.55450582197791,-3.8956837679522485,-20.76135871944501,-35.55450582197791
0.00018199999999999998,-48.79285374171517,-3.2189679997582843,-32.33865293874908,-48.79285374171517
0.000183,-59.48023870491363,-2.5618121207721463,-40.32392945469219,-59.48023870491363
0.000184,-67.85516322649437,-1.9588078027057896,-46.02235216490855,-67.85516322649437
0.000185,-74.0029625116944,-1.3467748574906175,-51.16552359464231,-74.0029625116944
0.000186,-77.91583037986953,-0.767480869348369,-54.89256309507725,-77.91583037986953
0.000187,-79.77667843787145,-0.25990977185997954,-58.41555815231354,-79.77667843787145
0.000188,-79.92101257654768,0.17759721549217738,-65.4729210914074,-79.92101257654768
0.00018899999999999999,-78.74788198082241,0.4482904438379484,-74.67822607977288,-78.74788198082241
0.00018999999999999998,-76.9289663705211,0.5063874838031993,-80.94013782216898,-76.9289663705211
0.00019099999999999998,-75.2455588352798,0.38339987086316846,-90.60639272599757,-75.2455588352798
0.000192,-74.42139090871294,0.05128249040227413,-104.3970464614411,-74.42139090871294
0.000193,-75.33655495938486,-0.5450046721887621,-116.19692323885083,-75.33655495938486
0.000194,-78.72211337787711,-1.3026409269941128,-120.49598362672106,-78.72211337787711
0.000195,-84.88747090095504,-1.9994677585763432,-109.58153878308634,-84.88747090095504
0.000196,-93.02038808051564,-2.3080139523311547,-98.95005706606979,-93.02038808051564
0.000197,-101.4168454757313,-2.1971692002383456,-83.47077950272319,-101.4168454757313
0.000198,-108.639583480714,-1.5906275678257602,-66.64396914373228,-108.639583480714
0.00019899999999999999,-112.7535110315113,-0.6245603578947205,-57.56284993316023,-112.7535110315113
0.00019999999999999998,-113.02056662451099,0.4844533120101383,-48.68277057010879,-113.02056662451099
0.00020099999999999998,-109.03592533186958,1.6567754989614998,-51.1277494249687,-109.03592533186958
0.000202,-101.03410785645666,2.62248927021271,-67.99454540234265,-101.03410785645666
0.000203,-90.41791783355619,2.9911245999126863,-81.96831289971554,-90.41791783355619
0.000204,-79.48707408345153,2.8167202369470767,-99.38362747887915,-79.48707408345153
0.000205,-70.26147800223907,2.1400341465921606,-111.1697011531458,-70.26147800223907
0.000206,-64.14905146889816,1.1263890063297015,-118.51181275850969,-64.14905146889816
0.000207,-62.13259990528533,-0.025755925299076415,-111.28985235041762,-62.13259990528533
0.000208,-64.02370044254471,-0.9850168663196419,-96.06980257780756,-64.02370044254471
0.00020899999999999998,-68.85218708429028,-1.564851802715879,-85.19517386841184,-68.85218708429028
0.00020999999999999998,-75.11861683046966,-1.7569461214520425,-81.97334705846346,-75.11861683046966
0.00021099999999999998,-81.59836596357052,-1.7218986994544243,-86.64033543615288,-81.59836596357052
0.000212,-87.8427083508566,-1.6576378105097531,-93.0384385394172,-87.8427083508566
0.000213,-93.89316763420165,-1.5988828670150605,-98.75813339704202,-93.89316763420165
0.000214,-99.6890214744228,-1.5377666492264166,-103.32379150551765,-99.6890214744228
0.000215,-105.26221781997148,-1.4577266016839456,-103.38082400253724,-105.26221781997148
0.000216,-110.36217271788145,-1.263447419143932,-97.31015628837021,-110.36217271788145
0.000217,-114.37752901685818,-0.8963381762911646,-89.31472436894589,-114.37752901685818
0.00021799999999999999,-116.79460327928716,-0.3680662335900239,-87.85865857439946,-116.79460327928716
0.00021899999999999998,-117.04738081725178,0.2137525892807649,-92.3012767451035,-117.04738081725178
0.00021999999999999998,-115.38826977630895,0.6697590220182527,-88.90352758621317,-115.38826977630895
0.00022099999999999998,-112.08665342600892,1.1090277195240168,-87.8406128518519,-112.08665342600892
0.000222,-107.27246446888034,1.4663481457775331,-90.8662781972661,-107.27246446888034
0.000223,-101.46801366659916,1.6234628140833276,-98.11503733321499,-101.46801366659916
0.000224,-95.58853939194184,1.5371007444105782,-113.70322224124538,-95.58853939194184
0.000225,-90.68498903021542,1.0671384588594683,-129.03701116076917,-90.68498903021542
