time,V_C,I_L,V_IN,V_C
0.0,0.0,0.0,1.0208785539021858,0.0
1e-06,0.02713600907196976,0.5603974111165779,0.9694798253252026,0.02713600907196976
2e-06,0.1029466579797952,1.0140037731147884,0.8953453006525036,0.1029466579797952
3e-06,0.21683076362321202,1.3574561562316507,0.8311053289205746,0.21683076362321202
4e-06,0.35781917088045545,1.5780581994234648,0.8243478583308488,0.35781917088045545
4.9999999999999996e-06,0.5129490454569453,1.657954801591069,0.8409787242922461,0.5129490454569453
6e-06,0.6687935406470141,1.5893875027059956,0.8247536730639172,0.6687935406470141
7e-06,0.8120127942934086,1.4016651802939453,0.8228582171468062,0.8120127942934086
8e-06,0.934096727046212,1.157981999663509,0.8331864009929326,0.934096727046212
9e-06,1.031925197875534,0.8928667846033708,0.8052798011729048,1.031925197875534
9.999999999999999e-06,1.1029308075964501,0.5935912227605854,0.7484666196294608,1.1029308075964501
1.1e-05,1.142929430113769,0.24190523756188234,0.6388288469504668,1.142929430113769
1.2e-05,1.1477314489698895,-0.15248524505438388,0.5372216990493728,1.1477314489698895
1.3e-05,1.1143189862489937,-0.5463172147862966,0.43053155603708193,1.1143189862489937
1.4e-05,1.0431730142005375,-0.9416370428875439,0.2886323587535907,1.0431730142005375
1.4999999999999999e-05,0.933506859973751,-1.3609421168075126,0.13973537117473128,0.933506859973751
1.6e-05,0.7794143272658796,-1.9240366691942536,0.014317422956758705,0.7794143272658796
1.7e-05,0.5510616500494815,-2.8891344238727963,-0.10163290005857664,0.5510616500494815
1.8e-05,0.25219938043055024,-3.1682365383742552,-0.1857798757258108,0.25219938043055024
1.8999999999999998e-05,-0.02954498252532499,-2.6846955256631833,-0.2402997064804052,-0.02954498252532499
1.9999999999999998e-05,-0.254488438200276,-2.059421714432071,-0.30767136390444166,-0.254488438200276
2.1e-05,-0.4280012838118056,-1.6161767927297352,-0.35842475851027567,-0.4280012838118056
2.2e-05,-0.5665349059307846,-1.2931904321497367,-0.3305347084610798,-0.5665349059307846
2.3e-05,-0.673205074670757,-0.9417396419252393,-0.29184404026828253,-0.673205074670757
2.4e-05,-0.7453012442713057,-0.5707264337591892,-0.2827826091077764,-0.7453012442713057
2.4999999999999998e-05,-0.7821004522987577,-0.2044013576783251,-0.2883138322303015,-0.7821004522987577
2.6e-05,-0.7850779173582413,0.13583272176243474,-0.3225573230247749,-0.7850779173582413
2.7e-05,-0.7577498440122663,0.42666449369720755,-0.31896105507727524,-0.7577498440122663
2.8e-05,-0.7051331828633763,0.675489609125127,-0.2840038674976181,-0.7051331828633763
2.9e-05,-0.6304856489547095,0.8847461342923885,-0.20838403621715584,-0.6304856489547095
2.9999999999999997e-05,-0.5370315008615641,1.0770124331165079,-0.1048181107715302,-0.5370315008615641
3.1e-05,-0.4261615138795895,1.2334494882492109,0.008038877847338798,-0.4261615138795895
3.2e-05,-0.30117845539828225,1.385900050162738,0.13559013018985727,-0.30117845539828225
3.2999999999999996e-05,-0.1617739915476078,1.5409656542882049,0.24664889379758384,-0.1617739915476078
3.4e-05,-0.009527266602824172,1.6329058704101653,0.307456213311563,-0.009527266602824172
3.5e-05,0.14620668376874268,1.6168363126700003,0.3135618372751853,0.14620668376874268
3.6e-05,0.29420844129986223,1.4712155777359914,0.2732166576103782,0.29420844129986223
3.7e-05,0.4233483384278803,1.22535724543876,0.17056932804276992,0.4233483384278803
3.7999999999999995e-05,0.524243487103412,0.884165270457394,0.10954389968879139,0.524243487103412
3.9e-05,0.5911110574282606,0.5187900972913632,0.017650582993765023,0.5911110574282606
3.9999999999999996e-05,0.6213776543638768,0.11608994977091486,-0.08389183700452667,0.6213776543638768
4.1e-05,0.6122434974813412,-0.3100443774294277,-0.2250896342532839,0.6122434974813412
4.2e-05,0.5604003521614758,-0.7776946369102568,-0.412982035187517,0.5604003521614758
4.2999999999999995e-05,0.46162323765212093,-1.2940995993040445,-0.583350328976203,0.46162323765212093
4.4e-05,0.30849753768472626,-2.000911417418139,-0.729084141325447,0.30849753768472626
4.4999999999999996e-05,0.05290955250868132,-3.3499041687806788,-0.8445669003419463,0.05290955250868132
4.6e-05,-0.30314575544690986,-3.877474266933137,-0.9204942319570435,-0.30314575544690986
4.7e-05,-0.6509477978690696,-3.2700471600299696,-0.9865505738092638,-0.6509477978690696
4.8e-05,-0.916884549332177,-2.3217192391909154,-1.0201539208774162,-0.916884549332177
4.9e-05,-1.1055238525322788,-1.7253752475153181,-1.022200524494912,-1.1055238525322788
4.9999999999999996e-05,-1.249363327796036,-1.3070430550540484,-1.023666382965625,-1.249363327796036
5.1e-05,-1.355366723795398,-0.9195988548803103,-1.0225759668771537,-1.355366723795398
5.2e-05,-1.424487747399962,-0.5331022192779277,-0.9971173732670031,-1.424487747399962
5.3e-05,-1.4567573577755655,-0.14167495871301114,-0.9600939489642952,-1.4567573577755655
5.4e-05,-1.4515935218192184,0.24770535580586783,-0.9352943005754142,-1.4515935218192184
5.4999999999999995e-05,-1.4111851713003416,0.5913045668145668,-0.9796120261230372,-1.4111851713003416
5.6e-05,-1.341402375171985,0.8614685082048545,-1.019842576295304,-1.341402375171985
5.6999999999999996e-05,-1.2497693676125936,1.0457706503820885,-1.0323707989772004,-1.2497693676125936
5.8e-05,-1.1450006930954952,1.140670062203508,-1.0319468779407779,-1.1450006930954952
5.9e-05,-1.0352254592200458,1.1525941387305847,-0.996935154422997,-1.0352254592200458
5.9999999999999995e-05,-0.9275712031871436,1.1049966737214278,-0.8960542823714187,-0.9275712031871436
6.1e-05,-0.8232512302385081,1.0848664610276386,-0.7828956737986572,-0.8232512302385081
6.2e-05,-0.721554341724005,1.0488306629940094,-0.6686024019246916,-0.721554341724005
6.3e-05,-0.624372371995119,0.9953580191816876,-0.5978086187933991,-0.624372371995119
6.4e-05,-0.5321901831219197,0.9355412989999071,-0.5716077631251056,-0.5321901831219197
6.5e-05,-0.4469611679748152,0.8440674621016401,-0.5749113255051425,-0.4469611679748152
6.599999999999999e-05,-0.37260927906976,0.7090877502893019,-0.6081734773681852,-0.37260927906976
6.7e-05,-0.31388296141221195,0.5168892673793966,-0.6454977817715137,-0.31388296141221195
6.8e-05,-0.2749943829517297,0.2988993440960092,-0.7011207530906101,-0.2749943829517297
6.9e-05,-0.2577875295423321,0.056784761791647625,-0.7647037265395533,-0.2577875295423321
7e-05,-0.2650574051093085,-0.20404870151086243,-0.8700698709953272,-0.2650574051093085
7.099999999999999e-05,-0.2978258796889254,-0.4840986461527173,-1.0168321739653225,-0.2978258796889254
7.2e-05,-0.3590365832915447,-0.7975817057860365,-1.170256083652932,-0.3590365832915447
7.3e-05,-0.45076528023891976,-1.1289301016655606,-1.3293323347278836,-0.45076528023891976
7.4e-05,-0.5760077696363787,-1.505682113931037,-1.481147451332236,-0.5760077696363787
7.5e-05,-0.7442087934009265,-2.0743810648194643,-1.6190984934567063,-0.7442087934009265
7.599999999999999e-05,-0.9795965225611215,-2.8319918695737365,-1.7243740283697075,-0.9795965225611215
7.7e-05,-1.2602143786972455,-2.8946288845893666,-1.7533325106448014,-1.2602143786972455
7.8e-05,-1.5109257973604115,-2.3203301458961776,-1.7042267563419713,-1.5109257973604115
7.9e-05,-1.699367998820012,-1.6918803335380552,-1.6184737315703503,-1.699367998820012
7.999999999999999e-05,-1.8387751106769543,-1.2460949088020077,-1.527112065668133,-1.8387751106769543
8.099999999999999e-05,-1.9362758369117883,-0.7932382566659961,-1.4067040417018988,-1.9362758369117883
8.2e-05,-1.9880582395422575,-0.2843152463822744,-1.3491301705421763,-1.9880582395422575
8.3e-05,-1.9906958917419824,0.22082218713773702,-1.3627337257830061,-1.9906958917419824
8.4e-05,-1.947425576970785,0.6772386038910548,-1.3682583961134385,-1.947425576970785
8.499999999999999e-05,-1.8638062822764891,1.0672582844453136,-1.359606574448068,-1.8638062822764891
8.599999999999999e-05,-1.7464796521196992,1.3822018682600647,-1.3443437915064202,-1.7464796521196992
8.7e-05,-1.6018479897740738,1.6297750436089602,-1.333264342994641,-1.6018479897740738
8.8e-05,-1.4400440173924087,1.750820409843046,-1.373105034418142,-1.4400440173924087
8.9e-05,-1.2772749043040375,1.6296784287964448,-1.4317839675613724,-1.2772749043040375
8.999999999999999e-05,-1.1331824314582266,1.380804653162377,-1.428154395286698,-1.1331824314582266
9.099999999999999e-05,-1.0139194186797564,1.1359095961748686,-1.3766073766305231,-1.0139194186797564
9.2e-05,-0.9189209174754635,0.8561778555356533,-1.3209770788871231,-0.9189209174754635
9.3e-05,-0.8493691273675052,0.6087693223101949,-1.216859170759623,-0.8493691273675052
9.4e-05,-0.8015441695787971,0.40155721005431677,-1.144568039393375,-0.8015441695787971
9.499999999999999e-05,-0.772565810460059,0.21618674435559296,-1.0986049701243135,-0.772565810460059
9.6e-05,-0.7588168475503729,0.07709624411351805,-1.0559810979194115,-0.7588168475503729
9.7e-05,-0.7570153151010688,-0.037718479781923615,-1.0509976077027345,-0.7570153151010688
9.8e-05,-0.7656172185920718,-0.1409084821358248,-1.0631422596433346,-0.7656172185920718
9.9e-05,-0.7837097383353009,-0.23712628347918482,-1.075831371938703,-0.7837097383353009
9.999999999999999e-05,-0.8102826640373215,-0.3184208910595312,-1.08301724478759,-0.8102826640373215
0.000101,-0.8433772865827548,-0.3694493910834211,-1.0497260828690642,-0.8433772865827548
0.000102,-0.8792574020539399,-0.37492929607440245,-0.9968724281775133,-0.8792574020539399
0.000103,-0.9131396515442488,-0.3312533196120559,-0.9803882983663866,-0.9131396515442488
0.000104,-0.9418172550753968,-0.2685590681605654,-0.9862144487787317,-0.9418172550753968
0.00010499999999999999,-0.9641114532946383,-0.19916339273970954,-0.9820393164093014,-0.9641114532946383
0.000106,-0.9794630422139701,-0.12237928747644766,-0.9770049086737982,-0.9794630422139701
0.000107,-0.9874330363198921,-0.04559745890628828,-0.9858274628505758,-0.9874330363198921
0.000108,-0.9883016070778132,0.0267827528330162,-0.9698620878861284,-0.9883016070778132
0.00010899999999999999,-0.9822200820669841,0.1002366389178221,-0.9242323992231476,-0.9822200820669841
0.00010999999999999999,-0.968580032877065,0.18499327934282275,-0.8857109020920125,-0.968580032877065
0.000111,-0.9467114808234599,0.2762430830251256,-0.8394468266712224,-0.9467114808234599
0.000112,-0.9157617287089991,0.3684419990240979,-0.8524492539288208,-0.9157617287089991
0.000113,-0.8776833804201093,0.4246443736378853,-0.9140918341180819,-0.8776833804201093
0.00011399999999999999,-0.8369873295810658,0.42096975163887246,-0.959501471068755,-0.8369873295810658
0.00011499999999999999,-0.7992008290195921,0.3603370743108117,-1.0187742976941245,-0.7992008290195921
0.000116,-0.7697673784408884,0.25592777764059343,-1.09789662796642,-0.7697673784408884
0.000117,-0.7522492561966256,0.10848973244101585,-1.1740957705642123,-0.7522492561966256
0.000118,-0.7502778429892039,-0.0753472674143587,-1.2464448632815766,-0.7502778429892039
0.00011899999999999999,-0.7676632373303645,-0.28521787268535254,-1.3012049061120705,-0.7676632373303645
0.00011999999999999999,-0.8047803843929031,-0.4987850811045711,-1.3807078550619853,-0.8047803843929031
0.000121,-0.862713485134897,-0.7143837808032224,-1.4297368433328899,-0.862713485134897
0.000122,-0.9392038755443666,-0.8771470744312594,-1.3592674191677072,-0.9392038755443666
0.00012299999999999998,-1.0264642084843367,-0.9375344920060239,-1.277968060610195,-1.0264642084843367
0.000124,-1.1142964361685181,-0.8924157952903456,-1.2543012495822603,-1.1142964361685181
0.000125,-1.1947233235210968,-0.7888130615295594,-1.2144579555592765,-1.1947233235210968
0.000126,-1.2619525050730869,-0.6097371113405549,-1.1375999910173387,-1.2619525050730869
0.000127,-1.3094707927589815,-0.38577354109402395,-1.0154580855083173,-1.3094707927589815
0.000128,-1.3328324039118684,-0.10248079075957457,-0.8966372116144145,-1.3328324039118684
0.000129,-1.327414634314837,0.2269633560336469,-0.7990473331550361,-1.327414634314837
0.00013,-1.2885636422554478,0.5811484563113097,-0.6665501589377653,-1.2885636422554478
0.00013099999999999999,-1.215924967993933,0.9536075174305881,-0.5339640527033155,-1.215924967993933
0.00013199999999999998,-1.106862827447545,1.3276681162409285,-0.46576236274969807,-1.106862827447545
0.000133,-0.9629478379239416,1.7042610924391346,-0.3975724485596585,-0.9629478379239416
0.000134,-0.7804360912987759,2.118815013659302,-0.33069051245851855,-0.7804360912987759
0.000135,-0.5657209733135207,2.3079889978869814,-0.24279709392102325,-0.5657209733135207
0.000136,-0.3504635472593813,2.1692795630738892,-0.16557418523519735,-0.3504635472593813
0.000137,-0.15710499854345214,1.8849208167267644,-0.07728365368817788,-0.15710499854345214
0.000138,0.009221242620699854,1.6032662986021204,0.01255203806707427,0.009221242620699854
0.000139,0.15017178978594314,1.36155486158658,0.10573341826716001,0.15017178978594314
0.00014,0.2697702008782976,1.1572770012749811,0.1813842395346135,0.2697702008782976
0.00014099999999999998,0.37042541946023017,0.9525106377039977,0.22903437098148216,0.37042541946023017
0.00014199999999999998,0.451171048259735,0.7431097575425527,0.2702174188287949,0.451171048259735
0.000143,0.5117767862419603,0.5278607022417406,0.32534176025706707,0.5117767862419603
0.000144,0.5527881748100143,0.3423725238347113,0.3987704358068445,0.5527881748100143
0.000145,0.5778213151419642,0.18470509107191757,0.5127851005640613,0.5778213151419642
0.000146,0.5905455476957799,0.08695494567778284,0.6322391896862805,0.5905455476957799
0.000147,0.5970946238002874,0.05636487832827458,0.7649008312817817,0.5970946238002874
0.000148,0.6045830681608866,0.10354358599326989,0.938088489191655,0.6045830681608866
0.000149,0.6206896562937148,0.23549524067467698,1.0936387356473432,0.6206896562937148
0.00015,0.6523159976701834,0.43393770973711177,1.2234575073293108,0.6523159976701834
0.00015099999999999998,0.7046785879803255,0.6639742419655047,1.3040289684980868,0.7046785879803255
0.00015199999999999998,0.7784655585051976,0.8765294450527211,1.3685767544265688,0.7784655585051976
0.000153,0.870941260325725,1.0602442622509771,1.4636252320479899,0.870941260325725
0.000154,0.9803562830474546,1.2361616870207226,1.562303496990682,0.9803562830474546
0.000155,1.1050444203716425,1.3717726647185045,1.668164480682515,1.1050444203716425
0.000156,1.2408536904217984,1.4723964945828187,1.7054698570701714,1.2408536904217984
0.000157,1.382325767399037,1.4741134909806908,1.6710292996239502,1.382325767399037
0.000158,1.5178013235704573,1.3532891787047197,1.6155633349335647,1.5178013235704573
0.000159,1.6360074677290937,1.1128352345671126,1.536788913762193,1.6360074677290937
0.00015999999999999999,1.7274178760976864,0.8021116854186725,1.542538254392284,1.7274178760976864
0.00016099999999999998,1.7889249985671427,0.488853661331371,1.5822728926814746,1.7889249985671427
0.00016199999999999998,1.821523916801632,0.2011488696562768,1.5692127803256581,1.821523916801632
0.000163,1.8273055301454566,-0.07851014545340672,1.5249487250237679,1.8273055301454566
0.000164,1.805847581666638,-0.37308329924758804,1.4589323545955981,1.805847581666638
0.000165,1.7567485315295814,-0.6559067450736238,1.3999754250645595,1.7567485315295814
0.000166,1.6817136558702415,-0.9120881431359947,1.3480306755590221,1.6817136558702415
0.000167,1.584578033020708,-1.1187289471590722,1.3343538116934155,1.584578033020708
0.000168,1.4711532629908415,-1.2472074758427008,1.362453683400079,1.4711532629908415
0.000169,1.350493066876312,-1.2693993791895946,1.3674386374135314,1.350493066876312
0.00016999999999999999,1.2323164394789001,-1.1998228472147359,1.325193786818478,1.2323164394789001
0.00017099999999999998,1.1228734598924683,-1.0913739991207065,1.2861796930037266,1.1228734598924683
0.00017199999999999998,1.02546759045229,-0.9510400968356684,1.251094343956616,1.02546759045229
0.000173,0.942850173011021,-0.7811870228523038,1.2445989946979814,0.942850173011021
0.000174,0.877334343556799,-0.5917796434557727,1.2386563695284436,0.877334343556799
0.000175,0.8306104764833854,-0.3867705196316302,1.250344561354955,0.8306104764833854
0.000176,0.8038576896636218,-0.17347961908412882,1.2638213664133096,0.8038576896636218
0.000177,0.79731800643612,0.03393979541882978,1.2562557013963764,0.79731800643612
0.000178,0.8098236070131977,0.2232687727123975,1.2290243560649698,0.8098236070131977
0.000179,0.8384130058789018,0.3708760640738331,1.2356338355238636,0.8384130058789018
0.00017999999999999998,0.8805102899271537,0.5087123466777136,1.321785680321181,0.8805102899271537
0.00018099999999999998,0.9350789350380784,0.636770345956234,1.4245754681924483,0.9350789350380784
0.00018199999999999998,1.0008256031483607,0.746594160085526,1.5038104387083586,1.0008256031483607
0.000183,1.0779428651065253,0.8722695892082081,1.5773032384078427,1.0779428651065253
0.000184,1.1667932822962737,0.9911813821904953,1.6214810635805859,1.1667932822962737
0.000185,1.2648582001830575,1.0546433100636092,1.606050402435881,1.2648582001830575
0.000186,1.3650012355095793,1.0365411178900215,1.5918501504394702,1.3650012355095793
0.000187,1.459884904266149,0.9452177571010925,1.6142686680304634,1.459884904266149
0.000188,1.544149767970021,0.8179157618064304,1.610335343342128,1.544149767970021
0.00018899999999999999,1.6139075875593085,0.6413972017034765,1.5587558736155318,1.6139075875593085
0.00018999999999999998,1.6649895102196342,0.4255393647395409,1.5245122125838124,1.6649895102196342
0.00019099999999999998,1.6944171363977902,0.19272541574381138,1.551760185359543,1.6944171363977902
0.000192,1.702516559359936,-0.01939886919728719,1.6117571378937914,1.702516559359936
0.000193,1.6925158804786535,-0.1842620956517987,1.704448549812025,1.6925158804786535
0.000194,1.67016556165843,-0.2772705605026428,1.858440671950818,1.67016556165843
0.000195,1.6437296438436362,-0.26820735319277983,2.041868219506413,1.6437296438436362
0.000196,1.6232823667396514,-0.1499303396258573,2.2064059269927063,1.6232823667396514
0.000197,1.6184273097946282,0.056605985462819634,2.3210391983992658,1.6184273097946282
0.000198,1.6359681144064173,0.313776229317089,2.395789722102483,1.6359681144064173
0.00019899999999999999,1.6787636910849186,0.579953031210623,2.4400890670241298,1.6787636910849186
0.00019999999999999998,1.7457651775904646,0.8218036041055136,2.472894105814613,1.7457651775904646
0.00020099999999999998,1.833870926740278,1.017010714485992,2.468686941728239,1.833870926740278
0.000202,1.9369396193356032,1.1357819465892975,2.486143772900207,1.9369396193356032
0.000203,2.0479300792054533,1.1827160268611643,2.4907732357117296,2.0479300792054533
0.000204,2.1595775270267543,1.1453359013653033,2.467245049929913,2.1595775270267543
0.000205,2.264054910876572,1.0365237024375993,2.4311457574079474,2.264054910876572
0.000206,2.353631789541324,0.8329034922882016,2.313436122334482,2.353631789541324
0.000207,2.4198524196860176,0.5480840440556124,2.1488624217694525,2.4198524196860176
0.000208,2.4551184316832257,0.16883119033710647,1.9744924019577514,2.4551184316832257
0.00020899999999999998,2.4500664784496697,-0.27107633226657235,1.8307169474722003,2.4500664784496697
0.00020999999999999998,2.4014055145267963,-0.7520253702455667,1.6989546609303638,2.4014055145267963
0.00021099999999999998,2.3052643613335677,-1.2627119035616878,1.6132025193024315,2.3052643613335677
0.000212,2.157813045255846,-1.8894858424767478,1.529293952691655,2.157813045255846
0.000213,1.9319012894162155,-2.8522628204472285,1.453950602921081,1.9319012894162155
0.000214,1.6373811052650025,-3.1340157078552546,1.3702594390264902,1.6373811052650025
0.000215,1.356723607799493,-2.688474082678828,1.3183084787546284,1.356723607799493
0.000216,1.1304760564383969,-2.072260076460768,1.268765492630616,1.1304760564383969
0.000217,0.9567700471618874,-1.611030333019303,1.2270691823922042,0.9567700471618874
0.00021799999999999999,0.8196956404613205,-1.276914552971066,1.1611901299025895,0.8196956404613205
0.00021899999999999998,0.7090692638388969,-1.0620758427793644,1.05692187884098,0.7090692638388969
0.00021999999999999998,0.6188682030623215,-0.8131185694247921,0.9556618715525331,0.6188682030623215
0.00022099999999999998,0.5534226266944069,-0.5696246530094725,0.8885274058742285,0.5534226266944069
