time,V_C,I_L,V_IN,V_C
0.0,0.0,0.0,1.86598971974891,0.0
1e-06,0.03589850326380659,0.033430377244466424,0.11864928682867536,0.03589850326380659
2e-06,0.10036428512428332,0.0310783347820573,1.2574754784657571,0.10036428512428332
3e-06,0.18070167682652225,0.05064019087504846,6.6643644698850615,0.18070167682652225
4e-06,0.40209063515225685,0.16911828784875305,12.223161856124847,0.40209063515225685
4.9999999999999996e-06,0.9455037278119779,0.37305649298409294,14.317456778837093,0.9455037278119779
6e-06,1.884532014521367,0.5724621773167273,19.52647849168423,1.884532014521367
7e-06,3.287764566045227,0.8321700934384434,21.618354395866344,3.287764566045227
8e-06,5.222333912157288,1.1017443847990858,22.81383833710423,5.222333912157288
9e-06,7.64176976073508,1.28898680114864,18.279783425872218,7.64176976073508
9.999999999999999e-06,10.301102748061318,1.3550766216932137,6.761670783894911,10.301102748061318
1.1e-05,12.85078661367112,1.1556309648928758,-1.9321651214244722,12.85078661367112
1.2e-05,14.749470087649405,0.7148293945822158,-6.664493332986621,14.749470087649405
1.3e-05,15.69724642047567,0.23852880748090854,-9.558641042546185,15.69724642047567
1.4e-05,15.684507449233514,-0.2551785561951144,-11.006543211157267,15.684507449233514
1.4999999999999999e-05,14.679503190312936,-0.7489036632174177,-15.071456581096804,14.679503190312936
1.6e-05,12.66221434885982,-1.2733929711118042,-21.49126543102496,12.66221434885982
1.7e-05,9.585811178321814,-1.7954273373053522,-24.683790398276546,9.585811178321814
1.8e-05,5.530685986213834,-2.2208393235558965,-17.438100520544285,5.530685986213834
1.8999999999999998e-05,0.8623084087137016,-2.428521052980345,-7.184091166019139,0.8623084087137016
1.9999999999999998e-05,-3.9840683951753415,-2.3667815755245325,-0.5398885056170999,-3.9840683951753415
2.1e-05,-8.420029884116474,-2.021692538089064,5.465216547326364,-8.420029884116474
2.2e-05,-11.98168702076009,-1.5286769885766889,7.544798632124682,-11.98168702076009
2.3e-05,-14.508564087039469,-0.9953009135033639,7.4085253916368,-14.508564087039469
2.4e-05,-15.973782607989467,-0.4713426519596346,9.709567996992446,-15.973782607989467
2.4999999999999998e-05,-16.371901501366978,0.06611647313756709,7.756103181903291,-16.371901501366978
2.6e-05,-15.77618620117982,0.5199718649046954,-2.468174766835272,-15.77618620117982
2.7e-05,-14.51417587331814,0.687316159589616,-14.967888368161619,-14.51417587331814
2.8e-05,-13.221702497969583,0.6028574468438778,-23.746747014044082,-13.221702497969583
2.9e-05,-12.249296322715548,0.33559914845611605,-27.260612984901407,-12.249296322715548
2.9999999999999997e-05,-11.904483268670592,0.013179016194879739,-24.48093691570021,-11.904483268670592
3.1e-05,-12.143290388116853,-0.2380877129842263,-22.874917652950906,-12.143290388116853
3.2e-05,-12.804756743833652,-0.3979927441885944,-18.25949475094693,-12.804756743833652
3.2999999999999996e-05,-13.669402338190771,-0.46343461367360966,-12.196705492607023,-13.669402338190771
3.4e-05,-14.568346025922747,-0.4121492930183481,-6.863399127807777,-14.568346025922747
3.5e-05,-15.227006803510593,-0.20556705891244562,1.0334099570619009,-15.227006803510593
3.6e-05,-15.305226202393369,0.12583344593119944,8.469221848481395,-15.305226202393369
3.7e-05,-14.629618165480547,0.5523509973809422,11.554432491843846,-14.629618165480547
3.7999999999999995e-05,-13.084298951904525,1.0010704927794385,15.722570215344453,-13.084298951904525
3.9e-05,-10.620529831911927,1.4410188096044378,14.193733230277497,-10.620529831911927
3.9999999999999996e-05,-7.402711215644645,1.7553284457824399,11.822887681847572,-7.402711215644645
4.1e-05,-3.6956488559542784,1.93181604482231,10.405629801945041,-3.6956488559542784
4.2e-05,0.24821507773125084,1.9947884551500135,10.101280489571309,0.24821507773125084
4.2999999999999995e-05,4.228248395928723,1.972777813062727,6.926866626512125,4.228248395928723
4.4e-05,8.06496740998534,1.8380221100567193,3.498352139764239,8.06496740998534
4.4999999999999996e-05,11.480874833530486,1.5623124283567544,1.513809572630692,11.480874833530486
4.6e-05,14.256458853002085,1.206459135478548,3.242045575577019,14.256458853002085
4.7e-05,16.32979904565147,0.867772768228397,2.0573071360192454,16.32979904565147
4.8e-05,17.699733449454964,0.50093165413348,0.4047425620603147,17.699733449454964
4.9e-05,18.319950599732657,0.11508150641605927,-3.3036191193376445,18.319950599732657
4.9999999999999996e-05,18.135424128555822,-0.31302468037259523,-8.490759245310404,18.135424128555822
5.1e-05,17.03555959432033,-0.7815692593708972,-1.9393901327313439,17.03555959432033
5.2e-05,15.149329580457247,-1.064884296283183,3.3027166104382846,15.149329580457247
5.3e-05,12.887101218144323,-1.1827481473908021,2.175523173660296,12.887101218144323
5.4e-05,10.438718657802713,-1.258766062001766,4.611795225206954,10.438718657802713
5.4999999999999995e-05,7.898348883252034,-1.272110182489832,3.470823490799233,7.898348883252034
5.6e-05,5.394003467160568,-1.221521743765702,4.1057697718876005,5.394003467160568
5.6999999999999996e-05,3.041398043888907,-1.118350447466095,7.710583174098276,3.041398043888907
5.8e-05,0.9874687956844186,-0.9226545611198853,7.646034181378947,0.9874687956844186
5.9e-05,-0.6342140630082456,-0.7007285042126393,4.327848063862399,-0.6342140630082456
5.9999999999999995e-05,-1.8623062846913103,-0.5272889132332593,-0.9756187452954547,-1.8623062846913103
6.1e-05,-2.8098131062784693,-0.4446728953268336,-7.631226958088224,-2.8098131062784693
6.2e-05,-3.7486914269117966,-0.4912427340023249,-20.54368426348385,-3.7486914269117966
6.3e-05,-4.9896005959219965,-0.7972052022602826,-36.0780631831894,-4.9896005959219965
6.4e-05,-7.111461927448577,-1.3086008449518196,-46.68905777822176,-7.111461927448577
6.5e-05,-10.3059443016631,-1.9032613584422,-47.972699364447216,-10.3059443016631
6.599999999999999e-05,-14.655297446494597,-2.415558594334759,-41.964267541957206,-14.655297446494597
6.7e-05,-19.745786687544545,-2.6006507856040537,-27.91518493949879,-19.745786687544545
6.8e-05,-24.82510121072283,-2.4242651382974287,-13.272060171907793,-24.82510121072283
6.9e-05,-29.175982934299668,-1.8782275267422688,-4.244051634277065,-29.175982934299668
7e-05,-32.25634235388376,-1.1935902541197696,-1.1311716656508575,-32.25634235388376
7.099999999999999e-05,-33.94217697271355,-0.5117088608479563,-8.730613220148687,-33.94217697271355
7.2e-05,-34.42441365775248,-0.001755245871670863,-21.0723162603937,-34.42441365775248
7.3e-05,-34.180165333093555,0.18797098650374278,-34.1638055912151,-34.180165333093555
7.4e-05,-33.82177039171633,0.14637941845504543,-41.60417974579546,-33.82177039171633
7.5e-05,-33.700668578902516,-0.023605511718468267,-43.417413384211855,-33.700668578902516
7.599999999999999e-05,-33.934600442320594,-0.20931889974504783,-45.999676709932686,-33.934600442320594
7.7e-05,-34.56548652578027,-0.4168005712334519,-51.45258398546368,-34.56548652578027
7.8e-05,-35.67486696039698,-0.7091154632858917,-61.23299024778728,-35.67486696039698
7.9e-05,-37.52197901189969,-1.1467388095203344,-68.29961774618323,-37.52197901189969
7.999999999999999e-05,-40.29912851076118,-1.617187603310584,-70.07787208413603,-40.29912851076118
8.099999999999999e-05,-43.9445441778612,-2.0050401075808226,-68.3007616527315,-43.9445441778612
8.2e-05,-48.206571806870585,-2.230975359683588,-65.87437521363873,-48.206571806870585
8.3e-05,-52.79086257076523,-2.3320403309329345,-53.42877405395211,-52.79086257076523
8.4e-05,-57.2772535832156,-2.129364054981542,-36.40635637535616,-57.2772535832156
8.499999999999999e-05,-61.053175809694686,-1.566642768956405,-23.32628548757683,-61.053175809694686
8.599999999999999e-05,-63.29500636221274,-0.6706321348562254,-16.202620421523434,-63.29500636221274
8.7e-05,-63.6530456738087,0.30284699190993164,-12.46260151279701,-63.6530456738087
8.8e-05,-62.0879889930147,1.2524232245186053,-9.199183603825732,-62.0879889930147
8.9e-05,-58.68201414266421,2.141642094796507,-6.036784311761661,-58.68201414266421
8.999999999999999e-05,-53.59622008830005,2.9182635976155487,-0.7365655379448812,-53.59622008830005
9.099999999999999e-05,-47.04657493070341,3.6233206957750843,8.317564560102367,-47.04657493070341
9.2e-05,-39.08778053491896,4.300834822572296,22.33567412473126,-39.08778053491896
9.3e-05,-29.761895077625873,5.031816493241148,37.69101684041892,-29.761895077625873
9.4e-05,-18.910244334305617,5.730007923290219,48.63327392390615,-18.910244334305617
9.499999999999999e-05,-6.763843235446199,6.355370620082997,56.180511085593174,-6.763843235446199
9.6e-05,6.502304530802229,6.862378510759791,58.11073962330301,6.502304530802229
9.7e-05,20.5327264640271,7.117926752182891,57.31780302924102,20.5327264640271
9.8e-05,34.77640919313891,7.090699303630803,62.270362406296144,34.77640919313891
9.9e-05,48.792703864512134,6.896554069339418,66.35768756123514,48.792703864512134
9.999999999999999e-05,62.23124722484316,6.509111152625227,75.10585467760211,62.23124722484316
0.000101,74.78509299164546,6.048128785348672,80.0778237845805,74.78509299164546
0.000102,86.3170933344336,5.453651482773504,83.50688690772012,86.3170933344336
0.000103,96.61059669931274,4.836429448920207,88.6548605992807,96.61059669931274
0.000104,105.66073522400261,4.205635493133547,91.6079796666922,105.66073522400261
0.00010499999999999999,113.3809532130358,3.5020975055304824,92.73653712585254,113.3809532130358
0.000106,119.64659902939668,2.7476585452040534,89.95193860728064,119.64659902939668
0.000107,124.24401923823943,1.8342000277952106,83.23323103406545,124.24401923823943
0.000108,126.93700494880838,0.8469548330757062,74.44113863212073,126.93700494880838
0.00010899999999999999,127.61620594604483,-0.19121004932719554,65.2988103765202,127.61620594604483
0.00010999999999999999,126.13050720277613,-1.2875342132504186,63.25572202890331,126.13050720277613
0.000111,122.47535293289936,-2.3448228275175307,63.04441376809897,122.47535293289936
0.000112,116.8870462115344,-3.1998972013819675,65.30106922511159,116.8870462115344
0.000113,109.75113453543761,-3.9193334510450004,55.53275715807992,109.75113453543761
0.00011399999999999999,101.2543496790453,-4.559215063931561,45.34298804461911,101.2543496790453
0.00011499999999999999,91.53712907310927,-5.1453751608864415,39.05111658933776,91.53712907310927
0.000116,80.75385894028392,-5.62320500060368,34.17486219067366,80.75385894028392
0.000117,69.16264012708514,-5.923555562645575,34.94491810472289,69.16264012708514
0.000118,57.26576657267405,-5.926584114226316,38.03822226806008,57.26576657267405
0.00011899999999999999,45.63335115365663,-5.667483616746829,39.19707998510601,45.63335115365663
0.00011999999999999999,34.75417191535351,-5.167892524686944,43.823919047819956,34.75417191535351
0.000121,25.1211633527236,-4.412015545473077,58.56942798865966,25.1211633527236
0.000122,17.434473876475703,-3.210321759399637,71.58734215727198,17.434473876475703
0.00012299999999999998,12.398248814456458,-1.807656423655685,79.91991054380381,12.398248814456458
0.000124,10.27964667168121,-0.3097354896728448,82.31372247813977,10.27964667168121
0.000125,11.089629171929037,1.0931901319595156,80.52992851602339,11.089629171929037
0.000126,14.492141101222732,2.259032960468871,71.6405566601092,14.492141101222732
0.000127,19.900897801561783,3.1028748386500253,64.27775830398807,19.900897801561783
0.000128,26.68353035224388,3.638698020828886,68.87476521231756,26.68353035224388
0.000129,34.397307698837785,4.059846350308615,77.97761732003727,34.397307698837785
0.00013,42.919001549888236,4.471475332153065,87.4054970473791,42.919001549888236
0.00013099999999999999,52.26138407385205,4.847478313745867,99.26230441281511,52.26138407385205
0.00013199999999999998,62.35293680098466,5.2733065654935825,114.77901720021899,62.35293680098466
0.000133,73.38028515203978,5.739879068346514,129.48077693440544,73.38028515203978
0.000134,85.41667554104414,6.322900361498925,147.07914844997333,85.41667554104414
0.000135,98.63242305587781,6.870641844424134,162.41646580498949,98.63242305587781
0.000136,112.87256046042712,7.366197208288611,172.76409072703393,112.87256046042712
0.000137,128.06940810979214,7.798247791330036,180.3199744405286,128.06940810979214
0.000138,143.90736144358755,7.977432879404434,172.01718128519727,143.90736144358755
0.000139,159.613816907309,7.63486877454419,157.33538753275204,159.613816907309
0.00014,174.10278221885446,6.7968292167530455,142.452999934507,174.10278221885446
0.00014099999999999998,186.4884393468157,5.482502629217765,124.51060903063443,186.4884393468157
0.00014199999999999998,195.73117491746262,3.7261187607074144,106.37623204418378,195.73117491746262
0.000143,201.10071052081818,1.5673286975960825,87.24504603121778,201.10071052081818
0.000144,201.87172423035858,-0.790747120561492,71.25577634342991,201.87172423035858
0.000145,197.91390830873004,-3.1626623569545607,69.72113512365024,197.91390830873004
0.000146,189.44628092449906,-5.251535890522677,72.06379452236399,189.44628092449906
0.000147,177.177318729627,-6.920639038862017,73.75464404169313,177.177318729627
0.000148,162.00187879386763,-8.181564470137689,78.2859497532818,162.00187879386763
0.000149,144.80556743705125,-8.933282730885875,80.75266461927356,144.80556743705125
0.00015,126.60221863255003,-9.175727044925523,84.33206220094372,126.60221863255003
0.00015099999999999998,108.3670275549267,-8.98834231597473,88.9007473425721,108.3670275549267
0.00015199999999999998,90.95715788142591,-8.369959578208476,95.41517521822118,90.95715788142591
0.000153,75.13291561166375,-7.394513649867996,93.99602934886403,75.13291561166375
0.000154,61.4656498086809,-6.237337203075591,92.5800010454489,61.4656498086809
0.000155,50.22244566439139,-4.978282899979218,89.11955691195742,50.22244566439139
0.000156,41.474599509372894,-3.7810219465673263,80.83304673839898,41.474599509372894
0.000157,35.05513203146721,-2.696487311438606,75.29192442232788,35.05513203146721
0.000158,30.665895219558603,-1.7167211418756185,68.65489238417555,30.665895219558603
0.000159,28.137097390035823,-0.8273861976090686,68.809335244397,28.137097390035823
0.00015999999999999999,27.349612700007246,0.04185165019802106,71.68791988306828,27.349612700007246
0.00016099999999999998,28.28383259488362,0.8917378924224119,75.40256816870328,28.28383259488362
0.00016199999999999998,30.886683572649595,1.7020070368739817,78.13507905938488,30.886683572649595
0.000163,35.04420323534421,2.43490633068482,79.80033771474521,35.04420323534421
0.000164,40.53955994844294,3.0274432474612856,71.98257500492127,40.53955994844294
0.000165,46.90843154450683,3.274965095749182,62.40198990520055,46.90843154450683
0.000166,53.43287424574091,3.20953497361768,51.781632035866934,53.43287424574091
0.000167,59.49369871930695,2.79627485128697,43.49634915213167,59.49369871930695
0.000168,64.49707145446635,2.190826821641329,37.32255879864031,64.49707145446635
0.000169,68.16981957813391,1.4561193187723847,33.60750189610561,68.16981957813391
0.00016999999999999999,70.24035819705566,0.6096950094962932,29.297676522094047,70.24035819705566
0.00017099999999999998,70.60392731841793,-0.22610462923722716,35.151556238383876,70.60392731841793
0.00017199999999999998,69.48875542369807,-0.8780263108060866,49.71483427840898,69.48875542369807
0.000173,67.39399113806404,-1.171732409359474,60.04077188873191,67.39399113806404
0.000174,65.02100654415489,-1.179268232495191,65.83654526585008,65.02100654415489
0.000175,62.79324919875377,-1.0388642948772977,70.88544404457417,62.79324919875377
0.000176,60.959953699221956,-0.78614730246936,80.43482858338186,60.959953699221956
0.000177,59.804077018952384,-0.3479937560570963,92.95339841523221,59.804077018952384
0.000178,59.76690754867393,0.31605312023507964,95.40315838921953,59.76690754867393
0.000179,61.05611864349656,0.9465387124452214,89.67285386055302,61.05611864349656
0.00017999999999999998,63.41448479616266,1.3916847655042455,76.94740645353598,63.41448479616266
0.00018099999999999998,66.37105174824994,1.5340144802157873,58.36550808867138,66.37105174824994
0.00018199999999999998,69.22624826572246,1.2550607001681042,36.168474753665805,69.22624826572246
0.000183,70.97942364055184,0.44211513152262505,18.204164867425263,70.97942364055184
0.000184,70.79288011311681,-0.6082866898183181,2.2560959151805324,70.79288011311681
0.000185,68.34530339690046,-1.830399872463521,-2.7519770032793893,68.34530339690046
0.000186,63.539041579664314,-2.9619204634819156,-2.097395411343564,63.539041579664314
0.000187,56.588675839133145,-3.9585003685005167,-6.249642738276087,56.588675839133145
0.000188,47.847064952511154,-4.75121556530129,-15.079677090182006,47.847064952511154
0.00018899999999999999,37.6346954330741,-5.4483995376086005,-22.887954817092623,37.6346954330741
0.00018999999999999998,26.151577430374154,-5.99844669895169,-23.448400257555004,26.151577430374154
0.00019099999999999998,13.806044994919688,-6.308157653793057,-27.202639785206223,13.806044994919688
0.000192,1.017876547043965,-6.451050414999325,-36.34921995561191,1.017876547043965
0.000193,-11.998731039473217,-6.54651875726782,-43.083087711501,-11.998731039473217
0.000194,-25.044271361146986,-6.473360850314382,-45.94385282288488,-25.044271361146986
0.000195,-37.74316417380298,-6.188746703846276,-47.32699427713651,-37.74316417380298
0.000196,-49.59941862978654,-5.629119785451233,-40.58629936783217,-49.59941862978654
0.000197,-60.120931371348384,-4.852486774831547,-31.680543177214094,-60.120931371348384
0.000198,-68.84487666855938,-3.8213566291359404,-23.424991535540602,-68.84487666855938
0.00019899999999999999,-75.24070472206964,-2.555440271636962,-20.231936665364124,-75.24070472206964
0.00019999999999999998,-79.02407981537543,-1.2339183036782417,-18.63803052829775,-79.02407981537543
0.00020099999999999998,-80.19307026547673,0.056985224285205804,-20.35784676086106,-80.19307026547673
0.000202,-78.90498357256097,1.2003160715793972,-30.482816007683773,-78.90498357256097
0.000203,-75.64002990724862,2.013417388843011,-39.88724490091501,-75.64002990724862
0.000204,-71.11046320823408,2.4359555149857623,-52.838075836128404,-71.11046320823408
0.000205,-66.129567048285,2.5013270949055357,-64.16427210474794,-66.129567048285
0.000206,-61.33249681182694,2.2415774097139605,-74.42794209666542,-61.33249681182694
0.000207,-57.30583792892386,1.7788617886666427,-72.2448635456406,-57.30583792892386
0.000208,-54.21389828592175,1.3306110996512444,-64.51265471400605,-54.21389828592175
0.00020899999999999998,-51.89326298819259,0.9873489691315551,-52.378391843543206,-51.89326298819259
0.00020999999999999998,-50.11617043586117,0.8298727232239804,-39.28157933707567,-50.11617043586117
0.00021099999999999998,-48.36203215754981,0.9544530357398224,-36.38939766087993,-48.36203215754981
0.000212,-46.315102028500604,1.0742341572455698,-44.735459482674024,-46.315102028500604
0.000213,-44.22886766052918,0.9993517183149297,-52.03410867683807,-44.22886766052918
0.000214,-42.44710511591454,0.762615351158058,-52.25298042844011,-42.44710511591454
0.000215,-41.18746624635379,0.5003842829330369,-48.89947442461063,-41.18746624635379
0.000216,-40.38629841762055,0.3019367616316233,-40.782179051483105,-40.38629841762055
0.000217,-39.85094015153703,0.2872290136696408,-31.00769525369913,-39.85094015153703
0.00021799999999999999,-39.134788355304664,0.4250021227557558,-28.398206210332823,-39.134788355304664
0.00021899999999999998,-38.141283160375856,0.5725139691363215,-23.786024112596348,-38.141283160375856
0.00021999999999999998,-36.81207219850276,0.7880516499236292,-11.978742106948388,-36.81207219850276
0.00022099999999999998,-34.85588057746469,1.1776264278636785,-6.201128269098417,-34.85588057746469
0.000222,-32.083481451535064,1.579441669100208,-11.379037564476317,-32.083481451535064
0.000223,-28.67466360313071,1.7982966952882016,-18.218249325380395,-28.67466360313071
0.000224,-25.047080347063385,1.7892064368554466,-24.27689941416424,-25.047080347063385
0.000225,-21.62754308948882,1.616407624597131,-27.629796773901354,-21.62754308948882
0.000226,-18.661095416177453,1.3256827205589419,-32.54781160906191,-18.661095416177453
0.000227,-16.402033711426775,0.9248480477599735,-38.214286423064955,-16.402033711426775
