time,V_C,I_L,V_IN,V_C
0.0,0.0,0.0,-42.38507366646216,0.0
1e-06,-1.5258046821656723,-0.7941340622882523,-36.6053953457997,-1.5258046821656723
2e-06,-5.620663945314752,-1.397036859778575,-29.66727619230521,-5.620663945314752
3e-06,-11.560945509171914,-1.7610767039216688,-26.553234448285266,-11.560945509171914
4e-06,-18.38629360535792,-1.8954624253747272,-28.429646431900366,-18.38629360535792
4.9999999999999996e-06,-25.483258857140385,-1.9262564933083088,-32.70772109679021,-25.483258857140385
6e-06,-32.582173762508106,-1.8907317038570142,-33.07421617713496,-32.582173762508106
7e-06,-39.314742753617786,-1.7148657438920896,-29.62134199284626,-39.314742753617786
8e-06,-45.06933386130057,-1.3649114519420338,-28.526823423885016,-45.06933386130057
9e-06,-49.31455566459837,-0.9262919727082617,-29.4549262971399,-49.31455566459837
9.999999999999999e-06,-51.88564736710422,-0.4615810447118168,-31.023801484257298,-51.88564736710422
1.1e-05,-52.76621511180702,-0.01597041234347113,-35.24869791870209,-52.76621511180702
1.2e-05,-52.15242400558034,0.3325989720057322,-39.532657837962816,-52.15242400558034
1.3e-05,-50.48997067212144,0.5502111601213742,-40.77187615020312,-50.48997067212144
1.4e-05,-48.19150605628942,0.669684108637342,-44.0027011987274,-48.19150605628942
1.4999999999999999e-05,-45.668060362446305,0.6828099626772646,-44.67605033853918,-45.668060362446305
1.6e-05,-43.20699374106345,0.6454719523865255,-41.52184242614056,-43.20699374106345
1.7e-05,-40.85901656260123,0.6167471040484598,-40.08092771423131,-40.85901656260123
1.8e-05,-38.64749655783896,0.5857218493073351,-35.77011143806189,-38.64749655783896
1.8999999999999998e-05,-36.45495968997196,0.5951085233474589,-31.54648450939178,-36.45495968997196
1.9999999999999998e-05,-34.16163727873416,0.6377712089164665,-28.769176498547726,-34.16163727873416
2.1e-05,-31.702662820943818,0.6835678557637863,-23.82613698924515,-31.702662820943818
2.2e-05,-28.98816272038075,0.8005566804187563,-18.981613461395145,-28.98816272038075
2.3e-05,-25.76331308423745,0.9395191237410666,-16.124178591598557,-25.76331308423745
2.4e-05,-22.07451210042957,1.042226148457546,-16.359006227522865,-22.07451210042957
2.4999999999999998e-05,-18.177072953510574,1.035891560163949,-19.83187389238732,-18.177072953510574
2.6e-05,-14.548747691278063,0.9046081286254565,-24.81155344792458,-14.548747691278063
2.7e-05,-11.691676375710397,0.6160455158876852,-28.874453210578494,-11.691676375710397
2.8e-05,-10.128173910679811,0.22462781203420668,-29.644158253944205,-10.128173910679811
2.9e-05,-10.0347673860764,-0.1712133454008577,-29.821781095881526,-10.0347673860764
2.9999999999999997e-05,-11.3527567501894,-0.5305993759120562,-29.145978568866166,-11.3527567501894
3.1e-05,-13.874840420133609,-0.8186069224197655,-28.826220461691197,-13.874840420133609
3.2e-05,-17.318928578689434,-1.0227615869013462,-27.0397103340423,-17.318928578689434
3.2999999999999996e-05,-21.298354395913986,-1.111774536914034,-24.097023467998135,-21.298354395913986
3.4e-05,-25.350133201084763,-1.0500693903642113,-17.344031240618897,-25.350133201084763
3.5e-05,-28.77312409241641,-0.7788506103342804,-11.493754780851292,-28.77312409241641
3.6e-05,-30.9085548064811,-0.36679652133909224,-11.89455657480482,-30.9085548064811
3.7e-05,-31.51906109539991,0.032362169543046215,-14.011841418284268,-31.51906109539991
3.7999999999999995e-05,-30.76239947240854,0.3622761913231335,-16.142576507102458,-30.76239947240854
3.9e-05,-28.95144680977436,0.6102962000508109,-14.900010558948898,-28.95144680977436
3.9999999999999996e-05,-26.276118714706136,0.8312630161464013,-12.245400941619538,-26.276118714706136
4.1e-05,-22.82209335014577,1.0228591658424169,-6.678275647597775,-22.82209335014577
4.2e-05,-18.64456274611738,1.2234914634980678,0.15650265098463054,-18.64456274611738
4.2999999999999995e-05,-13.722247458861052,1.4440717985036884,3.6976542317228107,-13.722247458861052
4.4e-05,-7.9784256512723495,1.634498944450155,4.998465572252822,-7.9784256512723495
4.4999999999999996e-05,-1.7252362229470597,1.7238580564073092,4.9607168568446545,-1.7252362229470597
4.6e-05,4.637121757846238,1.6911192457534394,4.386127440851759,4.637121757846238
4.7e-05,10.648506224606635,1.5519798541202885,14.165337404911437,10.648506224606635
4.8e-05,16.297023267315108,1.4839835308320186,24.662587493311833,16.297023267315108
4.9e-05,21.84205242498406,1.5210797425662574,27.71463585352165,21.84205242498406
4.9999999999999996e-05,27.45962974971207,1.4917342898998205,24.455806476407677,27.45962974971207
5.1e-05,32.67682616917356,1.3001764378950165,20.618349604983823,32.67682616917356
5.2e-05,36.83756501427819,0.9076440822761751,14.944918402504022,36.83756501427819
5.3e-05,39.28082054268801,0.40643260705759354,3.7574148850729734,39.28082054268801
5.4e-05,39.5537493542278,-0.28720279070744326,-11.510730055658371,39.5537493542278
5.4999999999999995e-05,36.717405024964805,-1.3072127817290073,-24.836555525906334,36.717405024964805
5.6e-05,29.775803453262107,-2.441707760351563,-35.98071456551862,29.775803453262107
5.6999999999999996e-05,18.619731822792577,-3.563911428390707,-43.35005880397554,18.619731822792577
5.8e-05,3.709470407439479,-4.443754284847285,-47.64781277586145,3.709470407439479
5.9e-05,-13.933332136067317,-5.025252941306903,-48.503662102505245,-13.933332136067317
5.9999999999999995e-05,-33.0320481731108,-5.2334941791154055,-52.91444326921529,-33.0320481731108
6.1e-05,-52.337851946069435,-5.141328256951919,-55.75709324029772,-52.337851946069435
6.2e-05,-70.71401361103575,-4.724204752096001,-60.081236967025106,-70.71401361103575
6.3e-05,-86.99378470466878,-4.038122047475441,-65.34173969015072,-86.99378470466878
6.4e-05,-100.4801227576572,-3.220586024338906,-67.815950378138,-100.4801227576572
6.5e-05,-110.72698290070367,-2.296670857392069,-74.20042085952358,-110.72698290070367
6.599999999999999e-05,-117.40832686118702,-1.3290252433177359,-80.13956411385519,-117.40832686118702
6.7e-05,-120.7293072059766,-0.47735132465766994,-83.86055016222234,-120.7293072059766
6.8e-05,-121.09140851704375,0.26921745764555466,-83.34550832248745,-121.09140851704375
6.9e-05,-118.77479108186172,0.9677326365551314,-85.19460957933492,-118.77479108186172
7e-05,-114.10251526752396,1.5282341706120401,-85.0423974161197,-114.10251526752396
7.099999999999999e-05,-107.61852873034391,1.9530125981261117,-82.02764059056308,-107.61852873034391
7.2e-05,-99.72846215355385,2.288739400761843,-78.16771411059071,-99.72846215355385
7.3e-05,-90.8347934723768,2.490115394751585,-73.88879885408613,-90.8347934723768
7.4e-05,-81.44270351184235,2.5642663555165393,-71.16144779676976,-81.44270351184235
7.5e-05,-71.94705154461778,2.541009296987893,-73.18844663443899,-71.94705154461778
7.599999999999999e-05,-62.95301749680354,2.271269481043256,-78.1058241544839,-62.95301749680354
7.7e-05,-55.51616506206609,1.7036281276422174,-86.50832371672401,-55.51616506206609
7.8e-05,-50.57293151334313,0.9424497450190428,-89.54663776343327,-50.57293151334313
7.9e-05,-48.61031852406047,0.11263343943003423,-88.18827671744683,-48.61031852406047
7.999999999999999e-05,-49.658498413875044,-0.6612170618371629,-88.62527096744697,-49.658498413875044
8.099999999999999e-05,-53.415981612532974,-1.3484553594733315,-85.15947172779616,-53.415981612532974
8.2e-05,-59.37589658310201,-1.8217974915090047,-82.22458810466973,-59.37589658310201
8.3e-05,-66.6665848364539,-2.0913623662623086,-84.30563976474647,-66.6665848364539
8.4e-05,-74.71803317947216,-2.233313750052793,-87.69076603567919,-74.71803317947216
8.499999999999999e-05,-83.07216303706751,-2.2613953235111444,-87.94132677085253,-83.07216303706751
8.599999999999999e-05,-91.27588446944743,-2.1436814197383978,-87.72024171361178,-91.27588446944743
8.7e-05,-98.76804939015557,-1.8746870174218504,-89.24069111354186,-98.76804939015557
8.8e-05,-105.07542021027746,-1.5149097857523082,-88.12097593789031,-105.07542021027746
8.9e-05,-109.83585519202363,-1.0429920346570332,-86.6805520030549,-109.83585519202363
8.999999999999999e-05,-112.70652840050636,-0.4973788850156757,-87.17852777762927,-112.70652840050636
9.099999999999999e-05,-113.54353858084109,0.036411456078150106,-90.25272516322765,-113.54353858084109
9.2e-05,-112.54976436930252,0.485500530178526,-90.05524559138308,-112.54976436930252
9.3e-05,-110.02155001347991,0.8711047108643624,-86.54367095229999,-110.02155001347991
9.4e-05,-106.15372246270475,1.2084697391202233,-85.55496637968687,-106.15372246270475
9.499999999999999e-05,-101.13073319367496,1.4865288832243144,-85.57895433808233,-101.13073319367496
9.6e-05,-95.28947393966325,1.647212628109896,-85.40584937754532,-95.28947393966325
9.7e-05,-89.10986881106341,1.6712163739305177,-84.74138684640688,-89.10986881106341
9.8e-05,-83.10247086022962,1.5682545226839228,-84.71572687121822,-83.10247086022962
9.9e-05,-77.36769152440557,1.4910670772686963,-77.90709989422739,-77.36769152440557
9.999999999999999e-05,-71.87661364830032,1.478821438291265,-68.50616209608988,-71.87661364830032
0.000101,-66.52548434562287,1.4301035173922396,-57.57240686320335,-66.52548434562287
0.000102,-61.20142511950089,1.4834630842168701,-46.9167261285101,-61.20142511950089
0.000103,-55.42523525882304,1.6390188981530895,-31.306545642667643,-55.42523525882304
0.000104,-48.70217257851583,2.032853990643615,-17.310369672021757,-48.70217257851583
0.00010499999999999999,-40.337095916815464,2.466418034399494,-10.684286610489302,-40.337095916815464
0.000106,-30.47046471035145,2.851479390499505,-3.633275611627723,-30.47046471035145
0.000107,-19.375020838535605,3.1060007072300486,1.5957794176722921,-19.375020838535605
0.000108,-7.636008490460863,3.207332809323539,2.224115841528057,-7.636008490460863
0.00010899999999999999,4.143099076458828,3.1157622683149078,0.9623505673980639,4.143099076458828
0.00010999999999999999,15.117072166761233,2.7619253002271953,-2.3192739101431834,15.117072166761233
0.000111,24.304818572376547,2.165405349342532,-2.8032665279556452,24.304818572376547
0.000112,30.982494508180707,1.4298471104660146,-1.88194391493231,30.982494508180707
0.000113,34.84520785773682,0.6455986070347024,-4.500745797349801,34.84520785773682
0.00011399999999999999,35.71696850546057,-0.17393183267321866,-4.571542244905459,35.71696850546057
0.00011499999999999999,33.64746737353813,-0.9224768117277526,-2.885035361794899,33.64746737353813
0.000116,29.004824462662967,-1.5780358180995282,-7.481955446364625,29.004824462662967
0.000117,22.06721274949496,-2.144298424249696,-8.162843877473318,22.06721274949496
0.000118,13.391104111218798,-2.4962375681075,-4.872699699895733,13.391104111218798
0.00011899999999999999,3.8693216680812696,-2.5952801587619057,2.000082317580287,3.8693216680812696
0.00011999999999999999,-5.429521240654195,-2.3958265234735974,12.34879008577823,-5.429521240654195
0.000121,-13.44856594061467,-1.8703267075951642,20.411703316550607,-13.44856594061467
0.000122,-18.881370103242354,-1.0408422890910276,23.971533243696218,-18.881370103242354
0.00012299999999999998,-21.03248588837078,-0.11350524240501547,26.80287624269383,-21.03248588837078
0.000124,-19.711025519995893,0.8144361153671636,28.779929244201565,-19.711025519995893
0.000125,-15.11518265228754,1.6495850717353526,29.274013547450377,-15.11518265228754
0.000126,-7.64886078354228,2.345761255203577,21.963650947455914,-7.64886078354228
0.000127,1.8040637675264284,2.703288754047322,15.114997964879722,1.8040637675264284
0.000128,11.923655252120746,2.720960400721206,17.683151299449307,11.923655252120746
0.000129,21.803655058315545,2.599547675785388,23.344616853049903,21.803655058315545
0.00013,31.18195889550483,2.4647891311968615,31.113556045551007,31.18195889550483
0.00013099999999999999,39.93150238479943,2.227744653582872,38.23786210075995,39.93150238479943
0.00013199999999999998,47.66379041603919,1.96973282321873,43.11723699582331,47.66379041603919
0.000133,54.494068026430014,1.7145942047890408,49.320951863909585,54.494068026430014
0.000134,60.410456673310314,1.484238492726632,56.117571818469216,60.410456673310314
0.000135,65.57214916265761,1.305482378609247,59.92156309421188,65.57214916265761
0.000136,70.00421033568038,1.0732911073769098,61.761972715357764,70.00421033568038
0.000137,73.48049853192738,0.8078676456613739,63.639457957960666,73.48049853192738
0.000138,75.9927877082671,0.5422574272159859,61.51367347691929,75.9927877082671
0.000139,77.40876600021932,0.2131671488441119,56.75592073479954,77.40876600021932
0.00014,77.43128265697152,-0.20553066138746356,56.26774155173079,77.43128265697152
0.00014099999999999998,75.93491658454893,-0.5915902599674708,59.402410040421024,75.93491658454893
0.00014199999999999998,73.2150585446607,-0.8568689405392299,62.56396311990348,73.2150585446607
0.000143,69.81566683268811,-0.9379897729553188,69.63169727073719,69.81566683268811
0.000144,66.4766234094846,-0.8523834427095238,78.34754768700097,66.4766234094846
0.000145,63.8215843844424,-0.562770144146911,85.54118056150185,63.8215843844424
0.000146,62.53742757040508,-0.10222485232640108,89.3138835603088,62.53742757040508
0.000147,63.14728660560294,0.4252695058157317,92.61460315373634,63.14728660560294
0.000148,65.71145622428453,0.9489018422885571,92.7448003254816,65.71145622428453
0.000149,70.05717423648593,1.377889688400063,90.43641385791821,70.05717423648593
0.00015,75.70491167731839,1.643691665253209,86.41041855746676,75.70491167731839
0.00015099999999999998,81.97716294431565,1.7052627413624357,85.53553132274928,81.97716294431565
0.00015199999999999998,88.16593770975082,1.6211399108185958,85.01936624008368,88.16593770975082
0.000153,93.80925467506815,1.4092069840917871,84.17390864742525,93.80925467506815
0.000154,98.51700315238311,1.1241025982250061,86.56245402421338,98.51700315238311
0.000155,102.08624168302305,0.8167976681158067,96.38549219699232,102.08624168302305
0.000156,104.80689967670075,0.682858091257169,106.54707370556861,104.80689967670075
0.000157,107.28272278052695,0.6511203567652515,108.97867010089561,107.28272278052695
0.000158,109.63826622942527,0.6177510361755658,108.38654053444174,109.63826622942527
0.000159,111.78858548810884,0.5356096732191696,106.34217028851026,111.78858548810884
0.00015999999999999999,113.5080485402104,0.38491397567207847,100.82808206004128,113.5080485402104
0.00016099999999999998,114.44824055417243,0.10742365873787432,93.16818901589583,114.44824055417243
0.00016199999999999998,114.07029296176063,-0.3113130126188598,91.22946827655595,114.07029296176063
0.000163,112.13620020963381,-0.7215280329346151,92.93935630086126,112.13620020963381
0.000164,108.83905264857202,-1.0314331512660104,96.84394383435166,108.83905264857202
0.000165,104.77621223013685,-1.1393834712245317,101.18686674476311,104.77621223013685
0.000166,100.59718359632254,-1.092135656725555,106.59163412045307,100.59718359632254
0.000167,96.83620846898543,-0.8987410266386593,111.76570271811634,96.83620846898543
0.000168,94.1939911025824,-0.5101858596135479,115.12911499736548,94.1939911025824
0.000169,93.1497926761458,-0.055584203064868054,114.99027759340883,93.1497926761458
0.00016999999999999999,93.74410157342285,0.369326248145348,109.58028706368799,93.74410157342285
0.00017099999999999998,95.6587086917067,0.646118667869452,100.92912482832395,95.6587086917067
0.00017199999999999998,98.19431090966438,0.7021370284882721,91.45428154052958,98.19431090966438
0.000173,100.52464778719016,0.5343587069401327,80.32794681510063,100.52464778719016
0.000174,101.80956834560928,0.10103731449204942,70.26970231096577,101.80956834560928
0.000175,101.00359550591001,-0.5456485516146482,59.59661558624113,101.00359550591001
0.000176,97.55903393614152,-1.2961473601225122,51.12277956360636,97.55903393614152
0.000177,91.26392054554955,-2.1338675303326253,40.321445009359955,91.26392054554955
0.000178,81.7704740711288,-2.976030076458676,32.42797044058287,81.7704740711288
0.000179,69.39651895786022,-3.670333257986901,30.796841449591003,69.39651895786022
0.00017999999999999998,54.977241966544256,-4.0632295982814215,32.31846774647526,54.977241966544256
0.00018099999999999998,39.72968062951013,-4.113812879820801,33.16322487342823,39.72968062951013
0.00018199999999999998,24.887771732876015,-3.854864875538128,37.142899029512385,24.887771732876015
0.000183,11.543621553936921,-3.2870438599761913,41.129339979628384,11.543621553936921
0.000184,0.9539790214170907,-2.393483376278767,44.79968555892976,0.9539790214170907
0.000185,-5.947123750809206,-1.3175878115972737,45.72027819137147,-5.947123750809206
0.000186,-8.783586766641427,-0.2260252148184383,40.81184915900247,-8.783586766641427
0.000187,-7.789989006538953,0.7383178229294398,37.29504588318875,-7.789989006538953
0.000188,-3.531394500978946,1.529866659147541,36.451069145474364,-3.531394500978946
0.00018899999999999999,3.3414388775798636,2.154643070676138,37.17248089044389,3.3414388775798636
0.00018999999999999998,12.209881707102921,2.5993090373209222,35.40283417628176,12.209881707102921
0.00019099999999999998,22.31361858944932,2.818586109375567,34.80137204050291,22.31361858944932
0.000192,32.78287907669728,2.790720894994492,31.45453623893983,32.78287907669728
0.000193,42.55635856563116,2.42945933001185,23.42859948445232,42.55635856563116
0.000194,50.49710831277717,1.8371587551435238,12.959279595746418,50.49710831277717
0.000195,55.77018390777104,0.9599400308413166,4.1810159837118785,55.77018390777104
0.000196,57.30037133222301,-0.1442256912212901,-2.5440524507753404,57.30037133222301
0.000197,54.618812387108385,-1.2811894579364718,-2.5572935577283373,54.618812387108385
0.000198,48.00714939910643,-2.256658791504248,2.0552294819849086,48.00714939910643
0.00019899999999999999,38.31979149177432,-2.9096414022448895,9.658470546307502,38.31979149177432
0.00019999999999999998,26.952307126343438,-3.1775893813148888,14.887486880818425,26.952307126343438
0.00020099999999999998,15.233280368486072,-3.107509129581736,13.94399896933469,15.233280368486072
0.000202,4.166394896452346,-2.846446785632346,7.039603768783574,4.166394896452346
0.000203,-5.825358506748962,-2.5415854847609016,0.756832017179967,-5.825358506748962
0.000204,-14.613091343642532,-2.1831977615791884,0.722041657902505,-14.613091343642532
0.000205,-21.78875404231525,-1.6595101581691964,4.178068293831762,-21.78875404231525
0.000206,-26.75692315671742,-1.0136659568582358,2.806163647056771,-26.75692315671742
0.000207,-29.29406712958658,-0.3576997180821125,1.9387783826418077,-29.29406712958658
0.000208,-29.431762813878276,0.2775909528512249,2.836746079266569,-29.431762813878276
0.00020899999999999998,-27.286467974781992,0.870097573302808,0.9598315180974805,-27.286467974781992
0.00020999999999999998,-23.198114122984894,1.3047449702600957,-1.7805930815572455,-23.198114122984894
0.00021099999999999998,-17.78267141133692,1.5807547677383864,-5.998548661707457,-17.78267141133692
0.000212,-11.653283928004608,1.7087636515367355,-9.070079485173732,-11.653283928004608
0.000213,-5.440716161052808,1.6187707225924564,-10.852717345751142,-5.440716161052808
0.000214,0.11211903022439529,1.3575288652942743,-13.045950524362624,0.11211903022439529
0.000215,4.453911521571655,0.9617293374784966,-15.723839349499118,4.453911521571655
0.000216,7.138568647327013,0.4726838223330529,-19.701766525711037,7.138568647327013
0.000217,7.8553636155327595,-0.08237732848208296,-25.34965581582272,7.8553636155327595
0.00021799999999999999,6.4471014259985315,-0.6882771456780599,-38.95700920372741,6.4471014259985315
0.00021899999999999998,2.439309838006535,-1.5247436478640677,-49.01672956829485,2.439309838006535
0.00021999999999999998,-4.854488493577098,-2.393488401271969,-53.67865057675138,-4.854488493577098
0.00022099999999999998,-15.208014804010055,-3.1783791480106895,-60.09232990945408,-15.208014804010055
0.000222,-28.14749679920818,-3.776059281568012,-65.3440649275939,-28.14749679920818
0.000223,-42.92390337169704,-4.160954064428572,-67.42462866023826,-42.92390337169704
0.000224,-58.58448365322858,-4.247530678850746,-70.46314191228902,-58.58448365322858
0.000225,-74.09654217810541,-4.090589171663237,-74.57417678029306,-74.09654217810541
