time,V_C,I_L,V_IN,V_C
0.0,0.0,0.0,-29.535577775369298,0.0
1e-06,-1.0759972881719868,-0.5742147658874812,-40.48496791611732,-1.0759972881719868
2e-06,-4.528144498772724,-1.2792403217557102,-51.47783234497143,-4.528144498772724
3e-06,-10.513695946634066,-1.987534765939838,-61.089063581724304,-10.513695946634066
4e-06,-19.4711596891689,-2.84854588219166,-71.03994426643695,-19.4711596891689
4.9999999999999996e-06,-31.52258346798488,-3.626230619925299,-76.7548538925203,-31.52258346798488
6e-06,-46.05164662645768,-4.169816231546366,-72.76300434897554,-46.05164662645768
7e-06,-61.876604965885456,-4.299591416362246,-55.60769989614096,-61.876604965885456
8e-06,-76.93875228557786,-3.769261709899298,-38.271214160409954,-76.93875228557786
9e-06,-88.88638103327116,-2.6070009279721607,-23.74289849400438,-88.88638103327116
9.999999999999999e-06,-95.72979395006489,-1.0714594196014113,-16.481613197302593,-95.72979395006489
1.1e-05,-96.63862185865625,0.5721957976332847,-22.667335729907453,-96.63862185865625
1.2e-05,-91.82565022219329,1.9749752391137905,-28.715593884985488,-91.82565022219329
1.3e-05,-82.48533523739134,3.0155471094658193,-27.445237676859804,-82.48533523739134
1.4e-05,-69.78148292933722,3.808032489147392,-11.22768513340822,-69.78148292933722
1.4999999999999999e-05,-54.223603264859804,4.589091175365752,2.6828589617341927,-54.223603264859804
1.6e-05,-34.787268669506105,6.359721294303724,13.40216332294726,-34.787268669506105
1.7e-05,-6.2311626077506554,8.211306438823865,18.421649808299797,-6.2311626077506554
1.8e-05,21.509670340574992,6.24655500579332,16.042334296873317,21.509670340574992
1.8999999999999998e-05,40.56924857548655,4.556885611585365,20.402790644214964,40.56924857548655
1.9999999999999998e-05,55.8871608588338,3.6918559674276428,29.986749820623807,55.8871608588338
2.1e-05,68.03223083140564,2.887938632073824,39.66249964442371,68.03223083140564
2.2e-05,77.24632721007333,2.0706371380202606,42.79560092989143,77.24632721007333
2.3e-05,83.38152011526985,1.2456536262411617,48.32550741176335,83.38152011526985
2.4e-05,86.50714329032246,0.44391483192687725,44.93707773479959,86.50714329032246
2.4999999999999998e-05,86.56269042987773,-0.40545243541271553,46.40888890414147,86.56269042987773
2.6e-05,83.65906789975392,-1.1180826359635407,58.10231162137982,83.65906789975392
2.7e-05,78.7693875121746,-1.5063930758873614,60.141536551102725,78.7693875121746
2.8e-05,72.70586399529839,-1.7369769852426582,54.98113914248913,72.70586399529839
2.9e-05,65.92489297146649,-1.9378865003872714,48.717089037113226,65.92489297146649
2.9999999999999997e-05,58.42612874517462,-2.0854612394546796,37.492993031232544,58.42612874517462
3.1e-05,50.356477403551274,-2.2982697893864796,18.917390338795528,50.356477403551274
3.2e-05,41.03249022523467,-2.698863202490473,2.4123377298718895,41.03249022523467
3.2999999999999996e-05,30.072807541654434,-3.202424696061789,-14.197522917054599,30.072807541654434
3.4e-05,17.109605012584552,-3.815742502557758,-24.985761450085565,17.109605012584552
3.5e-05,1.9923294364673616,-4.309629937112439,-33.69146188021174,1.9923294364673616
3.6e-05,-15.08612753460492,-4.856673628741237,-31.70060014527062,-15.08612753460492
3.7e-05,-32.9045349458672,-4.698092064710125,-32.438909418451914,-32.9045349458672
3.7999999999999995e-05,-49.473691152645706,-4.203308738048973,-33.50615979476307,-49.473691152645706
3.9e-05,-63.7352601017992,-3.451325321659078,-30.72757207645987,-63.7352601017992
3.9999999999999996e-05,-74.73820765117742,-2.4688153695944797,-33.72899032477786,-74.73820765117742
4.1e-05,-81.95365068083102,-1.4203504682339294,-32.782050734420395,-81.95365068083102
4.2e-05,-85.19506206515936,-0.32960377133147456,-25.610584988548702,-85.19506206515936
4.2999999999999995e-05,-84.2106908139695,0.8492241341495692,-27.487885896195838,-84.2106908139695
4.4e-05,-79.12313695014217,1.8699209073174707,-28.481001622972403,-79.12313695014217
4.4999999999999996e-05,-70.61669562323884,2.692048349274439,-25.123170920445872,-70.61669562323884
4.6e-05,-59.39459781009328,3.334370391904065,-19.068175611103726,-59.39459781009328
4.7e-05,-46.10602161470758,3.7973969679859034,-22.885219189314448,-46.10602161470758
4.8e-05,-31.761932943906288,3.8722957015843993,-33.38035282097529,-31.761932943906288
4.9e-05,-18.078599623143084,3.445776450201807,-37.49541889329772,-18.078599623143084
4.9999999999999996e-05,-6.556647351472222,2.7483352633161586,-36.1329847938763,-6.556647351472222
5.1e-05,2.1350036521549516,1.9417759733803592,-31.566408235295075,2.1350036521549516
5.2e-05,7.815357742684185,1.1329288225163208,-26.18293234601386,7.815357742684185
5.3e-05,10.6150252116748,0.3854218925753343,-24.922331867610588,10.6150252116748
5.4e-05,10.682658355697233,-0.34117050608790045,-22.306735785780692,10.682658355697233
5.4999999999999995e-05,8.247099304866747,-0.9492148315108158,-18.93496881549793,8.247099304866747
5.6e-05,3.8813076496679697,-1.3835610143629127,-16.847150155532855,3.8813076496679697
5.6999999999999996e-05,-1.7731063917728358,-1.6029845109819723,-3.942622312805072,-1.7731063917728358
5.8e-05,-7.527022413743082,-1.4610061570695139,8.218655397682703,-7.527022413743082
5.9e-05,-12.135673473707143,-1.011637802034109,10.711708999744193,-12.135673473707143
5.9999999999999995e-05,-14.897694911921448,-0.4746232186457879,12.73692120091646,-14.897694911921448
6.1e-05,-15.601432933724338,0.0966200295083054,10.041255134945917,-15.601432933724338
6.2e-05,-14.297192934260515,0.6076381512900029,13.195380149017572,-14.297192934260515
6.3e-05,-11.1420906102789,1.0850916000438136,21.499840885648748,-11.1420906102789
6.4e-05,-6.160048069340618,1.6030194268032636,24.611796112999386,-6.160048069340618
6.5e-05,0.67799636354939,2.0910271545179713,31.211363765146444,0.67799636354939
6.599999999999999e-05,9.229809514009975,2.5146633933219125,39.72624957059374,9.229809514009975
6.7e-05,19.28111222257841,2.8746135175901113,52.71541467781938,19.28111222257841
6.8e-05,30.400960712942684,3.1685300921450157,71.71402891880749,30.400960712942684
6.9e-05,43.11661805478171,3.7089570842541075,81.94483389183686,43.11661805478171
7e-05,57.75575389766375,4.145469391351283,79.81599278063133,57.75575389766375
7.099999999999999e-05,73.3113352365682,4.1835037735512595,68.09775202942143,73.3113352365682
7.2e-05,87.94779456098887,3.6647212364501542,51.810104661278224,87.94779456098887
7.3e-05,99.61408694291791,2.5955262992560777,38.19138654920264,99.61408694291791
7.4e-05,106.57958221592307,1.148071035506538,30.19523668807561,106.57958221592307
7.5e-05,107.87172355719927,-0.4428750751893712,27.31687834666495,107.87172355719927
7.599999999999999e-05,103.35734182475355,-1.9641081566826077,29.820783378888134,103.35734182475355
7.7e-05,93.67475358845908,-3.208741149538059,34.106686468703884,93.67475358845908
7.8e-05,80.09942389189027,-4.0393693132343556,44.114730995414284,80.09942389189027
7.9e-05,64.53564055394085,-4.268003709449452,54.23521917944884,64.53564055394085
7.999999999999999e-05,49.02642990505673,-4.025850270334208,76.14384498024862,49.02642990505673
8.099999999999999e-05,35.76756332087956,-3.092393564277701,94.31795282354673,35.76756332087956
8.2e-05,26.92604235279142,-1.6590980928962926,97.36585775701539,26.92604235279142
8.3e-05,23.60627158807336,-0.1342828749652416,89.4576530805298,23.60627158807336
8.4e-05,25.598711843818275,1.1777129069379577,82.28413268909478,25.598711843818275
8.499999999999999e-05,31.948752215696857,2.1834554831847113,75.26503323598692,31.948752215696857
8.599999999999999e-05,41.30922994559201,2.8395833140147273,72.82595780964347,41.30922994559201
8.7e-05,52.572498778942865,3.195342000550794,72.46510415363971,52.572498778942865
8.8e-05,64.68629591823537,3.2965698389456035,68.65088677734683,64.68629591823537
8.9e-05,76.62142649369856,3.06063047354912,56.191547089003755,76.62142649369856
8.999999999999999e-05,86.41968522088146,2.175744225413485,35.07584700984948,86.41968522088146
9.099999999999999e-05,92.25409843456085,0.9228541233857561,16.472099638870937,92.25409843456085
9.2e-05,92.9033572835382,-0.6227843528707397,8.321576356889166,92.9033572835382
9.3e-05,87.59282703866121,-2.2295678577762645,2.965306454740922,87.59282703866121
9.4e-05,76.56015019089982,-3.6984461785092813,-7.582720720457713,76.56015019089982
9.499999999999999e-05,60.15397378977834,-5.30647312418794,-14.415940748047651,60.15397378977834
9.6e-05,29.1943018341881,-10.723993317401359,-17.445568732010226,29.1943018341881
9.7e-05,-10.5567965285524,-9.74595884666146,-23.40487613138074,-10.5567965285524
9.8e-05,-39.33335503661828,-5.674218875729503,-26.809173026628415,-39.33335503661828
9.9e-05,-57.26413155946323,-4.345926327440523,-29.538221716397995,-57.26413155946323
9.999999999999999e-05,-71.5991108146763,-3.3870647475705686,-36.55000892594221,-71.5991108146763
0.000101,-82.3097960744375,-2.3732559390228727,-38.53170446434471,-82.3097960744375
0.000102,-89.10052561628102,-1.287047903116623,-32.98091398473889,-89.10052561628102
0.000103,-91.57657568292889,0.009550396212421486,-19.22103886064118,-91.57657568292889
0.000104,-88.91225682631921,1.408163147496321,-3.8858656650033585,-88.91225682631921
0.00010499999999999999,-81.11281048418753,2.81370482132218,-1.8238001529024328,-81.11281048418753
0.000106,-68.18513691818272,4.111305454797181,-6.987824754036576,-68.18513691818272
0.000107,-51.20564216945306,5.053734589186073,-7.564651374572526,-51.20564216945306
0.000108,-29.34889277044125,6.620352900925627,-3.0936919167048407,-29.34889277044125
0.00010899999999999999,-5.331358834801176,5.85203971652901,10.117589869381344,-5.331358834801176
0.00010999999999999999,14.474412358802095,5.028973624632611,43.26771676632522,14.474412358802095
0.000111,33.6497562054766,5.220896322312894,74.54033327970203,33.6497562054766
0.000112,56.085354585903964,6.706279253912274,102.17170174335708,56.085354585903964
0.000113,85.33550191835931,8.456343045938032,125.63389300326502,85.33550191835931
0.00011399999999999999,117.75242503433098,8.249139308758846,141.88747081859836,117.75242503433098
0.00011499999999999999,145.80797323113345,6.312000243573704,148.3675497089545,145.80797323113345
0.000116,165.66355964309125,4.7503309902876065,150.6672656780385,165.66355964309125
0.000117,181.832820612857,3.9484604583260663,143.27959629165315,181.832820612857
0.000118,194.46461399373675,2.8218002255376016,130.3645721061327,194.46461399373675
0.00011899999999999999,202.2579808139866,1.3027602707655135,114.34278109529218,202.2579808139866
0.00011999999999999999,203.7240837216392,-0.5169084447955847,103.49260757513613,203.7240837216392
0.000121,198.30999808972032,-2.405141270489932,103.66672755207632,198.30999808972032
0.000122,186.25339343428442,-4.0407553295061955,93.48580504339016,186.25339343428442
0.00012299999999999998,166.50159153679598,-8.24549326338719,82.5102872835586,166.50159153679598
0.000124,123.12578794997182,-13.668747063172344,62.96598066241866,123.12578794997182
0.000125,72.47623350869391,-12.302790484038127,44.598529728596404,72.47623350869391
0.000126,35.0143366340413,-7.739148454503452,36.78895359844856,35.0143366340413
0.000127,13.523729045332589,-4.705002852631017,30.42212541770022,13.523729045332589
0.000128,-2.477840257952156,-3.910538928115105,17.63151406681346,-2.477840257952156
0.000129,-15.58121438627965,-3.1436429291103307,3.8756437240391555,-15.58121438627965
0.00013,-25.97956187716236,-2.4939727671593332,-3.5846199930708056,-25.97956187716236
0.00013099999999999999,-34.02228466822184,-1.8425281125231106,-11.553141066053088,-34.02228466822184
0.00013199999999999998,-39.782247903637725,-1.2796102770107092,-16.13313033747637,-39.782247903637725
0.000133,-43.462748855133356,-0.6986854885387179,-19.182506056599852,-43.462748855133356
0.000134,-45.00062553992,-0.15021993928530664,-20.891879970457417,-45.00062553992
0.000135,-44.657630389644,0.3536687285787496,-8.391441657305775,-44.657630389644
0.000136,-42.11217145888765,1.0146088405806408,3.602147590964526,-42.11217145888765
0.000137,-36.958084544660736,1.7759731883409218,0.5999636454029743,-36.958084544660736
0.000138,-29.256264549198953,2.333119233339406,-4.140650508131897,-29.256264549198953
0.000139,-20.059352648474487,2.580900699322933,-9.476089240035924,-20.059352648474487
0.00014,-10.514796186941659,2.5393399562165535,-9.852029904556495,-10.514796186941659
0.00014099999999999998,-1.5008913212750477,2.2856900990138467,-13.549216303230533,-1.5008913212750477
0.00014199999999999998,6.131992632310393,1.8077763120259243,-16.504002137478203,6.131992632310393
0.000143,11.743951991493715,1.21577856665988,-13.657439219605383,11.743951991493715
0.000144,15.11411056670487,0.5999715440303222,-7.430100936955955,15.11411056670487
0.000145,16.258854034933282,0.02722995065569167,-9.558055587941023,16.258854034933282
0.000146,15.408578024511149,-0.4774652205462866,-15.067627905869765,15.408578024511149
0.000147,12.578518471306905,-1.069427823598355,-22.627277686320443,12.578518471306905
0.000148,7.495872627272679,-1.6514529349340887,-28.58251194002458,7.495872627272679
0.000149,0.3858956800087978,-2.166607444561163,-21.31359134640797,0.3858956800087978
0.00015,-8.09577877254263,-2.380822210877853,-13.019973592716312,-8.09577877254263
0.00015099999999999998,-16.75645754311942,-2.256194448394432,-12.499284428678981,-16.75645754311942
0.00015199999999999998,-24.608770932096164,-1.9444859229245823,-4.466902649893811,-24.608770932096164
0.000153,-30.77404979049409,-1.3227494277634468,16.666949621732744,-30.77404979049409
0.000154,-33.56875878614475,-0.09873426722321987,36.80641453719896,-33.56875878614475
0.000155,-31.342493079756906,1.278452966792811,40.62455110100531,-31.342493079756906
0.000156,-24.22586841370526,2.537053893977547,38.997123552486656,-24.22586841370526
0.000157,-12.892454493002303,3.539754609043653,42.36665728365875,-12.892454493002303
0.000158,1.696994904493696,4.290357124311598,41.449674754946564,1.696994904493696
0.000159,18.467908906503325,4.70462511701296,42.44319655973899,18.467908906503325
0.00015999999999999999,36.0970888607509,4.755674393653514,45.409029454617816,36.0970888607509
0.00016099999999999998,53.24298060799545,4.447285410725845,41.32001256866599,53.24298060799545
0.00016199999999999998,68.53120516426988,3.71957258980971,30.27712688727064,68.53120516426988
0.000163,80.3117096276722,2.60717085885742,0.7695508921379225,80.3117096276722
0.000164,86.8175033405825,0.8623359644420908,-29.93564387725471,86.8175033405825
0.000165,85.87791214147659,-1.4039560208965924,-54.478356361508204,85.87791214147659
0.000166,75.9631030964455,-3.9953995249996614,-74.23785346294628,75.9631030964455
0.000167,44.08616720125202,-16.21539192773461,-79.34044467405327,44.08616720125202
0.000168,-30.867159495640443,-21.40105000232316,-87.21178935351196,-30.867159495640443
0.000169,-99.89123679909278,-14.45304007704489,-93.96182640628805,-99.89123679909278
0.00016999999999999999,-135.2198126333155,-5.2825162089020985,-92.83825595434273,-135.2198126333155
0.00017099999999999998,-151.38839219699028,-3.616987149746178,-82.62232955667263,-151.38839219699028
0.00017199999999999998,-161.64815775328154,-1.8982123774077122,-77.76866713357106,-161.64815775328154
0.000173,-165.2970643317969,-0.04485260992590745,-66.93795381856074,-165.2970643317969
0.000174,-161.86635810668903,1.8656615486651036,-57.465440848188884,-161.86635810668903
0.000175,-151.55023991742976,3.7063802495032254,-54.30995137502653,-151.55023991742976
0.000176,-134.08268385162847,6.751357483917122,-48.6483057518476,-134.08268385162847
0.000177,-94.40762330341494,13.013049446548251,-42.43222889798095,-94.40762330341494
0.000178,-47.832304120722895,11.034124097607037,-40.06967780108668,-47.832304120722895
0.000179,-17.26182544066441,5.526779805245697,-38.196953790647065,-17.26182544066441
0.00017999999999999998,0.12806383287789735,4.144730447712227,-37.704840941976805,0.12806383287789735
0.00018099999999999998,13.353482095192831,2.96798252816591,-34.88759294673526,13.353482095192831
0.00018199999999999998,22.198735499044236,1.829822645340109,-25.13586193700611,22.198735499044236
0.000183,26.963113170215188,0.7594181296624362,-9.454278987969143,26.963113170215188
0.000184,28.305532142945594,-0.010969806773104385,-0.36644830178859983,28.305532142945594
0.000185,27.213711523265314,-0.5401770884441977,13.581849285475247,27.213711523265314
0.000186,24.79891332822975,-0.7520687012614606,13.462550923761706,24.79891332822975
0.000187,21.72278109145025,-0.9005796004365215,10.370907485758893,21.72278109145025
0.000188,18.147022498951262,-1.0200500262492733,11.726775429860949,18.147022498951262
0.00018899999999999999,14.289591613967776,-1.0464125502937613,13.694888797018534,14.289591613967776
0.00018999999999999998,10.542946630843632,-0.9632898048313621,10.8842234148744,10.542946630843632
0.00019099999999999998,7.136620832384789,-0.8720799539996066,5.7487043749450795,7.136620832384789
0.000192,3.9850795493039293,-0.8319733394586775,-2.076159594875698,3.9850795493039293
0.000193,0.7941245770489931,-0.8985630545673243,-10.03565279117162,0.7941245770489931
0.000194,-2.8024207703933994,-1.0273883061850806,-10.17790261258232,-2.8024207703933994
0.000195,-6.713026538443215,-1.066191707541356,-7.803848917748903,-6.713026538443215
0.000196,-10.541146907323085,-0.9864670201936971,-8.127839071608214,-10.541146907323085
0.000197,-13.954657758485265,-0.8488063118025131,-3.137706658166329,-13.954657758485265
0.000198,-16.61157211999016,-0.570914601043659,4.696365136439666,-16.61157211999016
0.00019899999999999999,-17.915640713990065,-0.1058745924554613,16.095812245157298,-17.915640713990065
0.00019999999999999998,-17.049931054343094,0.570620274364292,26.69634416618582,-17.049931054343094
0.00020099999999999998,-13.48658242549296,1.3635942041287408,27.904115913669084,-13.48658242549296
0.000202,-7.129112798043197,2.027619539258483,24.56679052432651,-7.129112798043197
0.000203,1.244140860850214,2.463581642289803,26.232020102771543,1.244140860850214
0.000204,10.925151199812735,2.7416685054762215,31.102168229094428,10.925151199812735
0.000205,21.426965342812814,2.905866573991137,34.236421091864834,21.426965342812814
0.000206,32.20704524919149,2.885339329494836,37.9889381567642,32.20704524919149
0.000207,42.657719432404065,2.7488405182726723,46.06455521595106,42.657719432404065
0.000208,52.50838527353733,2.5502084040059656,49.05810196478194,52.50838527353733
0.00020899999999999998,61.362080748993634,2.2208587007762413,51.586820297885296,61.362080748993634
0.00020999999999999998,68.82279372752845,1.7898188977838028,50.75943660738465,68.82279372752845
0.00021099999999999998,74.50705416250477,1.2529794819337208,48.775097197170055,74.50705416250477
0.000212,78.0091408223402,0.6369169788945794,53.465459971542145,78.0091408223402
0.000213,79.34617886798105,0.10181837300691618,62.60031999411568,79.34617886798105
0.000214,79.13651899483308,-0.15232556714818862,74.7849098097645,79.13651899483308
0.000215,78.44621517615145,-0.21789878055398493,89.41752353036803,78.44621517615145
0.000216,78.02402925259912,0.0031343229064259735,99.29713060093326,78.02402925259912
0.000217,78.7935770410404,0.4149782573579497,106.24380434665021,78.7935770410404
0.00021799999999999999,81.2257663673602,0.9054939111409324,107.0113491842202,81.2257663673602
0.00021899999999999998,85.39046734673448,1.3195200886395129,105.31133944472651,85.39046734673448
0.00021999999999999998,90.78994506452237,1.558454619267685,100.53169912232815,90.78994506452237
0.00022099999999999998,96.66726445634772,1.577575687304153,95.40814429581349,96.66726445634772
0.000222,102.20961752612952,1.3996583608585893,91.17350719226796,102.20961752612952
0.000223,106.79719887036511,1.028384981529345,84.7053998528867,106.79719887036511
0.000224,109.63248838819906,0.5012750828643,87.31254911942165,109.63248838819906
0.000225,110.5924081557955,0.023534922475170333,81.00942610157442,110.5924081557955
0.000226,109.66080277229533,-0.5594974781509059,67.42748840619649,109.66080277229533
0.000227,106.11872518212583,-1.3327721053776966,62.68546200888068,106.11872518212583
