time,V_C,I_L,V_IN,V_C
0.0,0.0,0.0,0.4631206755254203,0.0
1e-06,0.01482516046730605,0.2356644131347225,0.5829116264540313,0.01482516046730605
2e-06,0.06029204803678445,0.5051767499101761,0.6833150855901762,0.06029204803678445
3e-06,0.13984143650819217,0.7664833213567274,0.7462863321126242,0.13984143650819217
4e-06,0.2488998497088421,0.9955413799271291,0.8510246673186492,0.2488998497088421
4.9999999999999996e-06,0.3850114811500178,1.1943055136719471,0.9318480276893283,0.3850114811500178
6e-06,0.5407945107099859,1.3229573638300447,0.9777919869308039,0.5407945107099859
7e-06,0.7083965388868492,1.3792360482256043,0.9859997855360996,0.7083965388868492
8e-06,0.8778698594858165,1.3442576297931235,0.9767572462610404,0.8778698594858165
9e-06,1.0367578546471306,1.2114593776012066,0.9688652278887233,1.0367578546471306
9.999999999999999e-06,1.1737834563035272,0.9960145198669917,0.9674768462108853,1.1737834563035272
1.1e-05,1.2802609702588832,0.7251945458556901,0.99285537414846,1.2802609702588832
1.2e-05,1.3513978949009684,0.42343421601802494,1.0616026904463356,1.3513978949009684
1.3e-05,1.386134338150192,0.14698771390378074,1.1107424023129662,1.386134338150192
1.4e-05,1.3892450972056396,-0.09332302425307426,1.098601582941602,1.3892450972056396
1.4999999999999999e-05,1.3628708851390579,-0.3333826607438384,1.0330752790076816,1.3628708851390579
1.6e-05,1.3074195739853491,-0.5615692824779871,0.931027691094581,1.3074195739853491
1.7e-05,1.2237071139874944,-0.7982260742745918,0.792604003893556,1.2237071139874944
1.8e-05,1.1106840244917642,-1.023382851286394,0.6795452130893701,1.1106840244917642
1.8999999999999998e-05,0.9719163027477333,-1.2229258562436254,0.5691341701105406,0.9719163027477333
1.9999999999999998e-05,0.8106188677796725,-1.374877042762021,0.4603747854092556,0.8106188677796725
2.1e-05,0.6355822718215631,-1.4589614642028523,0.35349086338260455,0.6355822718215631
2.2e-05,0.4501484355819448,-1.5374169013233663,0.21517145102657637,0.4501484355819448
2.3e-05,0.258657658189249,-1.5525849698286933,0.06889351074979894,0.258657658189249
2.4e-05,0.06907771201034715,-1.5168109391025133,-0.03575225167910672,0.06907771201034715
2.4999999999999998e-05,-0.11457864895725625,-1.445626202268804,-0.10389649641726532,-0.11457864895725625
2.6e-05,-0.2851653043430458,-1.3018423618925172,-0.15495193486508557,-0.2851653043430458
2.7e-05,-0.4335227981449001,-1.0932213840435865,-0.1574374816987832,-0.4335227981449001
2.8e-05,-0.5529744343755735,-0.8337834701965722,-0.18591362400682848,-0.5529744343755735
2.9e-05,-0.637757585116503,-0.5356658222494493,-0.22884971785815958,-0.637757585116503
2.9999999999999997e-05,-0.6859684484359236,-0.24982639751363034,-0.2928802422388096,-0.6859684484359236
3.1e-05,-0.7000852547994301,0.020280129901959227,-0.4112041705544465,-0.7000852547994301
3.2e-05,-0.6839585401847084,0.22559729049896426,-0.46790307635194706,-0.6839585401847084
3.2999999999999996e-05,-0.6473102131741675,0.35647858107247443,-0.4958794117334347,-0.6473102131741675
3.4e-05,-0.5976392110199258,0.44231555001934897,-0.5276147432008177,-0.5976392110199258
3.5e-05,-0.5403552302839185,0.4773372185822948,-0.49427710682055653,-0.5403552302839185
3.6e-05,-0.48032164021039325,0.49694794731624653,-0.4287703944041086,-0.48032164021039325
3.7e-05,-0.4177229694164982,0.5158405884274967,-0.35912350702420226,-0.4177229694164982
3.7999999999999995e-05,-0.3526603619152046,0.5369624844010812,-0.31192762749848557,-0.3526603619152046
3.9e-05,-0.28626737042802514,0.5349222025385374,-0.2827215541148606,-0.28626737042802514
3.9999999999999996e-05,-0.22178249601918323,0.5031440133625474,-0.29321741366487597,-0.22178249601918323
4.1e-05,-0.16363083699222417,0.43388231743713485,-0.2902952905291229,-0.16363083699222417
4.2e-05,-0.11568321566755785,0.339144495606438,-0.28997992751148977,-0.11568321566755785
4.2999999999999995e-05,-0.08069317361277607,0.2255867410141674,-0.27729907808601995,-0.08069317361277607
4.4e-05,-0.059661962727987114,0.11938954921324652,-0.22720708164607095,-0.059661962727987114
4.4999999999999996e-05,-0.05062973632373314,0.02947758248790251,-0.16535168834419695,-0.05062973632373314
4.6e-05,-0.05064342808051342,-0.027067996533545625,-0.10093403016255956,-0.05064342808051342
4.7e-05,-0.05524720942178202,-0.047217465595187164,-0.04215923817729698,-0.05524720942178202
4.8e-05,-0.06039465432748107,-0.03256289027360374,-0.005592243222869167,-0.06039465432748107
4.9e-05,-0.061894186179291585,0.014184539997241405,0.05544938561715575,-0.061894186179291585
4.9999999999999996e-05,-0.05625263340427339,0.07542557276236268,0.16158457030861778,-0.05625263340427339
5.1e-05,-0.041232707682253796,0.17791197971753778,0.2879279018553637,-0.041232707682253796
5.2e-05,-0.009450722439593759,0.3328292714069932,0.4152738565952564,-0.009450722439593759
5.3e-05,0.043155087724663074,0.5187370846635823,0.4930192511566024,0.043155087724663074
5.4e-05,0.11886821449460033,0.6994942814855304,0.5126929121642823,0.11886821449460033
5.4999999999999995e-05,0.2138347423074138,0.8279959284861321,0.48738047138904117,0.2138347423074138
5.6e-05,0.3200648259747588,0.8787208562100169,0.4861358294886139,0.3200648259747588
5.6999999999999996e-05,0.42802149835869585,0.8611626613542759,0.4931208883504157,0.42802149835869585
5.8e-05,0.5305985419667327,0.7936626673137477,0.5277728956179769,0.5305985419667327
5.9e-05,0.6224377332146382,0.6872675416343076,0.5367300177123429,0.6224377332146382
5.9999999999999995e-05,0.6983557546708228,0.5365132759203338,0.523082852124016,0.6983557546708228
6.1e-05,0.7534428733494972,0.3516154746671714,0.514442169875305,0.7534428733494972
6.2e-05,0.784745450111556,0.15459658583096414,0.5308898202602906,0.784745450111556
6.3e-05,0.7916839601405721,-0.03963611127309612,0.5503142496762305,0.7916839601405721
6.4e-05,0.7760628160927608,-0.20816223585364835,0.5690430070861763,0.7760628160927608
6.5e-05,0.7417637256566532,-0.34089388395969733,0.5837135377960302,0.7417637256566532
6.599999999999999e-05,0.6931935197889822,-0.4387816386894729,0.5884735123675198,0.6931935197889822
6.7e-05,0.6349399674176003,-0.5003322153406308,0.5579575214177472,0.6349399674176003
6.8e-05,0.5703120869987767,-0.5430588750202409,0.5216206563148399,0.5703120869987767
6.9e-05,0.5021589037810893,-0.5568708944186255,0.4821944265873059,0.5021589037810893
7e-05,0.43349263636714147,-0.5526136193485806,0.4464725343957333,0.43349263636714147
7.099999999999999e-05,0.36679727474580265,-0.5218251853654782,0.42193537211146365,0.36679727474580265
7.2e-05,0.3058227983873834,-0.46467434300110005,0.3815701534338528,0.3058227983873834
7.3e-05,0.25168831051063123,-0.41123594093590565,0.33573003582546423,0.25168831051063123
7.4e-05,0.20464086778155202,-0.34927214216286684,0.28898897872593154,0.20464086778155202
7.5e-05,0.1657028413980875,-0.28154713938878734,0.2635868205529134,0.1657028413980875
7.599999999999999e-05,0.13525712898572703,-0.21221004434396784,0.25857912289622814,0.13525712898572703
7.7e-05,0.11336869782022396,-0.14208041714270417,0.23488974589647693,0.11336869782022396
7.8e-05,0.09986616148119835,-0.07604390143850143,0.23905237275288765,0.09986616148119835
7.9e-05,0.09547847223337907,0.007310753579459095,0.29287356938429404,0.09547847223337907
7.999999999999999e-05,0.10226992178754613,0.10319794546698362,0.3014741476633608,0.10226992178754613
8.099999999999999e-05,0.12046496995987863,0.18818130875992534,0.2660197758073971,0.12046496995987863
8.2e-05,0.14695287622327857,0.23735743753603225,0.20147109088005183,0.14695287622327857
8.3e-05,0.1766393335696105,0.23055812535381479,0.14419687675579207,0.1766393335696105
8.4e-05,0.2021416070060897,0.18017980613729911,0.13992119337137635,0.2021416070060897
8.499999999999999e-05,0.22067309589948628,0.11875223666117703,0.14159478744553916,0.22067309589948628
8.599999999999999e-05,0.231293697041505,0.05236744012170997,0.12680757462801526,0.231293697041505
8.7e-05,0.23321630443453525,-0.021660618920018304,0.12207282123563443,0.23321630443453525
8.8e-05,0.22610096877566493,-0.09292192547177726,0.11270650786354927,0.22610096877566493
8.9e-05,0.21074135324427914,-0.15205257668111033,0.13437902896328568,0.21074135324427914
8.999999999999999e-05,0.18944311322019203,-0.18990568354842532,0.17829433188741262,0.18944311322019203
9.099999999999999e-05,0.16560726189681643,-0.19270437356443681,0.250536190071646,0.16560726189681643
9.2e-05,0.1441631607560511,-0.14378552588299334,0.322269400565646,0.1441631607560511
9.3e-05,0.13234237166379323,-0.047483068906639336,0.46817891487261554,0.13234237166379323
9.4e-05,0.13648323313508315,0.14017802793574996,0.6358039032680559,0.13648323313508315
9.499999999999999e-05,0.16844380058012515,0.37245561421019663,0.7950935236743075,0.16844380058012515
9.6e-05,0.23041604896017462,0.6351758783407822,0.9198357611678551,0.23041604896017462
9.7e-05,0.325869120371915,0.9137411438434238,0.9896084608296599,0.325869120371915
9.8e-05,0.45403315515574005,1.1482092251135816,1.0097450307953877,0.45403315515574005
9.9e-05,0.6058643080195071,1.2954939953736346,1.0032943552425775,0.6058643080195071
9.999999999999999e-05,0.7695626194202936,1.3385696707492645,0.9688440129772768,0.7695626194202936
0.000101,0.9321735580960826,1.2752075977853587,0.9293483357550032,0.9321735580960826
0.000102,1.0792147261814395,1.0902138554175154,0.8724139978542486,1.0792147261814395
0.000103,1.1971005594913404,0.8036248057452466,0.8376738540829415,1.1971005594913404
0.000104,1.2759373926422874,0.4663184530100631,0.8287779890535646,1.2759373926422874
0.00010499999999999999,1.311524249218129,0.10919417339159576,0.8104708322754268,1.311524249218129
0.000106,1.303087820644045,-0.23991098190273696,0.8166994655546261,1.303087820644045
0.000107,1.253613235927113,-0.5522065381897352,0.8258423292936188,1.253613235927113
0.000108,1.1696019245121339,-0.7975126575382486,0.862073147172647,1.1696019245121339
0.00010899999999999999,1.0613509053543464,-0.9417095595328565,0.9147854476807856,1.0613509053543464
0.00010999999999999999,0.940771804696519,-0.9928626654139693,0.9796916874807555,0.940771804696519
0.000111,0.8198466880338138,-0.9460120656989619,1.0049925959527461,0.8198466880338138
0.000112,0.7101408530140912,-0.8223517898864348,1.0196666857126362,0.7101408530140912
0.000113,0.6198132148958349,-0.6315584881447116,1.060550665885922,0.6198132148958349
0.00011399999999999999,0.5567001055199489,-0.3852986553734379,1.0638399254252682,0.5567001055199489
0.00011499999999999999,0.5251249519066093,-0.12651613692364908,0.9816482534618641,0.5251249519066093
0.000116,0.5227643402696808,0.08432051297284089,0.8174503327931427,0.5227643402696808
0.000117,0.540410173065177,0.1957411285961329,0.5734177911424909,0.540410173065177
0.000118,0.5631007452412197,0.15169264351856568,0.28461775256666777,0.5631007452412197
0.00011899999999999999,0.5695759919291392,-0.056541950913475296,0.02461280940414404,0.5695759919291392
0.00011999999999999999,0.5430504665182496,-0.39189195191830434,-0.16228021943948723,0.5430504665182496
0.000121,0.47183731503448173,-0.7534596944147469,-0.3186762171909094,0.47183731503448173
0.000122,0.3558760425333589,-1.1275849788227397,-0.4415370659272684,0.3558760425333589
0.00012299999999999998,0.19540830357422193,-1.4548756553854423,-0.5417595896509455,0.19540830357422193
0.000124,-0.0006386906526348213,-1.7072734983044506,-0.6232251399200837,-0.0006386906526348213
0.000125,-0.22236475172442557,-1.870944143118976,-0.6927121716515833,-0.22236475172442557
0.000126,-0.4576860712410386,-1.9175198380358751,-0.7483053145184948,-0.4576860712410386
0.000127,-0.691485187641899,-1.8519195730119185,-0.7859899826252352,-0.691485187641899
0.000128,-0.9108773146823046,-1.6852750759438457,-0.8345859232373295,-0.9108773146823046
0.000129,-1.1038376797953329,-1.4205645451218911,-0.8412455511034835,-1.1038376797953329
0.00013,-1.2593537625206823,-1.0854653604716862,-0.8088006733295549,-1.2593537625206823
0.00013099999999999999,-1.3689429997237035,-0.6890435371645814,-0.7689738890107835,-1.3689429997237035
0.00013199999999999998,-1.426152651441627,-0.23132860786864096,-0.7135448758884062,-1.426152651441627
0.000133,-1.4248992822415822,0.2513034269270646,-0.6805431834227537,-1.4248992822415822
0.000134,-1.365512019018911,0.6990290060919584,-0.6669366426059474,-1.365512019018911
0.000135,-1.255089471896449,1.0772223038396758,-0.6512559363450909,-1.255089471896449
0.000136,-1.1035404113345164,1.3598644377069065,-0.6410663000710757,-1.1035404113345164
0.000137,-0.9234860999815979,1.5382274919838812,-0.6469796059126907,-0.9234860999815979
0.000138,-0.7289451173565434,1.5926065608948559,-0.6736089061069925,-0.7289451173565434
0.000139,-0.5356710506168518,1.5141687863146212,-0.7043865939690734,-0.5356710506168518
0.00014,-0.3597337981362284,1.320517127587687,-0.7163523930003187,-0.3597337981362284
0.00014099999999999998,-0.21384434717481363,1.0282160601605665,-0.7675924996405094,-0.21384434717481363
0.00014199999999999998,-0.10919057914497432,0.6523308790304164,-0.8096758302936593,-0.10919057914497432
0.000143,-0.05389200216474435,0.24089712079544925,-0.8377390627850895,-0.05389200216474435
0.000144,-0.04974910803964176,-0.17073316469375519,-0.8319090221748178,-0.04974910803964176
0.000145,-0.0948805179619227,-0.5510529866285253,-0.8219790109018705,-0.0948805179619227
0.000146,-0.18309410085446629,-0.8660078137603415,-0.8793261498745251,-0.18309410085446629
0.000147,-0.3067134665529318,-1.1309717947035371,-0.920582676619955,-0.3067134665529318
0.000148,-0.45894118814162665,-1.3184454142971525,-0.9347824743995264,-0.45894118814162665
0.000149,-0.6282280323989312,-1.4075882769835406,-0.9403819903951346,-0.6282280323989312
0.00015,-0.8023472049975761,-1.394751140052801,-0.9449710796411116,-0.8023472049975761
0.00015099999999999998,-0.9689158423633564,-1.2845181733007316,-0.9236810021159853,-0.9689158423633564
0.00015199999999999998,-1.1163817324803245,-1.0943508454151891,-0.891313106573018,-1.1163817324803245
0.000153,-1.234899527595838,-0.8161855888660532,-0.8037725914709242,-1.234899527595838
0.000154,-1.313856857483534,-0.4475034719685518,-0.6800067831608221,-1.313856857483534
0.000155,-1.3412541949956633,0.0010302050042796755,-0.5124321046538824,-1.3412541949956633
0.000156,-1.310200826078687,0.5061415126463338,-0.38966461436798105,-1.310200826078687
0.000157,-1.2155534472535612,1.0161540612727256,-0.3345061794631269,-1.2155534472535612
0.000158,-1.0621523592335838,1.4467415392102136,-0.27112822739006215,-1.0621523592335838
0.000159,-0.8623496575011318,1.780788782630676,-0.18662822398812645,-0.8623496575011318
0.00015999999999999999,-0.6266439452709027,2.0143333208582574,-0.11933587442709762,-0.6266439452709027
0.00016099999999999998,-0.36991219112242113,2.12216681565314,-0.10938900324800946,-0.36991219112242113
0.00016199999999999998,-0.1089339626631276,2.0794959467467247,-0.11898610593846323,-0.1089339626631276
0.000163,0.13751224614403681,1.8909069159396639,-0.11287686531565211,0.13751224614403681
0.000164,0.35271727127006414,1.576963707861457,-0.10885035781438976,0.35271727127006414
0.000165,0.5232768560972147,1.1708405913625457,-0.11057206448538115,0.5232768560972147
0.000166,0.6391445489232968,0.7000634640323803,-0.1239926992686657,0.6391445489232968
0.000167,0.694901517076876,0.20316126792134873,-0.16619735896202179,0.694901517076876
0.000168,0.6898413263751874,-0.28852660744560615,-0.23253123550942645,0.6898413263751874
0.000169,0.6235639643796117,-0.7773646634847856,-0.317455646246677,0.6235639643796117
0.00016999999999999999,0.4989569672715179,-1.2307578098232954,-0.3487571838217981,0.4989569672715179
0.00017099999999999998,0.32394646733292,-1.5834658738191292,-0.37025974864241196,0.32394646733292
0.00017199999999999998,0.11282045034249819,-1.8139213609426397,-0.3827060473715531,0.11282045034249819
0.000173,-0.11859236526013651,-1.9146961304319479,-0.4102995006526772,-0.11859236526013651
0.000174,-0.3540307312700079,-1.8775435086705574,-0.42857382649333664,-0.3540307312700079
0.000175,-0.5768696599350954,-1.7126960283633645,-0.4819456653975365,-0.5768696599350954
0.000176,-0.7736744086201728,-1.460308098204714,-0.5096837251489169,-0.7736744086201728
0.000177,-0.934564278934215,-1.1396029681659312,-0.5080023928880195,-0.934564278934215
0.000178,-1.051435102209439,-0.741736375433187,-0.4524536260218245,-1.051435102209439
0.000179,-1.115936987493576,-0.29656123050739014,-0.42508858011052036,-1.115936987493576
0.00017999999999999998,-1.1250030172094192,0.14671267441094438,-0.403083074410422,-1.1250030172094192
0.00018099999999999998,-1.080455590747413,0.5697497419399663,-0.36146084611260076,-1.080455590747413
0.00018199999999999998,-0.986139417410013,0.9529354650398654,-0.28938861312999103,-0.986139417410013
0.000183,-0.846662320656123,1.2913773987276906,-0.23006837200167127,-0.846662320656123
0.000184,-0.6704982093528555,1.543525451791762,-0.19526260103495488,-0.6704982093528555
0.000185,-0.4699135631619128,1.6849354120905016,-0.23167416082859713,-0.4699135631619128
0.000186,-0.26139493495785115,1.669499492851365,-0.295399276713772,-0.26139493495785115
0.000187,-0.06374074258192466,1.5082287014210116,-0.3309302710214629,-0.06374074258192466
0.000188,0.10683377850949445,1.236380068417824,-0.3255787938674507,0.10683377850949445
0.00018899999999999999,0.23902744212590046,0.8977438901788476,-0.3038235325352906,0.23902744212590046
0.00018999999999999998,0.3267948211330522,0.525361126426739,-0.21331175136872652,0.3267948211330522
0.00019099999999999998,0.3711911705588653,0.2088774353052684,-0.07214982219740668,0.3711911705588653
0.000192,0.3801819561088587,-0.06182355789296329,0.03853619765004151,0.3801819561088587
0.000193,0.35913863171516175,-0.2654759273512645,0.04792270197350608,0.35913863171516175
0.000194,0.3161182062720046,-0.43121710406106306,-0.01778340491530157,0.3161182062720046
0.000195,0.2531318731475138,-0.5801850361594156,-0.09860004158426088,0.2531318731475138
0.000196,0.17334069884646608,-0.7149875602718083,-0.13643926231973003,0.17334069884646608
0.000197,0.0780992644091276,-0.8191442030938446,-0.16619449944447354,0.0780992644091276
0.000198,-0.027016133941951497,-0.8768271417148393,-0.2493373602106334,-0.027016133941951497
0.00019899999999999999,-0.13771840646114858,-0.913295475996529,-0.32573292367486145,-0.13771840646114858
0.00019999999999999998,-0.2511985928231137,-0.9174799743667924,-0.34533044322936257,-0.2511985928231137
0.00020099999999999998,-0.3619870659587662,-0.8687334669116412,-0.3644462687039999,-0.3619870659587662
0.000202,-0.4637613858709429,-0.7709546558751401,-0.38636534268651,-0.4637613858709429
0.000203,-0.5503977629085016,-0.6243754893180663,-0.3477437627160575,-0.5503977629085016
0.000204,-0.6153929830131604,-0.41933908323153307,-0.3009154261597541,-0.6153929830131604
0.000205,-0.6526890064917719,-0.17872672296118744,-0.27029870793498995,-0.6526890064917719
0.000206,-0.6599589786598031,0.059927528114964414,-0.23585057324862196,-0.6599589786598031
0.000207,-0.6374407562458428,0.30304846622999404,-0.2056551131884285,-0.6374407562458428
0.000208,-0.5856279443034058,0.5343258860268522,-0.18203193186560396,-0.5856279443034058
0.00020899999999999998,-0.5061645077321921,0.7450472609937107,-0.12095660582490615,-0.5061645077321921
0.00020999999999999998,-0.4035539193223665,0.9069138122706377,-0.02256385528800988,-0.4035539193223665
0.00021099999999999998,-0.2839550430928864,1.0325650564897393,0.09070981866809058,-0.2839550430928864
0.000212,-0.1477288713250715,1.16924724619823,0.1960385231299563,-0.1477288713250715
0.000213,0.0026966238646831207,1.259109946113828,0.3143092680821621,0.0026966238646831207
0.000214,0.1625671487240676,1.326138000471633,0.4206804986947136,0.1625671487240676
0.000215,0.3274331371602834,1.3361855267058775,0.5271607699678184,0.3274331371602834
0.000216,0.49202323165222644,1.326664238810986,0.6510187238955979,0.49202323165222644
0.000217,0.6527199725764119,1.2729455060863768,0.7932565206732458,0.6527199725764119
0.00021799999999999999,0.8074938814849844,1.2364408631592647,0.9663113244156396,0.8074938814849844
