time,V_C,I_L,V_IN,V_C
0.0,0.0,0.0,-1.067945040484694,0.0
1e-06,-0.03646813195157037,-0.5856244791730546,-1.1058364791306112,-0.03646813195157037
2e-06,-0.14317869889925647,-1.1342852267984433,-1.1445287968147226,-0.14317869889925647
3e-06,-0.3157339362207333,-1.6793143213318913,-1.1732183580771498,-0.3157339362207333
4e-06,-0.5671196327980861,-2.3990791311042368,-1.19402529965996,-0.5671196327980861
4.9999999999999996e-06,-0.8861167317325858,-2.616020636924207,-1.1798136031065043,-0.8861167317325858
6e-06,-1.1779668639825422,-2.064951150675112,-1.1397090039551865,-1.1779668639825422
7e-06,-1.3950556549599067,-1.4923318416347622,-1.1275300437750588,-1.3950556549599067
8e-06,-1.5511788993826896,-1.0352523414900923,-1.1720859771889582,-1.5511788993826896
9e-06,-1.6516952941792091,-0.6063258559503514,-1.258060447027683,-1.6516952941792091
9.999999999999999e-06,-1.7023844909008023,-0.2204497948480829,-1.3263597206814706,-1.7023844909008023
1.1e-05,-1.7082344711220019,0.12125675383060962,-1.4134439131146304,-1.7082344711220019
1.2e-05,-1.6759070138827068,0.39269348561865874,-1.5089315784944004,-1.6759070138827068
1.3e-05,-1.6159083680999118,0.5566609036598242,-1.604267267488836,-1.6159083680999118
1.4e-05,-1.5429736837208259,0.616788263955744,-1.6979032658599185,-1.5429736837208259
1.4999999999999999e-05,-1.4684583914900695,0.563842592453316,-1.827078750545128,-1.4684583914900695
1.6e-05,-1.4082274138524762,0.3998339571868303,-1.9307317723282658,-1.4082274138524762
1.7e-05,-1.3726341541510934,0.16600181116064996,-1.989122811029397,-1.3726341541510934
1.8e-05,-1.3681423578391252,-0.09163858626891493,-2.0229513559887713,-1.3681423578391252
1.8999999999999998e-05,-1.395658144684786,-0.3510729720885742,-2.0480872554083644,-1.395658144684786
1.9999999999999998e-05,-1.4536693201518245,-0.5817191454638055,-2.053441917222886,-1.4536693201518245
2.1e-05,-1.53687724297005,-0.7559007992326191,-2.0552150566395317,-1.53687724297005
2.2e-05,-1.637378810556075,-0.861243201868135,-2.112384008749505,-1.637378810556075
2.3e-05,-1.7474363193615088,-0.9113968791867983,-2.1050899676523223,-1.7474363193615088
2.4e-05,-1.8597497099065214,-0.896101687737858,-2.0648466988316505,-1.8597497099065214
2.4999999999999998e-05,-1.964998307913523,-0.7933908945071377,-2.0390048590194616,-1.964998307913523
2.6e-05,-2.0526043448195237,-0.615236451649343,-2.0180421060968072,-2.0526043448195237
2.7e-05,-2.1145720094058786,-0.3822237260863038,-1.976688431510718,-2.1145720094058786
2.8e-05,-2.1459500777477016,-0.12547133438956048,-1.946211454414739,-2.1459500777477016
2.9e-05,-2.1455259292370967,0.13082297959004055,-1.9563240486383182,-2.1455259292370967
2.9999999999999997e-05,-2.1143869974098206,0.37177439796924744,-1.9049584464126703,-2.1143869974098206
3.1e-05,-2.0538025369669537,0.6081017636716884,-1.8295757258110616,-2.0538025369669537
3.2e-05,-1.9653025136590605,0.8159771011342709,-1.729077278275214,-1.9653025136590605
3.2999999999999996e-05,-1.8541593322890084,0.9894795064597215,-1.6346981065514676,-1.8541593322890084
3.4e-05,-1.7198332249921502,1.1809736102803343,-1.4994250217842737,-1.7198332249921502
3.5e-05,-1.5642302375796282,1.331317091595083,-1.349838706934052,-1.5642302375796282
3.6e-05,-1.3907552406915447,1.477091311119682,-1.2017020732749253,-1.3907552406915447
3.7e-05,-1.2029311526367028,1.5486592890902129,-1.0866291732096616,-1.2029311526367028
3.7999999999999995e-05,-1.0079525010081738,1.6119474940243965,-0.9465041294905447,-1.0079525010081738
3.9e-05,-0.8107832468413494,1.5405398106218018,-0.7802358832828291,-0.8107832468413494
3.9999999999999996e-05,-0.6286282912136474,1.413731813602568,-0.5931502075317118,-0.6286282912136474
4.1e-05,-0.45897643077847855,1.3192441349413757,-0.44400042422002517,-0.45897643077847855
4.2e-05,-0.3021649311329778,1.2094146789158653,-0.31529467908027736,-0.3021649311329778
4.2999999999999995e-05,-0.16056738144008012,1.099610408440584,-0.14393331177838845,-0.16056738144008012
4.4e-05,-0.03005646761856734,1.000976727304361,-0.014012811864924705,-0.03005646761856734
4.4999999999999996e-05,0.08703384766197812,0.9001400924372619,0.09381751921298553,0.08703384766197812
4.6e-05,0.19294624542064737,0.806178277697764,0.22048296770557302,0.19294624542064737
4.7e-05,0.28779120229523614,0.7244091687044368,0.34345685352817173,0.28779120229523614
4.8e-05,0.37358412147231446,0.6598676247988063,0.46193506151167957,0.37358412147231446
4.9e-05,0.4526086208724512,0.6304888394756238,0.5550613423952996,0.4526086208724512
4.9999999999999996e-05,0.5283346101989239,0.5874917308196507,0.6290797860862483,0.5283346101989239
5.1e-05,0.5976561707427775,0.53575204244902,0.663842964696386,0.5976561707427775
5.2e-05,0.6606138801376015,0.48297847248544806,0.7306286673255848,0.6606138801376015
5.3e-05,0.7169095516391883,0.42999734891886016,0.786445419462996,0.7169095516391883
5.4e-05,0.7667604972883311,0.37712757929537793,0.8126212068245083,0.7667604972883311
5.4999999999999995e-05,0.809428309817148,0.31049960326202736,0.8421078641725872,0.809428309817148
5.6e-05,0.8431850921216477,0.2358395050965052,0.841995301368916,0.8431850921216477
5.6999999999999996e-05,0.86740978200118,0.15406901485424454,0.7807708766478069,0.86740978200118
5.8e-05,0.879103213989892,0.03033313107081435,0.6774847644806683,0.879103213989892
5.9e-05,0.8721263973178147,-0.14538728559747371,0.5957504958682646,0.8721263973178147
5.9999999999999995e-05,0.8416346943462824,-0.34929770858418513,0.5217119229860075,0.8416346943462824
6.1e-05,0.7855688463281804,-0.5574036785870482,0.4589258233279301,0.7855688463281804
6.2e-05,0.7049326515631665,-0.7393813555603979,0.42624587107191036,0.7049326515631665
6.3e-05,0.6048959930613804,-0.8726035627759354,0.3627839253458153,0.6048959930613804
6.4e-05,0.49075065031430665,-0.9722393479653032,0.2721109896804583,0.49075065031430665
6.5e-05,0.3664079196430504,-1.0303502595573912,0.17647730750309315,0.3664079196430504
6.599999999999999e-05,0.23882059673579134,-1.0309635065038394,0.0936573582150386,0.23882059673579134
6.7e-05,0.11202670574682898,-1.0196438376369488,0.0195844966854677,0.11202670574682898
6.8e-05,-0.01223454139157296,-0.9937099052746436,-0.053443333862714694,-0.01223454139157296
6.9e-05,-0.13008226947045917,-0.9043110367749132,-0.12031328486414763,-0.13008226947045917
7e-05,-0.23518672553154224,-0.7932597677862927,-0.18625960514139042,-0.23518672553154224
7.099999999999999e-05,-0.32560117132539185,-0.6708261047843879,-0.27128323354934497,-0.32560117132539185
7.2e-05,-0.3993523870797383,-0.5315615415793672,-0.37073191367078623,-0.3993523870797383
7.3e-05,-0.45927681422208266,-0.44145590241026644,-0.45805526047593526,-0.45927681422208266
7.4e-05,-0.509397014130045,-0.3707888434445657,-0.5649807997613917,-0.509397014130045
7.5e-05,-0.5529817696937832,-0.3503005454563315,-0.6981895272005615,-0.5529817696937832
7.599999999999999e-05,-0.5969358450159548,-0.3586163405604425,-0.8273196587447732,-0.5969358450159548
7.7e-05,-0.6439980903205483,-0.40252487484767263,-0.9213806052207933,-0.6439980903205483
7.8e-05,-0.697339215562812,-0.46315670001037246,-0.9324217390189575,-0.697339215562812
7.9e-05,-0.7571032410915044,-0.4982922794021312,-0.9337329773424392,-0.7571032410915044
7.999999999999999e-05,-0.8187481656531186,-0.4920658682808213,-0.8990415676104044,-0.8187481656531186
8.099999999999999e-05,-0.8761412236232546,-0.428985165723164,-0.8433843300914232,-0.8761412236232546
8.2e-05,-0.9218607566958763,-0.3030297566020347,-0.8162535520312287,-0.9218607566958763
8.3e-05,-0.9498576315087602,-0.14680655184900757,-0.7826881683321473,-0.9498576315087602
8.4e-05,-0.9576128816269076,0.019588412701409468,-0.8023176597010796,-0.9576128816269076
8.499999999999999e-05,-0.9458841395580969,0.16861035579586228,-0.9014334010451057,-0.9458841395580969
8.599999999999999e-05,-0.9188151528528389,0.25496304125437586,-0.9958641903594341,-0.9188151528528389
8.7e-05,-0.8871885509993931,0.23366968767038518,-1.1171421843436804,-0.8871885509993931
8.8e-05,-0.8637512946021223,0.14056445533758685,-1.2185362494385792,-0.8637512946021223
8.9e-05,-0.8553881006813084,-0.006470349360689844,-1.302238527427145,-0.8553881006813084
8.999999999999999e-05,-0.8672546234061042,-0.18665446805165406,-1.3104040821436966,-0.8672546234061042
9.099999999999999e-05,-0.9006465342738573,-0.34778819036583375,-1.267419610025021,-0.9006465342738573
9.2e-05,-0.9503550514856383,-0.4465816562391445,-1.2350504525438017,-0.9503550514856383
9.3e-05,-1.0087245411777037,-0.49188254622874833,-1.234965367004531,-1.0087245411777037
9.4e-05,-1.0704370602983702,-0.5040582506858843,-1.2743206951351889,-1.0704370602983702
9.499999999999999e-05,-1.1323197774246285,-0.49517460305279437,-1.3255163070715383,-1.1323197774246285
9.6e-05,-1.1926481821748782,-0.4820224901320593,-1.3763554685307209,-1.1926481821748782
9.7e-05,-1.2507100914874738,-0.4542300007091364,-1.4237794362531424,-1.2507100914874738
9.8e-05,-1.3045436957198935,-0.4169739260129682,-1.448905969670198,-1.3045436957198935
9.9e-05,-1.3531737009108682,-0.36697316336298197,-1.4396358044635253,-1.3531737009108682
9.999999999999999e-05,-1.3936121944823214,-0.28053031859866967,-1.4141625414664356,-1.3936121944823214
0.000101,-1.4214256717384481,-0.16763383058421424,-1.4170699842851975,-1.4214256717384481
0.000102,-1.435152602464101,-0.05925536757677193,-1.4507780270662614,-1.435152602464101
0.000103,-1.4365816327264171,0.03520755623786873,-1.4446575908316939,-1.4365816327264171
0.000104,-1.426747038331293,0.12233977911422544,-1.447524863432652,-1.426747038331293
0.00010499999999999999,-1.406785115720497,0.19733025378891286,-1.471233653883988,-1.406785115720497
0.000106,-1.3790965552857162,0.24170753213539786,-1.5189389342218864,-1.3790965552857162
0.000107,-1.3507123322301469,0.21232585258695502,-1.6160629020444035,-1.3507123322301469
0.000108,-1.3288515585688248,0.13382901313880505,-1.7219709543258985,-1.3288515585688248
0.00010899999999999999,-1.320536823849642,-0.015440927648788702,-1.815585881188019,-1.320536823849642
0.00010999999999999999,-1.3335978142197416,-0.19366211706946115,-1.8631434310055046,-1.3335978142197416
0.000111,-1.368658027888345,-0.3715789326963333,-1.8661195865737312,-1.368658027888345
0.000112,-1.4236291210318066,-0.5094994235825259,-1.8446778306566896,-1.4236291210318066
0.000113,-1.49192535476189,-0.5831396639576326,-1.7835617897510894,-1.49192535476189
0.00011399999999999999,-1.5632599013751878,-0.5567760098946543,-1.7034340698986203,-1.5632599013751878
0.00011499999999999999,-1.6270303124090542,-0.46958209673953405,-1.6217118980195386,-1.6270303124090542
0.000116,-1.6757330009203324,-0.30506676885024653,-1.5391225176873853,-1.6757330009203324
0.000117,-1.6997467067472551,-0.08003803995984386,-1.4676138803652408,-1.6997467067472551
0.000118,-1.6939175069283237,0.17320896823373524,-1.4139636143575283,-1.6939175069283237
0.00011899999999999999,-1.6565997071591598,0.4278113887651231,-1.3804065769461626,-1.6565997071591598
0.00011999999999999999,-1.5893567823707324,0.6526712701359605,-1.3786618433657323,-1.5893567823707324
0.000121,-1.4978803496966546,0.8165605607496755,-1.376808517510387,-1.4978803496966546
0.000122,-1.3906033845194636,0.9072761081489894,-1.3891980840589329,-1.3906033845194636
0.00012299999999999998,-1.2771218290416144,0.9208213228893172,-1.3747098112220448,-1.2771218290416144
0.000124,-1.1662769073678123,0.8650207585835666,-1.3553153934420363,-1.1662769073678123
0.000125,-1.0662536019534117,0.746127204058087,-1.3270844718417438,-1.0662536019534117
0.000126,-0.9826800426986902,0.6032892366673356,-1.274130646241721,-0.9826800426986902
0.000127,-0.9176359212305749,0.45070166044358667,-1.210424583202776,-0.9176359212305749
0.000128,-0.8717050728874505,0.2979267369321659,-1.1949593230451607,-0.8717050728874505
0.000129,-0.8438413660072129,0.15389956031349342,-1.1858242558940393,-0.8438413660072129
0.00013,-0.8335604281850151,0.011461262764621208,-1.1588725474847337,-0.8335604281850151
0.00013099999999999999,-0.8398856018336976,-0.11095016064066156,-1.172405135197999,-0.8398856018336976
0.00013199999999999998,-0.8606522255488106,-0.22350600397292963,-1.19600283848906,-0.8606522255488106
0.000133,-0.8948204510618113,-0.3329690010678319,-1.2850013044653676,-0.8948204510618113
0.000134,-0.9435812411731218,-0.4590233182481021,-1.4018548843698744,-0.9435812411731218
0.000135,-1.0096630887170022,-0.6070485395365225,-1.513097768741829,-1.0096630887170022
0.000136,-1.0946137561427638,-0.7634413256301084,-1.658495543403592,-1.0946137561427638
0.000137,-1.200029606930968,-0.9438669027161816,-1.8278371698042402,-1.200029606930968
0.000138,-1.3275213223448705,-1.111670870462908,-2.001362860918932,-1.3275213223448705
0.000139,-1.4772494905594395,-1.3049761328828262,-2.095571429128574,-1.4772494905594395
0.00014,-1.6477003508870214,-1.43480891010977,-2.141330727722387,-1.6477003508870214
0.00014099999999999998,-1.8270564220343677,-1.4493013390292921,-2.150501568058295,-1.8270564220343677
0.00014199999999999998,-2.0000798903555577,-1.3340796832891628,-2.151184030671975,-2.0000798903555577
0.000143,-2.152377533565666,-1.1201169265052342,-2.1649303393971766,-2.152377533565666
0.000144,-2.2743526222601127,-0.851800745118271,-2.219435793013291,-2.2743526222601127
0.000145,-2.362398862357788,-0.5726478297061258,-2.280229537151458,-2.362398862357788
0.000146,-2.416494800235453,-0.31005934362212223,-2.337584499646294,-2.416494800235453
0.000147,-2.4399828336751797,-0.07183349879585231,-2.342242470283358,-2.4399828336751797
0.000148,-2.4347998363192707,0.15288472248864493,-2.278297612375309,-2.4347998363192707
0.000149,-2.4014061986443345,0.3862170723953609,-2.1489605154730307,-2.4014061986443345
0.00015,-2.337441589018627,0.6451926781363694,-1.9932334150097604,-2.337441589018627
0.00015099999999999998,-2.2406509138164523,0.9298565965561664,-1.8701499575745593,-2.2406509138164523
0.00015199999999999998,-2.1071859422339334,1.2163835381846135,-1.7873712745680277,-2.1071859422339334
0.000153,-1.9417171888255158,1.4486163550478481,-1.6877702542601827,-1.9417171888255158
0.000154,-1.7508885673682708,1.6205731503144145,-1.5904074314743637,-1.7508885673682708
0.000155,-1.5449616062012004,1.6974240613124396,-1.5477856856155852,-1.5449616062012004
0.000156,-1.3398565926894899,1.5917684721032315,-1.4978547472746353,-1.3398565926894899
0.000157,-1.1559431967530682,1.378615282892904,-1.4178266377619466,-1.1559431967530682
0.000158,-0.9999340222470249,1.153297869343625,-1.3347947312737505,-0.9999340222470249
0.000159,-0.872007766873209,0.9134348641319062,-1.2680668659450969,-0.872007766873209
0.00015999999999999999,-0.7748494216134175,0.6583498511485705,-1.2421313886230079,-0.7748494216134175
0.00016099999999999998,-0.7098950241926945,0.39157662211923366,-1.2574867165785504,-0.7098950241926945
0.00016199999999999998,-0.6790646452103146,0.10615649735803319,-1.2514883113356223,-0.6790646452103146
0.000163,-0.6831060088323926,-0.16819217121527194,-1.244535723926998,-0.6831060088323926
0.000164,-0.7192906081937198,-0.408960017737842,-1.2267792685936378,-0.7192906081937198
0.000165,-0.7826036901200847,-0.6062339102087394,-1.1463853110893862,-0.7826036901200847
0.000166,-0.8628100751087129,-0.6698323081306116,-1.0336593595464505,-0.8628100751087129
0.000167,-0.9439308393343914,-0.6339550696111639,-0.9135944715028115,-0.9439308393343914
0.000168,-1.014407788385337,-0.4858134960319651,-0.7862843137999188,-1.014407788385337
0.000169,-1.0594451504236708,-0.24323612336499387,-0.6105486976347941,-1.0594451504236708
0.00016999999999999999,-1.06922046602243,0.11793535076491539,-0.38442224256245916,-1.06922046602243
0.00017099999999999998,-1.0274708564554222,0.5546058072767094,-0.14273063237678077,-1.0274708564554222
0.00017199999999999998,-0.9277071627430933,1.062243381711028,0.07221744673385373,-0.9277071627430933
0.000173,-0.7594878471493561,1.7042966599526739,0.19482356448202967,-0.7594878471493561
0.000174,-0.47225791875630485,3.0746338353085854,0.2852272567133003,-0.47225791875630485
0.000175,-0.03448605202164027,3.719512350058802,0.35820264085197756,-0.03448605202164027
0.000176,0.38780871102352926,2.9332653235955735,0.4279058309417222,0.38780871102352926
0.000177,0.681474988860422,1.8908338675908343,0.49268215759683,0.681474988860422
0.000178,0.878817787730638,1.355233805181771,0.461729667604741,0.878817787730638
0.000179,1.016819917375846,0.8728399016326652,0.3964347579511192,1.016819917375846
0.00017999999999999998,1.0932215453928338,0.3656440287620028,0.33881743732795144,1.0932215453928338
0.00018099999999999998,1.1064930946698557,-0.15096237825519812,0.26361246992503895,1.1064930946698557
0.00018199999999999998,1.0546380672568365,-0.696836845863792,0.15721575400372503,1.0546380672568365
0.000183,0.9357720534278179,-1.2146974415405212,0.08440987509146718,0.9357720534278179
0.000184,0.7527052720959337,-1.7846115407837502,0.02915491123223237,0.7527052720959337
0.000185,0.48402676465852584,-2.5536433358056407,-0.04383480732084103,0.48402676465852584
0.000186,0.14441521089227843,-2.7952898514596924,-0.09653587630691593,0.14441521089227843
0.000187,-0.1728212679120552,-2.251849484682649,-0.11276919698575003,-0.1728212679120552
0.000188,-0.4097084714639746,-1.628507726971416,-0.11308446797067137,-0.4097084714639746
0.00018899999999999999,-0.5827450774287376,-1.1794873891547624,-0.08696847827228964,-0.5827450774287376
0.00018999999999999998,-0.6999559871735029,-0.7148435315816393,-0.05895460079517014,-0.6999559871735029
0.00019099999999999998,-0.7587460073998888,-0.23778209467184844,-0.0559425642438011,-0.7587460073998888
0.000192,-0.7598229194775558,0.21405772363595008,-0.0929769221117868,-0.7598229194775558
0.000193,-0.7081635540870987,0.611884456215647,-0.13380167773226867,-0.7081635540870987
0.000194,-0.6118885407727892,0.9304279170764364,-0.15524101002151922,-0.6118885407727892
0.000195,-0.4823626363207076,1.151440920356248,-0.14467615672699516,-0.4823626363207076
0.000196,-0.3319242974775701,1.2680128979754257,-0.12811751737186386,-0.3319242974775701
0.000197,-0.17375218110049315,1.275973114634807,-0.1076569211750896,-0.17375218110049315
0.000198,-0.02132765581023916,1.1772059310986265,-0.12268826345234522,-0.02132765581023916
0.00019899999999999999,0.11315938608203034,0.9876151956280955,-0.16739454048038832,0.11315938608203034
0.00019999999999999998,0.2188998921898051,0.7138883775203388,-0.22241438449406706,0.2188998921898051
0.00020099999999999998,0.2868050400372282,0.3735917303495997,-0.29512526894806784,0.2868050400372282
0.000202,0.3099872126380042,0.002993183255200186,-0.33383895913956246,0.3099872126380042
0.000203,0.28763555180930567,-0.362454712146228,-0.34193731388921833,0.28763555180930567
0.000204,0.22172659841114692,-0.6961436480296003,-0.33185109884591546,0.22172659841114692
0.000205,0.11931331561610627,-0.9464047235416561,-0.2921525103260545,0.11931331561610627
0.000206,-0.007575123010831339,-1.0858716161212347,-0.19465311914510905,-0.007575123010831339
0.000207,-0.14186688116480906,-1.0648068494802434,-0.12781620202440944,-0.14186688116480906
0.000208,-0.2659642939541955,-0.9341104408156705,-0.14086161913836343,-0.2659642939541955
0.00020899999999999998,-0.37022581421707834,-0.7480500734079624,-0.1618599653019626,-0.37022581421707834
0.00020999999999999998,-0.44933131785826325,-0.528887164552896,-0.18309364219189941,-0.44933131785826325
0.00021099999999999998,-0.5004658620020925,-0.30202639195769393,-0.22463719558883882,-0.5004658620020925
0.000212,-0.5244628804615873,-0.08704178478343534,-0.2967868548484908,-0.5244628804615873
0.000213,-0.524226550215361,0.08531541156670153,-0.3761280829680724,-0.524226550215361
0.000214,-0.5062607691520693,0.19845549628828518,-0.4432335897207361,-0.5062607691520693
0.000215,-0.47796419593182626,0.2527438363009851,-0.4925312681942014,-0.47796419593182626
0.000216,-0.44598025670597324,0.2585966673295856,-0.46776592282285795,-0.44598025670597324
0.000217,-0.4143033823025592,0.2517774844321455,-0.46227184845634123,-0.4143033823025592
