time,V_C,I_L,V_IN,V_C
0.0,0.0,0.0,0.4631206755254206,0.0
1e-06,0.014825160467306064,0.23566441313472244,0.5829116264540315,0.014825160467306064
2e-06,0.06029204803678437,0.5051767499101746,0.6833150855901764,0.06029204803678437
3e-06,0.139841436508192,0.7664833213567263,0.7462863321126243,0.139841436508192
4e-06,0.24889984970884163,0.9955413799271247,0.8510246673186493,0.24889984970884163
4.9999999999999996e-06,0.38501148115001677,1.1943055136719423,0.9318480276893284,0.38501148115001677
6e-06,0.5407945107099791,1.322957363829974,0.9777919869308039,0.5407945107099791
7e-06,0.7083965388868249,1.379236048225449,0.9859997855360996,0.7083965388868249
8e-06,0.8778698594857752,1.3442576297929765,0.9767572462610404,0.8778698594857752
9e-06,1.0367578546470795,1.211459377601162,0.9688652278887233,1.0367578546470795
9.999999999999999e-06,1.1737834563034781,0.9960145198669904,0.9674768462108853,1.1737834563034781
1.1e-05,1.2802609702588301,0.7251945458556094,0.99285537414846,1.2802609702588301
1.2e-05,1.3513978949009033,0.42343421601790254,1.0616026904463354,1.3513978949009033
1.3e-05,1.386134338150071,0.14698771390296086,1.1107424023129662,1.386134338150071
1.4e-05,1.3892450972054213,-0.09332302425371695,1.0986015829416018,1.3892450972054213
1.4999999999999999e-05,1.3628708851387916,-0.33338266074396544,1.0330752790076816,1.3628708851387916
1.6e-05,1.3074195739850853,-0.5615692824777356,0.9310276910945807,1.3074195739850853
1.7e-05,1.2237071139873164,-0.7982260742735349,0.792604003893556,1.2237071139873164
1.8e-05,1.1106840244917324,-1.0233828512850789,0.6795452130893701,1.1106840244917324
1.8999999999999998e-05,0.9719163027478975,-1.2229258562418621,0.5691341701105406,0.9719163027478975
1.9999999999999998e-05,0.8106188677800495,-1.3748770427603976,0.4603747854092556,0.8106188677800495
2.1e-05,0.6355822718221503,-1.458961464201072,0.35349086338260466,0.6355822718221503
2.2e-05,0.45014843558275885,-1.5374169013214984,0.21517145102657648,0.45014843558275885
2.3e-05,0.2586576581902598,-1.552584969827304,0.06889351074979908,0.2586576581902598
2.4e-05,0.06907771201151904,-1.516810939101366,-0.03575225167910657,0.06907771201151904
2.4999999999999998e-05,-0.11457864895596859,-1.4456262022681374,-0.10389649641726514,-0.11457864895596859
2.6e-05,-0.2851653043417244,-1.3018423618925998,-0.15495193486508538,-0.2851653043417244
2.7e-05,-0.43352279814362776,-1.0932213840443028,-0.15743748169878297,-0.43352279814362776
2.8e-05,-0.5529744343744283,-0.8337834701979165,-0.1859136240068283,-0.5529744343744283
2.9e-05,-0.6377575851155566,-0.5356658222512616,-0.22884971785815938,-0.6377575851155566
2.9999999999999997e-05,-0.6859684484352147,-0.24982639751564265,-0.2928802422388094,-0.6859684484352147
3.1e-05,-0.7000852547989844,0.02028012989973939,-0.41120417055444636,-0.7000852547989844
3.2e-05,-0.6839585401845224,0.22559729049691937,-0.4679030763519469,-0.6839585401845224
3.2999999999999996e-05,-0.6473102131742219,0.35647858107060165,-0.4958794117334346,-0.6473102131742219
3.4e-05,-0.5976392110202001,0.44231555001767714,-0.5276147432008177,-0.5976392110202001
3.5e-05,-0.5403552302843828,0.47733721858092365,-0.4942771068205566,-0.5403552302843828
3.6e-05,-0.4803216402109931,0.49694794731544856,-0.4287703944041086,-0.4803216402109931
3.7e-05,-0.4177229694171623,0.5158405884273115,-0.35912350702420237,-0.4177229694171623
3.7999999999999995e-05,-0.35266036191585365,0.5369624844014806,-0.31192762749848557,-0.35266036191585365
3.9e-05,-0.2862673704285986,0.5349222025393702,-0.2827215541148607,-0.2862673704285986
3.9999999999999996e-05,-0.22178249601963837,0.5031440133635962,-0.29321741366487614,-0.22178249601963837
4.1e-05,-0.16363083699253833,0.4338823174383597,-0.29029529052912306,-0.16363083699253833
4.2e-05,-0.11568321566771562,0.339144495607731,-0.28997992751148993,-0.11568321566771562
4.2999999999999995e-05,-0.08069317361277538,0.22558674101543455,-0.27729907808602017,-0.08069317361277538
4.4e-05,-0.059661962727828116,0.11938954921451506,-0.22720708164607112,-0.059661962727828116
4.4999999999999996e-05,-0.05062973632343009,0.02947758248893273,-0.16535168834419714,-0.05062973632343009
4.6e-05,-0.0506434280801025,-0.027067996532948568,-0.10093403016255972,-0.0506434280801025
4.7e-05,-0.05524720942131809,-0.04721746559491962,-0.04215923817729718,-0.05524720942131809
4.8e-05,-0.06039465432701668,-0.0325628902737835,-0.005592243222869374,-0.06039465432701668
4.9e-05,-0.061894186178876084,0.014184539996644333,0.05544938561715553,-0.061894186178876084
4.9999999999999996e-05,-0.05625263340394423,0.07542557276154949,0.16158457030861756,-0.05625263340394423
5.1e-05,-0.04123270768205534,0.17791197971623618,0.28792790185536343,-0.04123270768205534
5.2e-05,-0.009450722439565191,0.33282927140561586,0.41527385659525623,-0.009450722439565191
5.3e-05,0.04315508772451882,0.5187370846622591,0.4930192511566022,0.04315508772451882
5.4e-05,0.118868214494306,0.6994942814844443,0.512692912164282,0.118868214494306
5.4999999999999995e-05,0.21383474230700203,0.8279959284853082,0.48738047138904095,0.21383474230700203
5.6e-05,0.3200648259742584,0.8787208562094371,0.48613582948861367,0.3200648259742584
5.6999999999999996e-05,0.42802149835814524,0.8611626613540652,0.4931208883504155,0.42802149835814524
5.8e-05,0.5305985419661858,0.7936626673140079,0.5277728956179766,0.5305985419661858
5.9e-05,0.6224377332141443,0.6872675416348999,0.5367300177123426,0.6224377332141443
5.9999999999999995e-05,0.6983557546704151,0.5365132759210952,0.5230828521240156,0.6983557546704151
6.1e-05,0.7534428733491944,0.3516154746680977,0.5144421698753046,0.7534428733491944
6.2e-05,0.7847454501113746,0.15459658583200456,0.5308898202602903,0.7847454501113746
6.3e-05,0.7916839601405213,-0.03963611127204111,0.5503142496762303,0.7916839601405213
6.4e-05,0.7760628160928478,-0.20816223585252833,0.5690430070861761,0.7760628160928478
6.5e-05,0.7417637256568713,-0.3408938839587014,0.5837135377960301,0.7417637256568713
6.599999999999999e-05,0.6931935197893108,-0.4387816386886845,0.5884735123675195,0.6931935197893108
6.7e-05,0.634939967418009,-0.5003322153401507,0.5579575214177471,0.634939967418009
6.8e-05,0.5703120869992225,-0.5430588750201247,0.5216206563148398,0.5703120869992225
6.9e-05,0.5021589037815304,-0.5568708944188395,0.4821944265873058,0.5021589037815304
7e-05,0.4334926363675333,-0.5526136193491389,0.44647253439573326,0.4334926363675333
7.099999999999999e-05,0.3667972747461134,-0.52182518536622,0.42193537211146365,0.3667972747461134
7.2e-05,0.3058227983875865,-0.46467434300209004,0.3815701534338528,0.3058227983875865
7.3e-05,0.251688310510699,-0.41123594093710913,0.33573003582546435,0.251688310510699
7.4e-05,0.20464086778147192,-0.3492721421640437,0.28898897872593154,0.20464086778147192
7.5e-05,0.16570284139786412,-0.281547139389913,0.2635868205529135,0.16570284139786412
7.599999999999999e-05,0.13525712898537445,-0.21221004434491778,0.2585791228962282,0.13525712898537445
7.7e-05,0.11336869781976833,-0.1420804171434095,0.23488974589647707,0.11336869781976833
7.8e-05,0.0998661614806731,-0.07604390143889653,0.23905237275288785,0.0998661614806731
7.9e-05,0.09547847223282861,0.007310753579423808,0.29287356938429415,0.09547847223282861
7.999999999999999e-05,0.10226992178701043,0.1031979454672588,0.30147414766336084,0.10226992178701043
8.099999999999999e-05,0.12046496995939535,0.18818130876055986,0.2660197758073971,0.12046496995939535
8.2e-05,0.14695287622289518,0.23735743753697228,0.20147109088005194,0.14695287622289518
8.3e-05,0.1766393335694055,0.23055812535564402,0.14419687675579215,0.1766393335694055
8.4e-05,0.2021416070061149,0.18017980613914308,0.13992119337137643,0.2021416070061149
8.499999999999999e-05,0.22067309589972872,0.1187522366628264,0.14159478744553927,0.22067309589972872
8.599999999999999e-05,0.23129369704193486,0.05236744012313138,0.12680757462801534,0.23129369704193486
8.7e-05,0.23321630443512448,-0.02166061891890512,0.12207282123563452,0.23321630443512448
8.8e-05,0.22610096877636782,-0.09292192547101806,0.11270650786354938,0.22610096877636782
8.9e-05,0.21074135324503618,-0.15205257668102826,0.1343790289632858,0.21074135324503618
8.999999999999999e-05,0.18944311322092888,-0.18990568354896073,0.17829433188741267,0.18944311322092888
9.099999999999999e-05,0.16560726189743596,-0.19270437356568618,0.2505361900716461,0.16560726189743596
9.2e-05,0.1441631607564106,-0.1437855258860081,0.32226940056564607,0.1441631607564106
9.3e-05,0.13234237166376156,-0.047483068909911046,0.4681789148726154,0.13234237166376156
9.4e-05,0.13648323313435132,0.14017802792831552,0.6358039032680558,0.13648323313435132
9.499999999999999e-05,0.16844380057853528,0.3724556142032242,0.7950935236743074,0.16844380057853528
9.6e-05,0.23041604895762846,0.6351758783330571,0.9198357611678549,0.23041604895762846
9.7e-05,0.32586912036831506,0.9137411438349531,0.9896084608296597,0.32586912036831506
9.8e-05,0.4540331551512395,1.1482092251075042,1.0097450307953875,0.4540331551512395
9.9e-05,0.6058643080144422,1.2954939953706957,1.0032943552425775,0.6058643080144422
9.999999999999999e-05,0.7695626194150664,1.3385696707495705,0.9688440129772766,0.7695626194150664
0.000101,0.9321735580911346,1.2752075977895465,0.9293483357550031,0.9321735580911346
0.000102,1.0792147261772613,1.0902138554257839,0.8724139978542483,1.0792147261772613
0.000103,1.1971005594883621,0.8036248057560567,0.8376738540829413,1.1971005594883621
0.000104,1.275937392640702,0.46631845302176167,0.8287779890535643,1.275937392640702
0.00010499999999999999,1.3115242492180132,0.10919417340339255,0.8104708322754266,1.3115242492180132
0.000106,1.3030878206453367,-0.23991098189189733,0.816699465554626,1.3030878206453367
0.000107,1.2536132359296452,-0.552206538180588,0.8258423292936188,1.2536132359296452
0.000108,1.1696019245155775,-0.7975126575324394,0.8620731471726468,1.1696019245155775
0.00010899999999999999,1.0613509053583003,-0.941709559530813,0.9147854476807854,1.0613509053583003
0.00010999999999999999,0.9407718047005441,-0.9928626654146276,0.9796916874807554,0.9407718047005441
0.000111,0.8198466880375168,-0.9460120657031689,1.004992595952746,0.8198466880375168
0.000112,0.7101408530171286,-0.8223517898924991,1.019666685712636,0.7101408530171286
0.000113,0.6198132148979901,-0.6315584881531744,1.060550665885922,0.6198132148979901
0.00011399999999999999,0.5567001055210029,-0.3852986553826397,1.0638399254252682,0.5567001055210029
0.00011499999999999999,0.5251249519065451,-0.12651613693152863,0.981648253461864,0.5251249519065451
0.000116,0.5227643402687914,0.08432051296819688,0.8174503327931426,0.5227643402687914
0.000117,0.5404101730639699,0.19574112859468829,0.5734177911424908,0.5404101730639699
0.000118,0.5631007452405019,0.15169264352930376,0.2846177525666677,0.5631007452405019
0.00011899999999999999,0.5695759919298736,-0.05654195089850556,0.024612809404144034,0.5695759919298736
0.00011999999999999999,0.5430504665212393,-0.3918919518985707,-0.16228021943948717,0.5430504665212393
0.000121,0.4718373150397876,-0.7534596943967392,-0.3186762171909093,0.4718373150397876
0.000122,0.3558760425408664,-1.1275849788059669,-0.4415370659272684,0.3558760425408664
0.00012299999999999998,0.19540830358350192,-1.4548756553735764,-0.5417595896509455,0.19540830358350192
0.000124,-0.0006386906421814745,-1.7072734982973632,-0.6232251399200835,-0.0006386906421814745
0.000125,-0.22236475171342837,-1.8709441431172775,-0.6927121716515832,-0.22236475171342837
0.000126,-0.4576860712302164,-1.9175198380403968,-0.7483053145184947,-0.4576860712302164
0.000127,-0.6914851876319404,-1.8519195730211235,-0.785989982625235,-0.6914851876319404
0.000128,-0.910877314673768,-1.685275075957713,-0.8345859232373293,-0.910877314673768
0.000129,-1.1038376797887086,-1.420564545138898,-0.8412455511034833,-1.1038376797887086
0.00013,-1.2593537625163078,-1.0854653604907012,-0.8088006733295547,-1.2593537625163078
0.00013099999999999999,-1.3689429997217657,-0.6890435371847384,-0.7689738890107833,-1.3689429997217657
0.00013199999999999998,-1.4261526514421925,-0.23132860788904067,-0.7135448758884062,-1.4261526514421925
0.000133,-1.4248992822445783,0.2513034269084599,-0.6805431834227537,-1.4248992822445783
0.000134,-1.3655120190240067,0.6990290060767491,-0.6669366426059474,-1.3655120190240067
0.000135,-1.2550894719031707,1.077222303828691,-0.6512559363450909,-1.2550894719031707
0.000136,-1.1035404113423024,1.3598644377007527,-0.6410663000710758,-1.1035404113423024
0.000137,-0.9234860999898383,1.5382274919826753,-0.6469796059126908,-0.9234860999898383
0.000138,-0.7289451173646231,1.5926065608986475,-0.6736089061069928,-0.7289451173646231
0.000139,-0.5356710506241801,1.5141687863228956,-0.7043865939690734,-0.5356710506241801
0.00014,-0.35973379814230655,1.3205171275994665,-0.7163523930003187,-0.35973379814230655
0.00014099999999999998,-0.21384434717926787,1.0282160601749668,-0.7675924996405094,-0.21384434717926787
0.00014199999999999998,-0.10919057914754736,0.6523308790462461,-0.8096758302936593,-0.10919057914754736
0.000143,-0.05389200216535109,0.2408971208112923,-0.8377390627850895,-0.05389200216535109
0.000144,-0.04974910803834613,-0.1707331646789602,-0.8319090221748177,-0.04974910803834613
0.000145,-0.09488051795892286,-0.5510529866159226,-0.8219790109018705,-0.09488051795892286
0.000146,-0.1830941008500794,-0.8660078137505042,-0.8793261498745251,-0.1830941008500794
0.000147,-0.30671346654751885,-1.1309717946967968,-0.9205826766199549,-0.30671346654751885
0.000148,-0.4589411881356059,-1.3184454142941162,-0.9347824743995263,-0.4589411881356059
0.000149,-0.6282280323927633,-1.407588276984159,-0.9403819903951345,-0.6282280323927633
0.00015,-0.8023472049917023,-1.3947511400569386,-0.9449710796411115,-0.8023472049917023
0.00015099999999999998,-0.9689158423581795,-1.284518173307775,-0.9236810021159849,-0.9689158423581795
0.00015199999999999998,-1.1163817324761756,-1.0943508454245983,-0.8913131065730179,-1.1163817324761756
0.000153,-1.234899527592968,-0.816185588877262,-0.8037725914709244,-1.234899527592968
0.000154,-1.3138568574821525,-0.4475034719816156,-0.6800067831608222,-1.3138568574821525
0.000155,-1.3412541949959145,0.0010302049910281645,-0.5124321046538824,-1.3412541949959145
0.000156,-1.3102008260806781,0.5061415126317813,-0.38966461436798105,-1.3102008260806781
0.000157,-1.2155534472572664,1.0161540612596374,-0.33450617946312694,-1.2155534472572664
0.000158,-1.0621523592387214,1.4467415392003218,-0.27112822739006226,-1.0621523592387214
0.000159,-0.8623496575073536,1.7807887826226283,-0.18662822398812656,-0.8623496575073536
0.00015999999999999999,-0.6266439452779052,2.0143333208537335,-0.11933587442709774,-0.6266439452779052
0.00016099999999999998,-0.36991219112977575,2.1221668156523608,-0.1093890032480096,-0.36991219112977575
0.00016199999999999998,-0.10893396267031896,2.0794959467500993,-0.11898610593846334,-0.10893396267031896
0.000163,0.13751224613750976,1.8909069159469458,-0.11287686531565225,0.13751224613750976
0.000164,0.35271727126462543,1.5769637078717313,-0.10885035781438993,0.35271727126462543
0.000165,0.5232768560931919,1.1708405913750257,-0.11057206448538129,0.5232768560931919
0.000166,0.6391445489209169,0.7000634640462443,-0.12399269926866581,0.6391445489209169
0.000167,0.6949015170762086,0.2031612679352435,-0.16619735896202187,0.6949015170762086
0.000168,0.6898413263762551,-0.28852660743153496,-0.23253123550942653,0.6898413263762551
0.000169,0.6235639643824407,-0.7773646634705847,-0.31745564624667705,0.6235639643824407
0.00016999999999999999,0.49895696727600103,-1.230757809810818,-0.34875718382179816,0.49895696727600103
0.00017099999999999998,0.3239464673387391,-1.583465873810188,-0.370259748642412,0.3239464673387391
0.00017199999999999998,0.11282045034919115,-1.8139213609373368,-0.38270604737155317,0.11282045034919115
0.000173,-0.11859236525303511,-1.9146961304305765,-0.4102995006526772,-0.11859236525303511
0.000174,-0.3540307312629931,-1.8775435086734766,-0.4285738264933368,-0.3540307312629931
0.000175,-0.5768696599286363,-1.7126960283693924,-0.4819456653975366,-0.5768696599286363
0.000176,-0.7736744086146039,-1.4603080982128178,-0.509683725148917,-0.7736744086146039
0.000177,-0.9345642789297784,-1.1396029681761541,-0.5080023928880195,-0.9345642789297784
0.000178,-1.0514351022064343,-0.7417363754460741,-0.45245362602182465,-1.0514351022064343
0.000179,-1.1159369874922132,-0.2965612305209637,-0.4250885801105205,-1.1159369874922132
0.00017999999999999998,-1.1250030172097403,0.14671267439763383,-0.403083074410422,-1.1250030172097403
0.00018099999999999998,-1.080455590749321,0.5697497419274281,-0.3614608461126008,-1.080455590749321
0.00018199999999999998,-0.9861394174134331,0.9529354650282752,-0.28938861312999103,-0.9861394174134331
0.000183,-0.8466623206608844,1.2913773987177046,-0.23006837200167132,-0.8466623206608844
0.000184,-0.670498209358653,1.5435254517851236,-0.1952626010349549,-0.670498209358653
0.000185,-0.46991356316830507,1.684935412087718,-0.23167416082859713,-0.46991356316830507
0.000186,-0.261394934964275,1.6694994928539344,-0.29539927671377203,-0.261394934964275
0.000187,-0.06374074258778221,1.5082287014273603,-0.33093027102146294,-0.06374074258778221
0.000188,0.10683377850462404,1.2363800684272188,-0.3255787938674507,0.10683377850462404
0.00018899999999999999,0.23902744212231042,0.8977438901897367,-0.3038235325352906,0.23902744212231042
0.00018999999999999998,0.3267948211308554,0.5253611264379054,-0.21331175136872654,0.3267948211308554
0.00019099999999999998,0.3711911705578596,0.2088774353135833,-0.07214982219740675,0.3711911705578596
0.000192,0.3801819561088692,-0.06182355788513879,0.03853619765004143,0.3801819561088692
0.000193,0.35913863171595806,-0.2654759273457668,0.047922701973505996,0.35913863171595806
0.000194,0.3161182062734519,-0.4312171040555736,-0.017783404915301643,0.3161182062734519
0.000195,0.253131873149568,-0.5801850361551363,-0.09860004158426093,0.253131873149568
0.000196,0.17334069884906605,-0.7149875602673438,-0.13643926231973008,0.17334069884906605
0.000197,0.07809926441217498,-0.8191442030909517,-0.16619449944447356,0.07809926441217498
0.000198,-0.027016133938639088,-0.8768271417131356,-0.24933736021063346,-0.027016133938639088
0.00019899999999999999,-0.1377184064576596,-0.9132954759955044,-0.32573292367486145,-0.1377184064576596
0.00019999999999999998,-0.25119859281958234,-0.9174799743672798,-0.34533044322936246,-0.25119859281958234
0.00020099999999999998,-0.36198706595540053,-0.8687334669138128,-0.3644462687039999,-0.36198706595540053
0.000202,-0.4637613858679395,-0.7709546558788359,-0.38636534268650996,-0.4637613858679395
0.000203,-0.5503977629060561,-0.6243754893233747,-0.34774376271605745,-0.5503977629060561
0.000204,-0.6153929830114843,-0.41933908323860086,-0.3009154261597541,-0.6153929830114843
0.000205,-0.652689006490991,-0.17872672296859501,-0.27029870793498995,-0.652689006490991
0.000206,-0.6599589786599488,0.0599275281076718,-0.23585057324862196,-0.6599589786599488
0.000207,-0.6374407562468873,0.3030484662226815,-0.2056551131884285,-0.6374407562468873
0.000208,-0.5856279443053258,0.5343258860201443,-0.18203193186560393,-0.5856279443053258
0.00020899999999999998,-0.5061645077348849,0.7450472609879762,-0.12095660582490615,-0.5061645077348849
0.00020999999999999998,-0.4035539193256406,0.9069138122668479,-0.022563855288009943,-0.4035539193256406
0.00021099999999999998,-0.2839550430966216,1.0325650564861457,0.09070981866809048,-0.2839550430966216
0.000212,-0.14772887132922558,1.1692472461950854,0.19603852312995615,-0.14772887132922558
0.000213,0.0026966238602681436,1.2591099461123298,0.31430926808216186,0.0026966238602681436
0.000214,0.16256714871951672,1.3261380004710852,0.4206804986947133,0.16256714871951672
0.000215,0.32743313715578276,1.336185526706827,0.527160769967818,0.32743313715578276
0.000216,0.4920232316478771,1.3266642388125869,0.6510187238955977,0.4920232316478771
0.000217,0.652719972572338,1.2729455060886308,0.7932565206732456,0.652719972572338
0.00021799999999999999,0.807493881481162,1.2364408631612085,0.9663113244156394,0.807493881481162
