time,V_C,I_L,V_IN,V_C
0.0,0.0,0.0,-1.067945040484694,0.0
1e-06,-0.03646813195157026,-0.5856244791730545,-1.1058364791306112,-0.03646813195157026
2e-06,-0.1431786988992565,-1.134285226798443,-1.1445287968147224,-0.1431786988992565
3e-06,-0.31573393622073337,-1.67931432133189,-1.1732183580771498,-0.31573393622073337
4e-06,-0.5671196327980857,-2.399079131104234,-1.19402529965996,-0.5671196327980857
4.9999999999999996e-06,-0.8861167317325851,-2.616020636924208,-1.1798136031065043,-0.8861167317325851
6e-06,-1.1779668639825418,-2.0649511506751126,-1.1397090039551863,-1.1779668639825418
7e-06,-1.3950556549599067,-1.4923318416347635,-1.1275300437750586,-1.3950556549599067
8e-06,-1.5511788993826892,-1.0352523414900934,-1.172085977188958,-1.5511788993826892
9e-06,-1.6516952941792094,-0.6063258559503555,-1.2580604470276828,-1.6516952941792094
9.999999999999999e-06,-1.7023844909008035,-0.22044979484809094,-1.3263597206814703,-1.7023844909008035
1.1e-05,-1.7082344711220034,0.12125675383059958,-1.4134439131146301,-1.7082344711220034
1.2e-05,-1.67590701388271,0.392693485618642,-1.5089315784944002,-1.67590701388271
1.3e-05,-1.615908368099918,0.5566609036597862,-1.6042672674888359,-1.615908368099918
1.4e-05,-1.5429736837208368,0.616788263955711,-1.697903265859918,-1.5429736837208368
1.4999999999999999e-05,-1.4684583914900864,0.5638425924532544,-1.8270787505451274,-1.4684583914900864
1.6e-05,-1.4082274138525002,0.3998339571867684,-1.9307317723282655,-1.4082274138525002
1.7e-05,-1.3726341541511247,0.1660018111605974,-1.9891228110293961,-1.3726341541511247
1.8e-05,-1.3681423578391618,-0.09163858626894779,-2.022951355988771,-1.3681423578391618
1.8999999999999998e-05,-1.3956581446848253,-0.35107297208858235,-2.048087255408364,-1.3956581446848253
1.9999999999999998e-05,-1.4536693201518631,-0.5817191454637889,-2.0534419172228855,-1.4536693201518631
2.1e-05,-1.5368772429700852,-0.7559007992325791,-2.0552150566395317,-1.5368772429700852
2.2e-05,-1.637378810556104,-0.8612432018680773,-2.112384008749505,-1.637378810556104
2.3e-05,-1.7474363193615299,-0.9113968791867322,-2.1050899676523227,-1.7474363193615299
2.4e-05,-1.859749709906534,-0.8961016877377839,-2.064846698831651,-1.859749709906534
2.4999999999999998e-05,-1.9649983079135258,-0.7933908945070578,-2.039004859019462,-1.9649983079135258
2.6e-05,-2.0526043448195166,-0.6152364516492635,-2.0180421060968072,-2.0526043448195166
2.7e-05,-2.114572009405862,-0.38222372608622934,-1.976688431510718,-2.114572009405862
2.8e-05,-2.1459500777476768,-0.1254713343895024,-1.946211454414739,-2.1459500777476768
2.9e-05,-2.145525929237066,0.1308229795900843,-1.9563240486383187,-2.145525929237066
2.9999999999999997e-05,-2.1143869974097855,0.3717743979692815,-1.9049584464126703,-2.1143869974097855
3.1e-05,-2.0538025369669133,0.6081017636717346,-1.8295757258110616,-2.0538025369669133
3.2e-05,-1.965302513659016,0.8159771011342988,-1.729077278275214,-1.965302513659016
3.2999999999999996e-05,-1.8541593322889574,0.9894795064598075,-1.6346981065514672,-1.8541593322889574
3.4e-05,-1.7198332249920838,1.1809736102804853,-1.4994250217842735,-1.7198332249920838
3.5e-05,-1.5642302375795447,1.331317091595255,-1.3498387069340518,-1.5642302375795447
3.6e-05,-1.3907552406914334,1.4770913111199206,-1.2017020732749253,-1.3907552406914334
3.7e-05,-1.2029311526365665,1.548659289090416,-1.0866291732096616,-1.2029311526365665
3.7999999999999995e-05,-1.0079525010080026,1.6119474940247187,-0.9465041294905443,-1.0079525010080026
3.9e-05,-0.8107832468411578,1.5405398106218577,-0.7802358832828288,-0.8107832468411578
3.9999999999999996e-05,-0.6286282912134433,1.4137318136027253,-0.5931502075317114,-0.6286282912134433
4.1e-05,-0.4589764307782532,1.3192441349415083,-0.44400042422002495,-0.4589764307782532
4.2e-05,-0.30216493113273285,1.2094146789159372,-0.31529467908027725,-0.30216493113273285
4.2999999999999995e-05,-0.16056738143981544,1.099610408440822,-0.14393331177838828,-0.16056738143981544
4.4e-05,-0.030056467618282567,1.0009767273044439,-0.014012811864924568,-0.030056467618282567
4.4999999999999996e-05,0.08703384766227555,0.9001400924373865,0.09381751921298567,0.08703384766227555
4.6e-05,0.19294624542095168,0.8061782776977789,0.22048296770557316,0.19294624542095168
4.7e-05,0.28779120229554017,0.7244091687043953,0.34345685352817185,0.28779120229554017
4.8e-05,0.373584121472611,0.659867624798682,0.46193506151167973,0.373584121472611
4.9e-05,0.4526086208727369,0.6304888394755198,0.5550613423952997,0.4526086208727369
4.9999999999999996e-05,0.5283346101991853,0.5874917308193776,0.6290797860862483,0.5283346101991853
5.1e-05,0.5976561707430024,0.5357520424487197,0.6638429646963863,0.5976561707430024
5.2e-05,0.6606138801377847,0.4829784724850788,0.7306286673255848,0.6606138801377847
5.3e-05,0.7169095516393257,0.42999734891848834,0.7864454194629962,0.7169095516393257
5.4e-05,0.7667604972884223,0.3771275792950047,0.8126212068245084,0.7667604972884223
5.4999999999999995e-05,0.8094283098171924,0.3104996032616469,0.8421078641725874,0.8094283098171924
5.6e-05,0.8431850921216477,0.2358395050961762,0.8419953013689161,0.8431850921216477
5.6999999999999996e-05,0.8674097820011407,0.15406901485389088,0.780770876647807,0.8674097820011407
5.8e-05,0.8791032139898053,0.030333131070336555,0.6774847644806683,0.8791032139898053
5.9e-05,0.8721263973176663,-0.1453872855980685,0.5957504958682646,0.8721263973176663
5.9999999999999995e-05,0.8416346943460654,-0.3492977085848043,0.5217119229860075,0.8416346943460654
6.1e-05,0.7855688463278943,-0.5574036785876332,0.4589258233279302,0.7855688463278943
6.2e-05,0.7049326515628217,-0.7393813555607941,0.4262458710719105,0.7049326515628217
6.3e-05,0.6048959930609964,-0.8726035627762033,0.3627839253458154,0.6048959930609964
6.4e-05,0.49075065031388426,-0.9722393479656324,0.27211098968045844,0.49075065031388426
6.5e-05,0.36640791964259634,-1.0303502595575127,0.17647730750309326,0.36640791964259634
6.599999999999999e-05,0.23882059673531714,-1.0309635065040523,0.09365735821503872,0.23882059673531714
6.7e-05,0.11202670574631957,-1.0196438376373431,0.019584496685467818,0.11202670574631957
6.8e-05,-0.012234541392133183,-0.9937099052750025,-0.05344333386271458,-0.012234541392133183
6.9e-05,-0.1300822694710367,-0.9043110367749095,-0.12031328486414754,-0.1300822694710367
7e-05,-0.23518672553211997,-0.793259767786363,-0.18625960514139034,-0.23518672553211997
7.099999999999999e-05,-0.32560117132596356,-0.670826104784151,-0.2712832335493449,-0.32560117132596356
7.2e-05,-0.3993523870802882,-0.531561541579255,-0.3707319136707862,-0.3993523870802882
7.3e-05,-0.45927681422263317,-0.4414559024103803,-0.45805526047593526,-0.45927681422263317
7.4e-05,-0.5093970141305957,-0.37078884344448776,-0.5649807997613917,-0.5093970141305957
7.5e-05,-0.5529817696943554,-0.35030054545666495,-0.6981895272005615,-0.5529817696943554
7.599999999999999e-05,-0.5969358450165488,-0.35861634056060393,-0.8273196587447732,-0.5969358450165488
7.7e-05,-0.6439980903211654,-0.4025248748477395,-0.9213806052207933,-0.6439980903211654
7.8e-05,-0.6973392155634411,-0.463156700010351,-0.9324217390189575,-0.6973392155634411
7.9e-05,-0.7571032410921075,-0.49829227940172904,-0.9337329773424392,-0.7571032410921075
7.999999999999999e-05,-0.8187481656536493,-0.4920658682800168,-0.8990415676104044,-0.8187481656536493
8.099999999999999e-05,-0.8761412236236626,-0.42898516572195294,-0.8433843300914232,-0.8761412236236626
8.2e-05,-0.9218607566961096,-0.30302975660050774,-0.8162535520312286,-0.9218607566961096
8.3e-05,-0.9498576315087994,-0.14680655184736688,-0.7826881683321473,-0.9498576315087994
8.4e-05,-0.9576128816267547,0.01958841270283551,-0.8023176597010797,-0.9576128816267547
8.499999999999999e-05,-0.9458841395577808,0.16861035579705544,-0.9014334010451057,-0.9458841395577808
8.599999999999999e-05,-0.9188151528524334,0.2549630412547769,-0.9958641903594344,-0.9188151528524334
8.7e-05,-0.8871885509990218,0.23366968766953589,-1.1171421843436806,-0.8871885509990218
8.8e-05,-0.8637512946018714,0.1405644553362537,-1.2185362494385792,-0.8637512946018714
8.9e-05,-0.8553881006812442,-0.0064703493623542345,-1.3022385274271455,-0.8553881006812442
8.999999999999999e-05,-0.8672546234062699,-0.18665446805348895,-1.310404082143697,-0.8672546234062699
9.099999999999999e-05,-0.9006465342742351,-0.3477881903672814,-1.2674196100250215,-0.9006465342742351
9.2e-05,-0.9503550514861516,-0.44658165623994256,-1.235050452543802,-0.9503550514861516
9.3e-05,-1.0087245411782877,-0.491882546229097,-1.2349653670045315,-1.0087245411782877
9.4e-05,-1.0704370602989859,-0.5040582506860783,-1.2743206951351893,-1.0704370602989859
9.499999999999999e-05,-1.1323197774252516,-0.49517460305279865,-1.3255163070715388,-1.1323197774252516
9.6e-05,-1.1926481821755062,-0.4820224901320735,-1.3763554685307213,-1.1926481821755062
9.7e-05,-1.250710091488086,-0.45423000070891356,-1.4237794362531428,-1.250710091488086
9.8e-05,-1.3045436957204763,-0.41697392601268074,-1.4489059696701985,-1.3045436957204763
9.9e-05,-1.3531737009113995,-0.36697316336240426,-1.4396358044635258,-1.3531737009113995
9.999999999999999e-05,-1.3936121944827515,-0.2805303185976099,-1.414162541466436,-1.3936121944827515
0.000101,-1.421425671738734,-0.16763383058301273,-1.417069984285198,-1.421425671738734
0.000102,-1.4351526024642438,-0.05925536757569753,-1.4507780270662618,-1.4351526024642438
0.000103,-1.4365816327264307,0.03520755623890529,-1.4446575908316943,-1.4365816327264307
0.000104,-1.4267470383311829,0.1223397791151865,-1.4475248634326527,-1.4267470383311829
0.00010499999999999999,-1.4067851157202713,0.19733025378976288,-1.4712336538839885,-1.4067851157202713
0.000106,-1.3790965552854257,0.24170753213565987,-1.518938934221887,-1.3790965552854257
0.000107,-1.3507123322298662,0.2123258525864787,-1.6160629020444042,-1.3507123322298662
0.000108,-1.3288515585686214,0.13382901313806542,-1.721970954325899,-1.3288515585686214
0.00010899999999999999,-1.3205368238496016,-0.01544092765045992,-1.8155858811880197,-1.3205368238496016
0.00010999999999999999,-1.333597814219902,-0.19366211707110523,-1.8631434310055053,-1.333597814219902
0.000111,-1.3686580278887088,-0.37157893269788483,-1.8661195865737323,-1.3686580278887088
0.000112,-1.4236291210323337,-0.5094994235835889,-1.8446778306566904,-1.4236291210323337
0.000113,-1.491925354762511,-0.583139663957984,-1.78356178975109,-1.491925354762511
0.00011399999999999999,-1.5632599013757995,-0.5567760098941796,-1.7034340698986212,-1.5632599013757995
0.00011499999999999999,-1.6270303124095844,-0.46958209673863144,-1.6217118980195397,-1.6270303124095844
0.000116,-1.675733000920701,-0.3050667688484809,-1.5391225176873862,-1.675733000920701
0.000117,-1.6997467067473946,-0.08003803995772517,-1.4676138803652414,-1.6997467067473946
0.000118,-1.6939175069282002,0.17320896823594026,-1.4139636143575292,-1.6939175069282002
0.00011899999999999999,-1.6565997071587706,0.427811388767223,-1.3804065769461633,-1.6565997071587706
0.00011999999999999999,-1.5893567823701036,0.6526712701376804,-1.3786618433657325,-1.5893567823701036
0.000121,-1.4978803496958442,0.8165605607508484,-1.3768085175103872,-1.4978803496958442
0.000122,-1.3906033845185495,0.9072761081495312,-1.3891980840589333,-1.3906033845185495
0.00012299999999999998,-1.2771218290406727,0.9208213228892318,-1.3747098112220453,-1.2771218290406727
0.000124,-1.1662769073669141,0.8650207585829589,-1.3553153934420368,-1.1662769073669141
0.000125,-1.0662536019526223,0.7461272040570073,-1.3270844718417443,-1.0662536019526223
0.000126,-0.9826800426980422,0.6032892366661874,-1.274130646241721,-0.9826800426980422
0.000127,-0.9176359212300788,0.45070166044224486,-1.2104245832027765,-0.9176359212300788
0.000128,-0.8717050728871116,0.29792673693094546,-1.1949593230451612,-0.8717050728871116
0.000129,-0.8438413660070223,0.1538995603122658,-1.1858242558940397,-0.8438413660070223
0.00013,-0.8335604281849766,0.011461262763463417,-1.1588725474847341,-0.8335604281849766
0.00013099999999999999,-0.8398856018337928,-0.11095016064170914,-1.1724051351979994,-0.8398856018337928
0.00013199999999999998,-0.8606522255490282,-0.22350600397384024,-1.1960028384890604,-0.8606522255490282
0.000133,-0.8948204510621497,-0.3329690010688953,-1.285001304465368,-0.8948204510621497
0.000134,-0.9435812411735913,-0.459023318249374,-1.4018548843698746,-0.9435812411735913
0.000135,-1.009663088717619,-0.6070485395378238,-1.5130977687418292,-1.009663088717619
0.000136,-1.0946137561435294,-0.7634413256314566,-1.6584955434035922,-1.0946137561435294
0.000137,-1.2000296069318934,-0.9438669027178214,-1.8278371698042402,-1.2000296069318934
0.000138,-1.3275213223459403,-1.1116708704641776,-2.0013628609189325,-1.3275213223459403
0.000139,-1.477249490560659,-1.304976132883931,-2.095571429128574,-1.477249490560659
0.00014,-1.6477003508883263,-1.4348089101100123,-2.1413307277223876,-1.6477003508883263
0.00014099999999999998,-1.8270564220356502,-1.449301339028622,-2.1505015680582953,-1.8270564220356502
0.00014199999999999998,-2.0000798903567056,-1.3340796832877102,-2.151184030671975,-2.0000798903567056
0.000143,-2.1523775335666007,-1.120116926503269,-2.1649303393971766,-2.1523775335666007
0.000144,-2.274352622260793,-0.8518007451161745,-2.219435793013291,-2.274352622260793
0.000145,-2.3623988623582064,-0.5726478297040036,-2.280229537151458,-2.3623988623582064
0.000146,-2.4164948002356277,-0.3100593436202732,-2.3375844996462942,-2.4164948002356277
0.000147,-2.4399828336751352,-0.07183349879415259,-2.3422424702833577,-2.4399828336751352
0.000148,-2.4347998363190273,0.15288472249020227,-2.2782976123753085,-2.4347998363190273
0.000149,-2.4014061986439,0.3862170723968909,-2.1489605154730307,-2.4014061986439
0.00015,-2.337441589018005,0.645192678137748,-1.9932334150097604,-2.337441589018005
0.00015099999999999998,-2.2406509138156547,0.9298565965575883,-1.8701499575745593,-2.2406509138156547
0.00015199999999999998,-2.1071859422329897,1.216383538185512,-1.7873712745680277,-2.1071859422329897
0.000153,-1.9417171888244875,1.4486163550482167,-1.6877702542601831,-1.9417171888244875
0.000154,-1.7508885673672343,1.6205731503140381,-1.590407431474364,-1.7508885673672343
0.000155,-1.5449616062002567,1.6974240613112592,-1.5477856856155854,-1.5449616062002567
0.000156,-1.3398565926887311,1.5917684721015413,-1.4978547472746355,-1.3398565926887311
0.000157,-1.1559431967525258,1.378615282891121,-1.4178266377619464,-1.1559431967525258
0.000158,-0.9999340222467226,1.1532978693415281,-1.3347947312737505,-0.9999340222467226
0.000159,-0.8720077668731683,0.9134348641297506,-1.2680668659450969,-0.8720077668731683
0.00015999999999999999,-0.7748494216136593,0.6583498511462377,-1.2421313886230079,-0.7748494216136593
0.00016099999999999998,-0.7098950241932073,0.39157662211718747,-1.2574867165785506,-0.7098950241932073
0.00016199999999999998,-0.6790646452110185,0.10615649735683536,-1.251488311335622,-0.6790646452110185
0.000163,-0.6831060088331999,-0.16819217121606433,-1.244535723926998,-0.6831060088331999
0.000164,-0.719290608194651,-0.4089600177390844,-1.2267792685936378,-0.719290608194651
0.000165,-0.7826036901211465,-0.6062339102122878,-1.146385311089386,-0.7826036901211465
0.000166,-0.8628100751111901,-0.6698323081524405,-1.0336593595464503,-0.8628100751111901
0.000167,-0.9439308393394201,-0.633955069631286,-0.9135944715028115,-0.9439308393394201
0.000168,-1.0144077883941194,-0.48581349607512325,-0.7862843137999188,-1.0144077883941194
0.000169,-1.059445150437425,-0.2432361234022085,-0.6105486976347942,-1.059445150437425
0.00016999999999999999,-1.0692204660441476,0.11793535067804502,-0.38442224256245905,-1.0692204660441476
0.00017099999999999998,-1.0274708564873398,0.5546058071860772,-0.1427306323767807,-1.0274708564873398
0.00017199999999999998,-0.9277071627880886,1.062243381596265,0.07221744673385383,-0.9277071627880886
0.000173,-0.7594878472164411,1.7042966596575404,0.19482356448202975,-0.7594878472164411
0.000174,-0.4722579188830691,3.0746338347095494,0.2852272567133004,-0.4722579188830691
0.000175,-0.03448605218663603,3.7195123500631926,0.3582026408519776,-0.03448605218663603
0.000176,0.3878087108908842,2.933265324022432,0.42790583094172224,0.3878087108908842
0.000177,0.6814749887746997,1.8908338678758077,0.4926821575968301,0.6814749887746997
0.000178,0.8788177876691259,1.355233805350465,0.46172966760474105,0.8788177876691259
0.000179,1.0168199173362917,0.8728399018213535,0.3964347579511194,1.0168199173362917
0.00017999999999999998,1.0932215453765843,0.365644028951339,0.33881743732795166,1.0932215453765843
0.00018099999999999998,1.1064930946774705,-0.15096237805992022,0.2636124699250391,1.1064930946774705
0.00018199999999999998,1.054638067290427,-0.6968368456447518,0.1572157540037252,1.054638067290427
0.000183,0.9357720534863416,-1.2146974413453189,0.08440987509146729,0.9357720534863416
0.000184,0.7527052721823385,-1.7846115405099436,0.02915491123223244,0.7527052721823385
0.000185,0.4840267647828607,-2.5536433355485677,-0.04383480732084101,0.4840267647828607
0.000186,0.14441521102977106,-2.795289851538801,-0.09653587630691593,0.14441521102977106
0.000187,-0.17282126780002133,-2.2518494849577744,-0.11276919698575008,-0.17282126780002133
0.000188,-0.4097084713816961,-1.6285077271642476,-0.11308446797067144,-0.4097084713816961
0.00018899999999999999,-0.582745077368569,-1.1794873893351319,-0.08696847827228972,-0.582745077368569
0.00018999999999999998,-0.699955987136437,-0.7148435317749443,-0.05895460079517022,-0.699955987136437
0.00019099999999999998,-0.7587460073867659,-0.23778209486416488,-0.055942564243801174,-0.7587460073867659
0.000192,-0.7598229194871748,0.2140577234623624,-0.09297692211178689,-0.7598229194871748
0.000193,-0.7081635541167316,0.61188445606521,-0.13380167773226875,-0.7081635541167316
0.000194,-0.611888540818428,0.9304279169672846,-0.15524101002151933,-0.611888540818428
0.000195,-0.48236263637730475,1.1514409202867415,-0.14467615672699527,-0.48236263637730475
0.000196,-0.3319242975401893,1.2680128979486154,-0.12811751737186394,-0.3319242975401893
0.000197,-0.1737521811636964,1.2759731146509277,-0.10765692117508971,-0.1737521811636964
0.000198,-0.021327655868936625,1.1772059311554757,-0.12268826345234532,-0.021327655868936625
0.00019899999999999999,0.11315938603261255,0.9876151957213279,-0.16739454048038846,0.11315938603261255
0.00019999999999999998,0.21889989215397815,0.7138883776481565,-0.2224143844940672,0.21889989215397815
0.00020099999999999998,0.28680504001897233,0.37359173050581757,-0.29512526894806795,0.28680504001897233
0.000202,0.30998721263925216,0.0029931834108397615,-0.33383895913956263,0.30998721263925216
0.000203,0.28763555182972744,-0.3624547119920245,-0.3419373138892185,0.28763555182972744
0.000204,0.22172659844923231,-0.6961436479017736,-0.33185109884591557,0.22172659844923231
0.000205,0.11931331566716975,-0.9464047234613041,-0.29215251032605455,0.11931331566716975
0.000206,-0.007575122952980726,-1.0858716161044055,-0.1946531191451092,-0.007575122952980726
0.000207,-0.14186688110952414,-1.0648068495295984,-0.12781620202440958,-0.14186688110952414
0.000208,-0.2659642939072212,-0.9341104408969656,-0.1408616191383636,-0.2659642939072212
0.00020899999999999998,-0.37022581418100203,-0.7480500735019503,-0.16185996530196275,-0.37022581418100203
0.00020999999999999998,-0.44933131783440267,-0.528887164655803,-0.18309364219189958,-0.44933131783440267
0.00021099999999999998,-0.5004658619903133,-0.30202639204905657,-0.22463719558883896,-0.5004658619903133
0.000212,-0.5244628804607716,-0.0870417848662103,-0.29678685484849093,-0.5244628804607716
0.000213,-0.5242265502228518,0.08531541150956083,-0.3761280829680726,-0.5242265502228518
0.000214,-0.5062607691644683,0.1984554962588566,-0.4432335897207363,-0.5062607691644683
0.000215,-0.4779641959459412,0.2527438362950189,-0.49253126819420145,-0.4779641959459412
0.000216,-0.445980256719293,0.2585966673389715,-0.46776592282285784,-0.445980256719293
0.000217,-0.41430338231447966,0.25177748444678466,-0.46227184845634123,-0.41430338231447966
