time,V_C,I_L,V_IN,V_C
0.0,0.0,0.0,-0.6783662748541593,0.0
1e-06,-0.016942253286313734,-0.3471445168985861,-0.6277947436930591,-0.016942253286313734
2e-06,-0.06377697096487321,-0.6249374045745887,-0.578325877525315,-0.06377697096487321
3e-06,-0.13323095043779196,-0.8170916737959174,-0.527665265970979,-0.13323095043779196
4e-06,-0.21686457315255078,-0.9268782728036302,-0.4581856696416916,-0.21686457315255078
4.9999999999999996e-06,-0.3069768377833618,-0.9423489766592615,-0.35477443195728725,-0.3069768377833618
6e-06,-0.3910611402340567,-0.8071760797290946,-0.20380259944916582,-0.3910611402340567
7e-06,-0.4582180652523402,-0.598095512883389,-0.029148440133959237,-0.4582180652523402
8e-06,-0.5016816066047033,-0.2908355030662591,0.12312988818309198,-0.5016816066047033
9e-06,-0.510759505712067,0.09681550121971456,0.25556556675088027,-0.510759505712067
9.999999999999999e-06,-0.48140540453476927,0.5262862610818517,0.34636778849738575,-0.48140540453476927
1.1e-05,-0.41140894253775245,0.9354749777186732,0.41153255382541987,-0.41140894253775245
1.2e-05,-0.304489140013863,1.2966636572667523,0.5174281917939735,-0.304489140013863
1.3e-05,-0.1648155466322142,1.6241584330456027,0.6170872352803054,-0.1648155466322142
1.4e-05,0.040268050079293065,2.75194078121649,0.7541126734604171,0.040268050079293065
1.4999999999999999e-05,0.33463576739543144,3.1526756376861695,0.8659719586258365,0.33463576739543144
1.6e-05,0.6180148119286487,2.6592754593354337,0.965262711789444,0.6180148119286487
1.7e-05,0.8356281638000881,1.874924116781347,1.0772208714404332,0.8356281638000881
1.8e-05,0.9974046343469098,1.585325647841202,1.1722974461871951,0.9974046343469098
1.8999999999999998e-05,1.1409905145357089,1.4290210505783973,1.2509583919852492,1.1409905145357089
1.9999999999999998e-05,1.2692754643071296,1.2567990538595948,1.2947286174739534,1.2692754643071296
2.1e-05,1.379571727770763,1.0525701058664068,1.2991848961908152,1.379571727770763
2.2e-05,1.4683371941595738,0.8047354452018988,1.2757407934482876,1.4683371941595738
2.3e-05,1.531751517056642,0.522606174682272,1.2361122780410176,1.531751517056642
2.4e-05,1.5671673302750744,0.21805721443293388,1.2413260841631066,1.5671673302750744
2.4999999999999998e-05,1.5740217053890755,-0.06941861020156052,1.2572923462113215,1.5740217053890755
2.6e-05,1.5548853186136322,-0.32237191727844894,1.2922988679273553,1.5548853186136322
2.7e-05,1.5140741519057979,-0.5298393765599031,1.2318371033852569,1.5140741519057979
2.8e-05,1.4543651585894195,-0.7202946342413036,1.1550765800564737,1.4543651585894195
2.9e-05,1.377143879866204,-0.8993011974117869,1.098446946056297,1.377143879866204
2.9999999999999997e-05,1.2843342734683567,-1.0398614550143328,1.0464789145397342,1.2843342734683567
3.1e-05,1.1804100547039724,-1.1346981085538965,1.0351254206754246,1.1804100547039724
3.2e-05,1.0704229900190383,-1.1628969201181454,1.0446795107619358,1.0704229900190383
3.2999999999999996e-05,0.9609314567250361,-1.1245093403078374,1.0427611164809378,0.9609314567250361
3.4e-05,0.8579942250248455,-1.0243064618569084,1.0695433182698866,0.8579942250248455
3.5e-05,0.7693748076221112,-0.8272351266381333,1.1834396663751623,0.7693748076221112
3.6e-05,0.702401811457068,-0.5691162722113278,1.3000409612283172,0.702401811457068
3.7e-05,0.6633122186153492,-0.23793520214920907,1.3920454912274942,0.6633122186153492
3.7999999999999995e-05,0.6579573149297239,0.1260597103520459,1.4433883917813524,0.6579573149297239
3.9e-05,0.6868057416067473,0.4712500738227638,1.4617883218344576,0.6868057416067473
3.9999999999999996e-05,0.7465492298797325,0.7761924521238185,1.418963481967167,0.7465492298797325
4.1e-05,0.831866473963716,0.9952779806875564,1.3758563508677297,0.831866473963716
4.2e-05,0.9330941805684426,1.1198104275523943,1.419848313105812,0.9330941805684426
4.2999999999999995e-05,1.0436629524869985,1.1925973234463707,1.5050619644226688,1.0436629524869985
4.4e-05,1.1587465112261035,1.2251503805226607,1.601608881498223,1.1587465112261035
4.4999999999999996e-05,1.2780934804098547,1.2790958760576567,1.7258460764509178,1.2780934804098547
4.6e-05,1.4013816043356548,1.3066542205126461,1.8903582438414568,1.4013816043356548
4.7e-05,1.5277639202690887,1.3521511847621872,2.0619744080619786,1.5277639202690887
4.8e-05,1.6586966678867314,1.3877039390399435,2.2688107807271924,1.6586966678867314
4.9e-05,1.7932478875134938,1.4516934392268939,2.47236100338338,1.7932478875134938
4.9999999999999996e-05,1.9358566365792393,1.5341746086241133,2.64637758702907,1.9358566365792393
5.1e-05,2.086101873107902,1.6285205213515674,2.803725178874339,2.086101873107902
5.2e-05,2.245138363449303,1.698143917097517,2.835542459155788,2.245138363449303
5.3e-05,2.405924329865817,1.656039569384484,2.7996909179462803,2.405924329865817
5.4e-05,2.5576294825733172,1.5159865350458759,2.741244042612167,2.5576294825733172
5.4999999999999995e-05,2.692077643744832,1.2839086342153465,2.6382260075690427,2.692077643744832
5.6e-05,2.79797461777542,0.927957742102838,2.511553566616473,2.79797461777542
5.6999999999999996e-05,2.8660962482177355,0.4946118354146667,2.35619135296509,2.8660962482177355
5.8e-05,2.8888992915811733,-0.029655713945750655,2.204458603110474,2.8888992915811733
5.9e-05,2.859903221348856,-0.5744490169618898,2.153046559606759,2.859903221348856
5.9999999999999995e-05,2.7815442222884537,-1.0552716546770842,2.1343494466476205,2.7815442222884537
6.1e-05,2.6609682544796813,-1.4670571452202494,2.1147419735892083,2.6609682544796813
6.2e-05,2.496133248246738,-2.2297775724378526,2.121814908778804,2.496133248246738
6.3e-05,2.239285048294047,-2.8797107599395217,2.118890840363278,2.239285048294047
6.4e-05,1.9884745643885644,-2.2677460593631382,2.128712887597472,1.9884745643885644
6.5e-05,1.8097785378457765,-1.6213587723016742,2.151186387261054,1.8097785378457765
6.599999999999999e-05,1.6673025429553046,-1.3670053421204262,2.195686923266554,1.6673025429553046
6.7e-05,1.5515679299743719,-1.0536981020766554,2.183871193436495,1.5515679299743719
6.8e-05,1.467292658183448,-0.7131280766934553,2.1701132666122716,1.467292658183448
6.9e-05,1.415719145524291,-0.374416919003097,2.1392034586803255,1.415719145524291
7e-05,1.3954456584961987,-0.05815323957774147,2.0655987893353966,1.3954456584961987
7.099999999999999e-05,1.4026438941726627,0.20388156011168532,2.0057590092333437,1.4026438941726627
7.2e-05,1.4323159023393701,0.4049761616710203,1.9320010214866308,1.4323159023393701
7.3e-05,1.4769733105733562,0.5267160427846974,1.9068500227827456,1.4769733105733562
7.4e-05,1.5309443869487145,0.5983748584408867,1.9058398226153315,1.5309443869487145
7.5e-05,1.5897585209959086,0.6309954362296973,1.9163460427194732,1.5897585209959086
7.599999999999999e-05,1.6501203963400397,0.6312440222688541,1.9240775735251645,1.6501203963400397
7.7e-05,1.7089827668717261,0.5999888587466399,1.9277619117471079,1.7089827668717261
7.8e-05,1.7634722892184684,0.535691763002516,1.8577129697103871,1.7634722892184684
7.9e-05,1.808975658856154,0.4158993991330651,1.7653351055781108,1.808975658856154
7.999999999999999e-05,1.8406097184939518,0.24225280347072697,1.6554335446530009,1.8406097184939518
8.099999999999999e-05,1.8530165257306956,0.004287238012912291,1.5545845217369867,1.8530165257306956
8.2e-05,1.8400828980731083,-0.2717047100676321,1.464145199904503,1.8400828980731083
8.3e-05,1.8002177396943362,-0.5690811462771951,1.3899765808492064,1.8002177396943362
8.4e-05,1.7327189346822631,-0.8409441142277984,1.309579989696339,1.7327189346822631
8.499999999999999e-05,1.640499082362296,-1.0844540634013853,1.3085600592787634,1.640499082362296
8.599999999999999e-05,1.5287645419438032,-1.2438036682368314,1.3878762234787685,1.5287645419438032
8.7e-05,1.4079719018541752,-1.272384580334341,1.4517831313251703,1.4079719018541752
8.8e-05,1.2894539913397074,-1.2024466019581983,1.4913356894882561,1.2894539913397074
8.9e-05,1.1817261606187812,-1.0464199614403156,1.5312204185783111,1.1817261606187812
8.999999999999999e-05,1.0920384329823756,-0.8293358797640863,1.6124320294411976,1.0920384329823756
9.099999999999999e-05,1.0253940455715558,-0.5542984618420274,1.7284396976036451,1.0253940455715558
9.2e-05,0.9888294918280364,-0.21026648694614916,1.7765201467524108,0.9888294918280364
9.3e-05,0.9863579890526877,0.15546020671614078,1.7595353520358592,0.9863579890526877
9.4e-05,1.017548682323049,0.4860059951885365,1.6785260243417213,1.017548682323049
9.499999999999999e-05,1.0744170093740093,0.6926041732155744,1.5357648253124585,1.0744170093740093
9.6e-05,1.1455482883427521,0.7797636786333184,1.3433122791904577,1.1455482883427521
9.7e-05,1.2175744950210692,0.7167422306005875,1.1622789028183411,1.2175744950210692
9.8e-05,1.2771124965854637,0.5248992925649832,0.980426385210268,1.2771124965854637
9.9e-05,1.3136032920480423,0.22493432285052117,0.8726551987529346,1.3136032920480423
9.999999999999999e-05,1.3189788897131096,-0.108104153807958,0.8104468058926793,1.3189788897131096
0.000101,1.2927664942163335,-0.44531104369876306,0.7152013062604167,1.2927664942163335
0.000102,1.2341721040787847,-0.7790161788567139,0.5817862426041962,1.2341721040787847
0.000103,1.1439725222230923,-1.1211375550792764,0.4505981314904447,1.1439725222230923
0.000104,1.0212397063707834,-1.4427517735728441,0.37426638203412377,1.0212397063707834
0.00010499999999999999,0.8683900634918763,-1.8580413199077288,0.27738269008652655,0.8683900634918763
0.000106,0.6414296366435098,-2.700260896053335,0.13729684026358085,0.6414296366435098
0.000107,0.37699564312380335,-2.691999306782652,0.01091408666906848,0.37699564312380335
0.000108,0.14112179718696716,-2.204791159622683,-0.08621616408380894,0.14112179718696716
0.00010899999999999999,-0.045348342578967624,-1.740064522587276,-0.16983368477856445,-0.045348342578967624
0.00010999999999999999,-0.20167202772543769,-1.5521866174215875,-0.18471505725264464,-0.20167202772543769
0.000111,-0.3402931312122674,-1.350129859654824,-0.16984208733143463,-0.3402931312122674
0.000112,-0.4568988739407045,-1.0896415554682244,-0.14639590704702277,-0.4568988739407045
0.000113,-0.5463184901995802,-0.7824028021903032,-0.15172701185833865,-0.5463184901995802
0.00011399999999999999,-0.6052826793396963,-0.4552037230704644,-0.16440944714064643,-0.6052826793396963
0.00011499999999999999,-0.6332090583197129,-0.13702470501499098,-0.1993185847223824,-0.6332090583197129
0.000116,-0.6329176523114669,0.13557967650571964,-0.3022586322891272,-0.6329176523114669
0.000117,-0.611252717706501,0.31082456187350466,-0.40849157944436126,-0.611252717706501
0.000118,-0.5759360701622688,0.4150134080270164,-0.5508885288243153,-0.5759360701622688
0.00011899999999999999,-0.5331532172796968,0.4605376171118405,-0.691219016187156,-0.5331532172796968
0.00011999999999999999,-0.49246998599250147,0.3804287820573045,-0.8322465731942538,-0.49246998599250147
0.000121,-0.4644079034451915,0.19520079530252613,-0.8803384334825006,-0.4644079034451915
0.000122,-0.455611036240474,-0.009396313214732869,-0.876528736946328,-0.455611036240474
0.00012299999999999998,-0.4655629368194885,-0.19647679028537932,-0.8252262348719505,-0.4655629368194885
0.000124,-0.4913489984290378,-0.334729836328487,-0.7492998484623119,-0.4913489984290378
0.000125,-0.5267450477192673,-0.3994786313065304,-0.7385014075248172,-0.5267450477192673
0.000126,-0.5665243966204776,-0.4318559175937116,-0.8144591012708361,-0.5665243966204776
0.000127,-0.609613773862982,-0.47567719810266773,-0.8909683794141742,-0.609613773862982
0.000128,-0.6577930597067541,-0.5327429870670047,-0.9168080687701687,-0.6577930597067541
0.000129,-0.7104282995004061,-0.5670402280493704,-0.912248838583734,-0.7104282995004061
0.00013,-0.7646597853546044,-0.5650779089763172,-0.8643467354523219,-0.7646597853546044
0.00013099999999999999,-0.8165462245087473,-0.5127040939645381,-0.7923688469645782,-0.8165462245087473
0.00013199999999999998,-0.8602054462212149,-0.39843828254210917,-0.7669763832307241,-0.8602054462212149
0.000133,-0.8912648299465304,-0.25134293943791486,-0.7239132175719915,-0.8912648299465304
0.000134,-0.9080836855328144,-0.09344202726458566,-0.6178326301542597,-0.9080836855328144
0.000135,-0.9070439653777093,0.11709205290945279,-0.5470756705731822,-0.9070439653777093
0.000136,-0.8847926992707777,0.35134450176969806,-0.5600739371127886,-0.8847926992707777
0.000137,-0.8417336842017815,0.5448586019736507,-0.5941612423151372,-0.8417336842017815
0.000138,-0.7833310724511181,0.6715841586862679,-0.6306635062853115,-0.7833310724511181
0.000139,-0.7161454784857056,0.7245967138027312,-0.6523343588923348,-0.7161454784857056
0.00014,-0.6466183559173422,0.7271374465615019,-0.6903919531280087,-0.6466183559173422
0.00014099999999999998,-0.579608115751094,0.6713734622975381,-0.7393044071215147,-0.579608115751094
0.00014199999999999998,-0.5204869774263615,0.5560728458908254,-0.8398726621847862,-0.5204869774263615
0.000143,-0.4761761447016522,0.3677325941925204,-0.8892477276872987,-0.4761761447016522
0.000144,-0.4514433741490952,0.15366169493608448,-0.8489661684457467,-0.4514433741490952
0.000145,-0.4460712209071353,-0.038739984238893056,-0.7647580823482214,-0.4460712209071353
0.000146,-0.4569584340005654,-0.179068449029549,-0.7271698576116059,-0.4569584340005654
0.000147,-0.4787404085162452,-0.2709480613127592,-0.7179413756830422,-0.4787404085162452
0.000148,-0.5079276769376859,-0.34411667849212835,-0.8004981843402005,-0.5079276769376859
0.000149,-0.5453580604573804,-0.4446453218355286,-0.8759501844309403,-0.5453580604573804
0.00015,-0.5922713987226438,-0.5388402981079817,-0.9386122253211125,-0.5922713987226438
0.00015099999999999998,-0.6483904870745782,-0.6406966622046593,-1.0128089674300786,-0.6483904870745782
0.00015199999999999998,-0.7137021990137257,-0.727395508013745,-1.0594980511830951,-0.7137021990137257
0.000153,-0.7861701058858697,-0.7881797995136334,-1.0722201431831109,-0.7861701058858697
0.000154,-0.8622235693367835,-0.7986956560748238,-1.0386345985167886,-0.8622235693367835
0.000155,-0.9360008976622044,-0.7399056495479995,-0.9876695943709844,-0.9360008976622044
0.000156,-1.001406551877693,-0.6258327927014151,-0.9453785007609004,-1.001406551877693
0.000157,-1.0537359677559133,-0.4700420999320996,-0.9769936901142439,-1.0537359677559133
0.000158,-1.0911400270871923,-0.318913141484609,-1.0536013079948365,-1.0911400270871923
0.000159,-1.1161449491788997,-0.2142033241706203,-1.1297482111725734,-1.1161449491788997
0.00015999999999999999,-1.132419194615964,-0.12697623726063725,-1.1756542812874955,-1.132419194615964
0.00016099999999999998,-1.1410788194570383,-0.058977525244286316,-1.1869551304939012,-1.1410788194570383
0.00016199999999999998,-1.1440114313578724,-0.002680432510340032,-1.1421320919027111,-1.1440114313578724
0.000163,-1.1406619358934342,0.07242136534365773,-1.1147396161802923,-1.1406619358934342
0.000164,-1.1299646522259386,0.15253626564871395,-1.0951561872729965,-1.1299646522259386
0.000165,-1.1117298422976483,0.22761637653369637,-1.0645243528566746,-1.1117298422976483
0.000166,-1.0865525086692895,0.3000880469096214,-1.0311904263651948,-1.0865525086692895
0.000167,-1.0545805523305811,0.3721712028608452,-0.9846516598004577,-1.0545805523305811
0.000168,-1.0158367710850589,0.4371616145881598,-0.9403439903630428,-1.0158367710850589
0.000169,-0.9714146682566109,0.4942141612258868,-0.8546137642075713,-0.9714146682566109
0.00016999999999999999,-0.9210978070775435,0.567388934145789,-0.7660703655753365,-0.9210978070775435
0.00017099999999999998,-0.8631339547087232,0.6455135398472148,-0.6514536382876719,-0.8631339547087232
0.00017199999999999998,-0.798560122101436,0.7201404923635226,-0.530339375435539,-0.798560122101436
0.000173,-0.7235607569802149,0.8574305247788212,-0.3882939691103077,-0.7235607569802149
0.000174,-0.6351251774759769,0.9942902764728027,-0.2994293658279693,-0.6351251774759769
0.000175,-0.5355773834463516,1.0956518227730254,-0.22154976231586682,-0.5355773834463516
0.000176,-0.4267400307611865,1.1823575306660021,-0.1642675062971367,-0.4267400307611865
0.000177,-0.3116409365884336,1.223763140290869,-0.10081225598271734,-0.3116409365884336
0.000178,-0.19553643971319334,1.2107210250450324,-0.015606767746324982,-0.19553643971319334
0.000179,-0.08148726870063802,1.177941918052219,0.013282888994136497,-0.08148726870063802
0.00017999999999999998,0.027788296726064733,1.1088176465253674,-0.026436553380749978,0.027788296726064733
0.00018099999999999998,0.12759767569628494,0.970498210196884,-0.10119342250089233,0.12759767569628494
0.00018199999999999998,0.20929752605674556,0.7353654602493789,-0.17780548309029579,0.20929752605674556
0.000183,0.26556158009048003,0.43840446754674556,-0.30032420272749716,0.26556158009048003
0.000184,0.2902812680321114,0.07607322007918838,-0.4214384131994227,0.2902812680321114
0.000185,0.2783774269903966,-0.3251748383173144,-0.5700988666048421,0.2783774269903966
0.000186,0.22612895757631923,-0.7806319699049024,-0.7393776331228292,0.22612895757631923
0.000187,0.1303878318087627,-1.21553331219282,-0.8897241576428943,0.1303878318087627
0.000188,-0.0054455189524692995,-1.6470851270430558,-1.0003880554492857,-0.0054455189524692995
0.00018899999999999999,-0.24721098276048126,-3.459047497106578,-1.1046130110425385,-0.24721098276048126
0.00018999999999999998,-0.607893712731515,-3.75864995975062,-1.2021707153683758,-0.607893712731515
0.00019099999999999998,-0.9317370670138507,-2.891597221176488,-1.2790159494479134,-0.9317370670138507
0.000192,-1.1561980120721942,-1.8503013361229315,-1.3639646342761886,-1.1561980120721942
0.000193,-1.3150821340957257,-1.5553648578597759,-1.518482591565847,-1.3150821340957257
0.000194,-1.4555327853529463,-1.3919651829930908,-1.66683897119511,-1.4555327853529463
0.000195,-1.5815208156467124,-1.2500224286346697,-1.763963211356259,-1.5815208156467124
0.000196,-1.6939814723105238,-1.1053592075457506,-1.7710578930598142,-1.6939814723105238
0.000197,-1.7906960217974266,-0.9165804483806674,-1.6761844585935581,-1.7906960217974266
0.000198,-1.8655208551282387,-0.6395070553614501,-1.5432921914495659,-1.8655208551282387
0.00019899999999999999,-1.909433338922512,-0.2800638956653934,-1.4210528817918158,-1.909433338922512
0.00019999999999999998,-1.9166562232129731,0.12495987345833555,-1.3395575447110608,-1.9166562232129731
0.00020099999999999998,-1.8850414407892913,0.5316821176343137,-1.2585102249598203,-1.8850414407892913
0.000202,-1.8157129539531809,0.9217951133992125,-1.142149630553027,-1.8157129539531809
0.000203,-1.7095491502029814,1.2947001089828092,-0.9949947164173748,-1.7095491502029814
0.000204,-1.5683093954691183,1.6992452432368668,-0.8831558189582228,-1.5683093954691183
0.000205,-1.3361065912809853,3.1140792779492994,-0.7753626638180542,-1.3361065912809853
0.000206,-1.0198157580981573,3.282377471431836,-0.6336930175089337,-1.0198157580981573
0.000207,-0.7302238966702339,2.6682120282227118,-0.43961970101130293,-0.7302238966702339
0.000208,-0.5077895059675817,2.0970162269586767,-0.25779771350818304,-0.5077895059675817
0.00020899999999999998,-0.318128677666064,1.8113637197897203,-0.12916840230107526,-0.318128677666064
0.00020999999999999998,-0.1526600937230345,1.6486662044671363,-0.05378935463511923,-0.1526600937230345
0.00021099999999999998,-0.0018244501609149392,1.5133451484696525,-0.015204179226875328,-0.0018244501609149392
0.000212,0.13412358769179883,1.3358812298795406,-0.0011957026651294906,0.13412358769179883
0.000213,0.2510659620521733,1.113269444269721,0.042759951357266276,0.2510659620521733
0.000214,0.34612971246382834,0.8825049782235216,0.12801208099403702,0.34612971246382834
0.000215,0.4193349101314415,0.655830979220571,0.24071336888610523,0.4193349101314415
0.000216,0.4723754927072094,0.47486594580428787,0.3732636641708677,0.4723754927072094
0.000217,0.5113752640349302,0.342303688904984,0.47600630900465823,0.5113752640349302
0.00021799999999999999,0.5392887315609732,0.25475342924027483,0.5616574467575656,0.5392887315609732
0.00021899999999999998,0.5613389854097051,0.20661861808635326,0.6170553782071091,0.5613389854097051
0.00021999999999999998,0.5796286308914804,0.18379541332429064,0.6661678921016624,0.5796286308914804
