time,V_C,I_L,V_IN,V_C
0.0,0.0,0.0,1.0208785539021858,0.0
1e-06,0.025816615207647785,0.5311663205720879,0.9694798253252026,0.025816615207647785
2e-06,0.09745540272633052,0.957009109135562,0.8953453006525036,0.09745540272633052
3e-06,0.20421168513901564,1.263388902651329,0.8311053289205746,0.20421168513901564
4e-06,0.33430769823140466,1.4454481590878068,0.8243478583308488,0.33430769823140466
4.9999999999999996e-06,0.47653216763487793,1.5270587700330676,0.8409787242922461,0.47653216763487793
6e-06,0.6223870753403221,1.520829231163619,0.8247536730639172,0.6223870753403221
7e-06,0.7631250098463154,1.4184920367255824,0.8228582171468062,0.7631250098463154
8e-06,0.8904866871029534,1.2462728000848948,0.8331864009929326,0.8904866871029534
9e-06,0.9988798104586873,1.0249126209865935,0.8052798011729048,0.9988798104586873
9.999999999999999e-06,1.0842657669932814,0.7558567309852314,0.7484666196294608,1.0842657669932814
1.1e-05,1.1398193137499237,0.40195790395347325,0.6388288469504668,1.1398193137499237
1.2e-05,1.1599328144284171,0.016644257283307356,0.5372216990493728,1.1599328144284171
1.3e-05,1.1419687865273753,-0.3960595418438801,0.43053155603708193,1.1419687865273753
1.4e-05,1.0850709846611408,-0.7992262621617652,0.2886323587535907,1.0850709846611408
1.4999999999999999e-05,0.9886848279453501,-1.2272945410083056,0.13973537117473128,0.9886848279453501
1.6e-05,0.852202643595089,-1.6371134116414148,0.014317422956758705,0.852202643595089
1.7e-05,0.6221090676229885,-3.219298294570351,-0.10163290005857664,0.6221090676229885
1.8e-05,0.28118777255055655,-3.5901669208631666,-0.1857798757258108,0.28118777255055655
1.8999999999999998e-05,-0.03000706655697548,-2.801148367347968,-0.2402997064804052,-0.03000706655697548
1.9999999999999998e-05,-0.2469510034833436,-1.8047564219092287,-0.30767136390444166,-0.2469510034833436
2.1e-05,-0.4026848228302998,-1.5202227114921556,-0.35842475851027567,-0.4026848228302998
2.2e-05,-0.5372787805409767,-1.2981474439742255,-0.3305347084610798,-0.5372787805409767
2.3e-05,-0.6479090170671015,-1.0139005121809133,-0.29184404026828253,-0.6479090170671015
2.4e-05,-0.7287705439442164,-0.6797634062684265,-0.2827826091077764,-0.7287705439442164
2.4999999999999998e-05,-0.7768950382112334,-0.3300030604606156,-0.2883138322303015,-0.7768950382112334
2.6e-05,-0.7924515683777085,0.0011666418425394138,-0.3225573230247749,-0.7924515683777085
2.7e-05,-0.7779028475974198,0.2938187880872474,-0.31896105507727524,-0.7779028475974198
2.8e-05,-0.7375380448235282,0.5467589137535904,-0.2840038674976181,-0.7375380448235282
2.9e-05,-0.6739417063463068,0.7809484990983918,-0.20838403621715584,-0.6739417063463068
2.9999999999999997e-05,-0.5882152304334771,1.0180289364569903,-0.1048181107715302,-0.5882152304334771
3.1e-05,-0.4820466474143059,1.2079387765708705,0.008038877847338798,-0.4820466474143059
3.2e-05,-0.3598958533633168,1.3609725186083315,0.13559013018985727,-0.3598958533633168
3.2999999999999996e-05,-0.22256702477846677,1.5146063397770162,0.24664889379758384,-0.22256702477846677
3.4e-05,-0.07227118798178372,1.6286379270739777,0.307456213311563,-0.07227118798178372
3.5e-05,0.08535937746241733,1.666637114587715,0.3135618372751853,0.08535937746241733
3.6e-05,0.241354201217089,1.5904598873208702,0.2732166576103782,0.241354201217089
3.7e-05,0.38486064012733295,1.4005617342749765,0.17056932804276992,0.38486064012733295
3.7999999999999995e-05,0.5044861340272558,1.0981029001747888,0.10954389968879139,0.5044861340272558
3.9e-05,0.59240154333222,0.7398201147610984,0.017650582993765023,0.59240154333222
3.9999999999999996e-05,0.6426504208975511,0.305978316733496,-0.08389183700452667,0.6426504208975511
4.1e-05,0.6502573763472645,-0.1495796349943235,-0.2250896342532839,0.6502573763472645
4.2e-05,0.6127648809191463,-0.6325828787039874,-0.412982035187517,0.6127648809191463
4.2999999999999995e-05,0.5278048311952067,-1.1368102990327982,-0.583350328976203,0.5278048311952067
4.4e-05,0.39629051291986844,-1.6268843141424931,-0.729084141325447,0.39629051291986844
4.4999999999999996e-05,0.13222652173400745,-3.971424414178116,-0.8445669003419463,0.13222652173400745
4.6e-05,-0.29019348755456986,-4.446534258886179,-0.9204942319570435,-0.29019348755456986
4.7e-05,-0.6695320278463126,-3.3763359368712185,-0.9865505738092638,-0.6695320278463126
4.8e-05,-0.9230958965813233,-1.963664416108692,-1.0201539208774162,-0.9230958965813233
4.9e-05,-1.0840593660492273,-1.5296776018757365,-1.022200524494912,-1.0840593660492273
4.9999999999999996e-05,-1.2168598059306384,-1.251972005285505,-1.023666382965625,-1.2168598059306384
5.1e-05,-1.3213416780413936,-0.9368703585529369,-1.0225759668771537,-1.3213416780413936
5.2e-05,-1.3943970680165294,-0.591700711222214,-0.9971173732670031,-1.3943970680165294
5.3e-05,-1.4338100959499216,-0.2328306640095812,-0.9600939489642952,-1.4338100959499216
5.4e-05,-1.4391955013970734,0.11469362576070763,-0.9352943005754142,-1.4391955013970734
5.4999999999999995e-05,-1.412093856424718,0.44533828874679027,-0.9796120261230372,-1.412093856424718
5.6e-05,-1.356309289036665,0.7116889692197982,-1.019842576295304,-1.356309289036665
5.6999999999999996e-05,-1.2787492899777362,0.9069509268663775,-1.0323707989772004,-1.2787492899777362
5.8e-05,-1.1862477897860857,1.024036275610452,-1.0319468779407779,-1.1862477897860857
5.9e-05,-1.0856975484129436,1.0789890763084997,-0.996935154422997,-1.0856975484129436
5.9999999999999995e-05,-0.9822956192757204,1.0869748269162907,-0.8960542823714187,-0.9822956192757204
6.1e-05,-0.8783262597471031,1.0978006271883802,-0.7828956737986572,-0.8783262597471031
6.2e-05,-0.7737740830179106,1.091012818864651,-0.6686024019246916,-0.7737740830179106
6.3e-05,-0.6710387653834794,1.068824941070771,-0.5978086187933991,-0.6710387653834794
6.4e-05,-0.5706899400972999,1.0326568431578202,-0.5716077631251056,-0.5706899400972999
6.5e-05,-0.4752915098642012,0.959292663525689,-0.5749113255051425,-0.4752915098642012
6.599999999999999e-05,-0.3892501299426927,0.8389738872333626,-0.6081734773681852,-0.3892501299426927
6.7e-05,-0.31759880556115033,0.657585199360106,-0.6454977817715137,-0.31759880556115033
6.8e-05,-0.2653470551119268,0.4317800440642298,-0.7011207530906101,-0.2653470551119268
6.9e-05,-0.2363560320857097,0.17674454316153396,-0.7647037265395533,-0.2363560320857097
7e-05,-0.2327428792873572,-0.09668615152664091,-0.8700698709953272,-0.2327428792873572
7.099999999999999e-05,-0.2559532739552436,-0.3922349625623343,-1.0168321739653225,-0.2559532739552436
7.2e-05,-0.3092438268347799,-0.7230986724828431,-1.170256083652932,-0.3092438268347799
7.3e-05,-0.39479432685480886,-1.0650193228059,-1.3293323347278836,-0.39479432685480886
7.4e-05,-0.5119706176530932,-1.3990704534647007,-1.481147451332236,-0.5119706176530932
7.5e-05,-0.665886993320871,-2.0207623600897358,-1.6190984934567063,-0.665886993320871
7.599999999999999e-05,-0.937376276488131,-3.3521787426591083,-1.7243740283697075,-0.937376276488131
7.7e-05,-1.2625754550644357,-3.2200817316327712,-1.7533325106448014,-1.2625754550644357
7.8e-05,-1.5224154536128187,-2.156167684505074,-1.7042267563419713,-1.5224154536128187
7.9e-05,-1.6883514299690867,-1.530938200296336,-1.6184737315703503,-1.6883514299690867
7.999999999999999e-05,-1.8191057188298945,-1.2210479204318399,-1.527112065668133,-1.8191057188298945
8.099999999999999e-05,-1.9167802875327866,-0.8098987956786704,-1.4067040417018988,-1.9167802875327866
8.2e-05,-1.9713030617940717,-0.3353517025863975,-1.3491301705421763,-1.9713030617940717
8.3e-05,-1.9802304986691575,0.14402975466934276,-1.3627337257830061,-1.9802304986691575
8.4e-05,-1.9455755323717738,0.5736658521787568,-1.3682583961134385,-1.9455755323717738
8.499999999999999e-05,-1.8730419708454253,0.9380335477461159,-1.359606574448068,-1.8730419708454253
8.599999999999999e-05,-1.7694495621261248,1.228018075119749,-1.3443437915064202,-1.7694495621261248
8.7e-05,-1.6415890796074704,1.4401060351563337,-1.333264342994641,-1.6415890796074704
8.8e-05,-1.4979985075176203,1.554313602965,-1.373105034418142,-1.4979985075176203
8.9e-05,-1.349889521616699,1.5306204654286593,-1.4317839675613724,-1.349889521616699
8.999999999999999e-05,-1.2095471957558357,1.400083795101742,-1.428154395286698,-1.2095471957558357
9.099999999999999e-05,-1.0847071863163797,1.220255266781525,-1.3766073766305231,-1.0847071863163797
9.2e-05,-0.978179759235572,1.0161219654314664,-1.3209770788871231,-0.978179759235572
9.3e-05,-0.891842018938592,0.7986547150471646,-1.216859170759623,-0.891842018938592
9.4e-05,-0.8264367612352947,0.5756019103315716,-1.144568039393375,-0.8264367612352947
9.499999999999999e-05,-0.7805053321259057,0.39468590779305873,-1.0986049701243135,-0.7805053321259057
9.6e-05,-0.7504428560072773,0.24009686982952916,-1.0559810979194115,-0.7504428560072773
9.7e-05,-0.7341574754877399,0.10347244776374047,-1.0509976077027345,-0.7341574754877399
9.8e-05,-0.7303405364440982,-0.022555656050893477,-1.0631422596433346,-0.7303405364440982
9.9e-05,-0.7383503346238958,-0.1443333891044331,-1.075831371938703,-0.7383503346238958
9.999999999999999e-05,-0.7574888138520868,-0.25543520787440943,-1.08301724478759,-0.7574888138520868
0.000101,-0.7865608367758361,-0.35082122409521577,-1.0497260828690642,-0.7865608367758361
0.000102,-0.8224491600119204,-0.3941295551982868,-0.9968724281775133,-0.8224491600119204
0.000103,-0.8599422496407502,-0.386584210958454,-0.9803882983663866,-0.8599422496407502
0.000104,-0.8953705756976801,-0.35289998919514515,-0.9862144487787317,-0.8953705756976801
0.00010499999999999999,-0.9267856455782875,-0.30572994641715084,-0.9820393164093014,-0.9267856455782875
0.000106,-0.9529661163659826,-0.24181405408433398,-0.9770049086737982,-0.9529661163659826
0.000107,-0.9725584234574677,-0.16876664168801003,-0.9858274628505758,-0.9725584234574677
0.000108,-0.985128877692311,-0.09549936519856678,-0.9698620878861284,-0.985128877692311
0.00010899999999999999,-0.9907974142241532,-0.02054930995200645,-0.9242323992231476,-0.9907974142241532
0.00010999999999999999,-0.9881410095895169,0.07723653610943919,-0.8857109020920125,-0.9881410095895169
0.000111,-0.9756052170178809,0.18682341283502749,-0.8394468266712224,-0.9756052170178809
0.000112,-0.9525514785188561,0.296348683977855,-0.8524492539288208,-0.9525514785188561
0.000113,-0.9201818954066984,0.3789646824167154,-0.9140918341180819,-0.9201818954066984
0.00011399999999999999,-0.8822438347809671,0.40693223913319043,-0.959501471068755,-0.8822438347809671
0.00011499999999999999,-0.8445564632410383,0.37914029359078133,-1.0187742976941245,-0.8445564632410383
0.000116,-0.8119510469348167,0.30042689385829124,-1.09789662796642,-0.8119510469348167
0.000117,-0.7894117050739106,0.16839182507752304,-1.1740957705642123,-0.7894117050739106
0.000118,-0.7813688613094796,1.5348630887553522e-05,-1.2464448632815766,-0.7813688613094796
0.00011899999999999999,-0.7905044148665872,-0.19575065413388093,-1.3012049061120705,-0.7905044148665872
0.00011999999999999999,-0.8185355905160495,-0.39045474810601366,-1.3807078550619853,-0.8185355905160495
0.000121,-0.8654405108058529,-0.5945186300347761,-1.4297368433328899,-0.8654405108058529
0.000122,-0.9306687618863752,-0.7620305294742145,-1.3592674191677072,-0.9306687618863752
0.00012299999999999998,-1.0069726612024192,-0.8226887699170096,-1.277968060610195,-1.0069726612024192
0.000124,-1.0850465786537944,-0.807007844990653,-1.2543012495822603,-1.0850465786537944
0.000125,-1.1586000024212304,-0.7274566426068367,-1.2144579555592765,-1.1586000024212304
0.000126,-1.2220957662443246,-0.5956552546290809,-1.1375999910173387,-1.2220957662443246
0.000127,-1.2692195551755978,-0.38167470251136937,-1.0154580855083173,-1.2692195551755978
0.000128,-1.2934295174336623,-0.11959053651623329,-0.8966372116144145,-1.2934295174336623
0.000129,-1.2900099956774587,0.1982778830426891,-0.7990473331550361,-1.2900099956774587
0.00013,-1.2556921060251307,0.5210293196014274,-0.6665501589377653,-1.2556921060251307
0.00013099999999999999,-1.1894969528627652,0.8727181784399908,-0.5339640527033155,-1.1894969528627652
0.00013199999999999998,-1.0901981210538034,1.1996243348157138,-0.46576236274969807,-1.0901981210538034
0.000133,-0.9621626000992889,1.4766349453970922,-0.3975724485596585,-0.9621626000992889
0.000134,-0.8092628306120481,1.7636530318498427,-0.33069051245851855,-0.8092628306120481
0.000135,-0.6097570719438662,2.3030638771479626,-0.24279709392102325,-0.6097570719438662
0.000136,-0.39044784379469766,2.181814366143143,-0.16557418523519735,-0.39044784379469766
0.000137,-0.2015646109752759,1.7715558352641978,-0.07728365368817788,-0.2015646109752759
0.000138,-0.04279173045294556,1.5872786023913823,0.01255203806707427,-0.04279173045294556
0.000139,0.10178083112234904,1.443500832097303,0.10573341826716001,0.10178083112234904
0.00014,0.23190708594065187,1.2774332540927034,0.1813842395346135,0.23190708594065187
0.00014099999999999998,0.344533640033322,1.0919683385852075,0.22903437098148216,0.344533640033322
0.00014199999999999998,0.4393244254268703,0.8937700584120082,0.2702174188287949,0.4393244254268703
0.000143,0.5144911809714648,0.683109181373153,0.32534176025706707,0.5144911809714648
0.000144,0.5701375301572841,0.4918202767382664,0.3987704358068445,0.5701375301572841
0.000145,0.6085973746947795,0.31492420553224293,0.5127851005640613,0.6085973746947795
0.000146,0.6322591785071106,0.18574245313332025,0.6322391896862805,0.6322591785071106
0.000147,0.6459180932239487,0.11630818046198214,0.7649008312817817,0.6459180932239487
0.000148,0.6574112585985402,0.12442921150387155,0.938088489191655,0.6574112585985402
0.000149,0.6731800610257557,0.2079206082402935,1.0936387356473432,0.6731800610257557
0.00015,0.6998470073239259,0.3622996772347263,1.2234575073293108,0.6998470073239259
0.00015099999999999998,0.7436252663537141,0.550335258307396,1.3040289684980868,0.7436252663537141
0.00015199999999999998,0.805181790264468,0.7395234812196275,1.3685767544265688,0.805181790264468
0.000153,0.8838577878862763,0.9024388077638962,1.4636252320479899,0.8838577878862763
0.000154,0.9768084958614155,1.051254747849372,1.562303496990682,0.9768084958614155
0.000155,1.0835247652814473,1.1807722605355642,1.668164480682515,1.0835247652814473
0.000156,1.2012761743560025,1.2888502005672067,1.7054698570701714,1.2012761743560025
0.000157,1.3269805698864336,1.3361123409271147,1.6710292996239502,1.3269805698864336
0.000158,1.4526004196143656,1.283499188239887,1.6155633349335647,1.4526004196143656
0.000159,1.5683705704806492,1.1355612526354715,1.536788913762193,1.5683705704806492
0.00015999999999999999,1.665878276321015,0.8992461711346088,1.542538254392284,1.665878276321015
0.00016099999999999998,1.7388444417335016,0.6323222942211196,1.5822728926814746,1.7388444417335016
0.00016199999999999998,1.7864965241703072,0.37003039862812726,1.5692127803256581,1.7864965241703072
0.000163,1.8091200190094077,0.10463845514444238,1.5249487250237679,1.8091200190094077
0.000164,1.8061355956686318,-0.1705956977628951,1.4589323545955981,1.8061355956686318
0.000165,1.7765248146332668,-0.44689421119424627,1.3999754250645595,1.7765248146332668
0.000166,1.7221584068353972,-0.6924889078829018,1.3480306755590221,1.7221584068353972
0.000167,1.6451331105186047,-0.9146278065450488,1.3343538116934155,1.6451331105186047
0.000168,1.5490164384672505,-1.0940604621534356,1.362453683400079,1.5490164384672505
0.000169,1.4398046147272756,-1.1847214791329488,1.3674386374135314,1.4398046147272756
0.00016999999999999999,1.3262457503653065,-1.1887299313484783,1.325193786818478,1.3262457503653065
0.00017099999999999998,1.2143723522092351,-1.1524875977015812,1.2861796930037266,1.2143723522092351
0.00017199999999999998,1.1081282203784402,-1.073583690810478,1.251094343956616,1.1081282203784402
0.000173,1.0114560520445068,-0.9521741544018102,1.2445989946979814,1.0114560520445068
0.000174,0.9278911962777373,-0.7971619681550774,1.2386563695284436,0.9278911962777373
0.000175,0.8606079282593416,-0.6089810422670888,1.250344561354955,0.8606079282593416
0.000176,0.812480745927,-0.399410882629976,1.2638213664133096,0.812480745927
0.000177,0.7847622309509071,-0.18269098609532408,1.2562557013963764,0.7847622309509071
0.000178,0.7775010552905225,0.02666369294209961,1.2290243560649698,0.7775010552905225
0.000179,0.7887857247850627,0.20684759442180536,1.2356338355238636,0.7887857247850627
0.00017999999999999998,0.8161337400906089,0.3626669384088788,1.321785680321181,0.8161337400906089
0.00018099999999999998,0.858286623293721,0.5238086993899641,1.4245754681924483,0.858286623293721
0.00018199999999999998,0.9161724679477052,0.6975149345097317,1.5038104387083586,0.9161724679477052
0.000183,0.9909941017721542,0.8663227390874145,1.5773032384078427,0.9909941017721542
0.000184,1.0802758043311207,1.005478542993836,1.6214810635805859,1.0802758043311207
0.000185,1.1810079794944888,1.0996812425395803,1.606050402435881,1.1810079794944888
0.000186,1.2876028052560342,1.1249172482991676,1.5918501504394702,1.2876028052560342
0.000187,1.3931566260347534,1.0799494035827746,1.6142686680304634,1.3931566260347534
0.000188,1.4919131234830565,0.9876815717549237,1.610335343342128,1.4919131234830565
0.00018899999999999999,1.5796268663578723,0.8451884759237581,1.5587558736155318,1.5796268663578723
0.00018999999999999998,1.6510656692612533,0.6441541050110479,1.5245122125838124,1.6510656692612533
0.00019099999999999998,1.7017191999026429,0.41784408579327725,1.551760185359543,1.7017191999026429
0.000192,1.7303045362085125,0.18815427441175225,1.6117571378937914,1.7303045362085125
0.000193,1.7386259250116787,0.0009219183450288604,1.704448549812025,1.7386259250116787
0.000194,1.7324227787523354,-0.12386886057175095,1.858440671950818,1.7324227787523354
0.000195,1.7188642136496741,-0.1567730067280213,2.041868219506413,1.7188642136496741
0.000196,1.7071899164313682,-0.08408880220103292,2.2064059269927063,1.7071899164313682
0.000197,1.7065823581558743,0.0725940435536381,2.3210391983992658,1.7065823581558743
0.000198,1.7226076590108215,0.2718883234401214,2.395789722102483,1.7226076590108215
0.00019899999999999999,1.7585452717170706,0.477291415640045,2.4400890670241298,1.7585452717170706
0.00019999999999999998,1.812868841464217,0.6611991332468016,2.472894105814613,1.812868841464217
0.00020099999999999998,1.8834791974589709,0.8132106775637915,2.468686941728239,1.8834791974589709
0.000202,1.9659017718505503,0.907578428418065,2.486143772900207,1.9659017718505503
0.000203,2.0547475622175773,0.9493709246160309,2.4907732357117296,2.0547475622175773
0.000204,2.145186730638524,0.9419758771166298,2.467245049929913,2.145186730638524
0.000205,2.2325192902908872,0.8776369550498889,2.4311457574079474,2.2325192902908872
0.000206,2.3087856094213093,0.7112190632051053,2.313436122334482,2.3087856094213093
0.000207,2.3660902891948337,0.48841282993672525,2.1488624217694525,2.3660902891948337
0.000208,2.3987207545673344,0.18759210403126017,1.9744924019577514,2.3987207545673344
0.00020899999999999998,2.39877055640705,-0.19135792881153424,1.8307169474722003,2.39877055640705
0.00020999999999999998,2.360579529982019,-0.6083553240938403,1.6989546609303638,2.360579529982019
0.00021099999999999998,2.2823648431965102,-1.0317918459014488,1.6132025193024315,2.2823648431965102
0.000212,2.16462863259573,-1.4258080715448838,1.529293952691655,2.16462863259573
0.000213,2.0062380537944184,-2.1425911685792385,1.453950602921081,2.0062380537944184
0.000214,1.736280618956852,-3.206367073748959,1.3702594390264902,1.736280618956852
0.000215,1.4345740102084483,-2.9026414864802477,1.3183084787546284,1.4345740102084483
0.000216,1.2009323694066079,-1.9912629393548424,1.268765492630616,1.2009323694066079
0.000217,1.036255303060132,-1.5737002934399984,1.2270691823922042,1.036255303060132
0.00021799999999999999,0.8963298024269121,-1.3496175918271964,1.1611901299025895,0.8963298024269121
0.00021899999999999998,0.7786432185550142,-1.1209038134876967,1.05692187884098,0.7786432185550142
0.00021999999999999998,0.6818640425524827,-0.9119970537107305,0.9556618715525331,0.6818640425524827
