time,V_C,I_L,V_IN,V_C
0.0,0.0,0.0,-54.26930198833275,0.0
1e-06,-1.524802795768234,-1.0414335506957586,-50.22357949544473,-1.524802795768234
2e-06,-5.7399273868385965,-1.8748122137237662,-46.2660702020252,-5.7399273868385965
3e-06,-11.990785539401276,-2.4512750213877528,-42.213221277678315,-11.990785539401276
4e-06,-19.517811583729582,-2.780634818410891,-36.65485357133533,-19.517811583729582
4.9999999999999996e-06,-27.627915400502562,-2.827046929977773,-28.38195455658298,-27.627915400502562
6e-06,-35.19550262106506,-2.421528239187247,-16.304207955933265,-35.19550262106506
7e-06,-41.239625872710455,-1.7942865386501354,-2.331875210716739,-41.239625872710455
8e-06,-45.15134459442294,-0.8725065091986757,9.850391054647359,-45.15134459442294
9e-06,-45.96835551408539,0.2904465036592439,20.44524534007042,-45.96835551408539
9.999999999999999e-06,-43.32648640812826,1.5788587832456722,27.70942307979086,-43.32648640812826
1.1e-05,-37.02680482839644,2.806424933156124,32.92260430603359,-37.02680482839644
1.2e-05,-27.404022601246137,3.8899909718003514,41.39425534351788,-27.404022601246137
1.3e-05,-14.833399196897748,4.8724752991367035,49.366978822424436,-14.833399196897748
1.4e-05,3.6241245071459662,8.255822343650982,60.32901387683337,3.6241245071459662
1.4999999999999999e-05,30.11721906559781,9.458026913054114,69.27775669006692,30.11721906559781
1.6e-05,55.621333073572664,7.977826377998424,77.22101694315552,55.621333073572664
1.7e-05,75.20653474198845,5.624772350342386,86.17766971523466,75.20653474198845
1.8e-05,89.7664170911975,4.755976943522873,93.78379569497561,89.7664170911975
1.8999999999999998e-05,102.68914630818558,4.287063151732959,100.07667135881994,102.68914630818558
1.9999999999999998e-05,114.23479178760759,3.770397161576547,103.57828939791627,114.23479178760759
2.1e-05,124.16145549932841,3.1577103175974184,103.93479169526522,124.16145549932841
2.2e-05,132.15034747431864,2.414206335605636,102.059263475863,132.15034747431864
2.3e-05,137.85763653505666,1.5678185240486184,98.88898224328142,137.85763653505666
2.4e-05,141.0450597247225,0.6541716433017626,99.30608673304853,141.0450597247225
2.4999999999999998e-05,141.66195348499136,-0.20825583060213138,100.58338769690572,141.66195348499136
2.6e-05,139.9396786752083,-0.9671157518333604,103.38390943418842,139.9396786752083
2.7e-05,136.26667367150972,-1.5895181296766623,98.54696827082054,136.26667367150972
2.8e-05,130.8928642730457,-2.1608839027197737,92.4061264045179,130.8928642730457
2.9e-05,123.9429491879705,-2.697903592229947,87.87575568450376,123.9429491879705
2.9999999999999997e-05,115.59008461217928,-3.1195843650378707,83.71831316317873,115.59008461217928
3.1e-05,106.23690492339874,-3.40409432565711,82.81003365403396,106.23690492339874
3.2e-05,96.33806910176608,-3.4886907603512505,83.57436086095487,96.33806910176608
3.2999999999999996e-05,86.48383110531339,-3.3735280209213663,83.42088931847503,86.48383110531339
3.4e-05,77.21948025229895,-3.0729193855707977,85.56346546159092,77.21948025229895
3.5e-05,69.24373268604928,-2.481705379917004,94.67517331001298,69.24373268604928
3.6e-05,63.21616303118608,-1.7073488166379551,104.00327689826538,63.21616303118608
3.7e-05,59.69809967541583,-0.7138056064540603,111.36363929819953,59.69809967541583
3.7999999999999995e-05,59.21615834369035,0.3781791310490058,115.47107134250818,59.21615834369035
3.9e-05,61.81251674460268,1.4137502214617363,116.9430657467566,61.81251674460268
3.9999999999999996e-05,67.18943068915291,2.3285773563653667,113.51707855737337,67.18943068915291
4.1e-05,74.86798265669647,2.9858339420584095,110.06850806941837,74.86798265669647
4.2e-05,83.97847625111149,3.3594312826539494,113.58786504846495,83.97847625111149
4.2999999999999995e-05,93.92966572377372,3.5777919703369436,120.4049571538135,93.92966572377372
4.4e-05,104.28718601028724,3.675451141565989,128.12871051985783,104.28718601028724
4.4999999999999996e-05,115.02841323681938,3.837287628171128,138.06768611607342,115.02841323681938
4.6e-05,126.12434439013784,3.919962661537042,151.22865950731654,126.12434439013784
4.7e-05,137.49875282414425,4.056453554285797,164.95795264495828,137.49875282414425
4.8e-05,149.2827001097315,4.163111817120102,181.50486245817538,149.2827001097315
4.9e-05,161.39230987613976,4.355080317680353,197.7888802706704,161.39230987613976
4.9999999999999996e-05,174.22709729205687,4.602523825872679,211.7102069623256,174.22709729205687
5.1e-05,187.7491685796367,4.8855615640548855,224.29801430994712,187.7491685796367
5.2e-05,202.06245271036437,5.094431751293647,226.84339673246302,202.06245271036437
5.3e-05,216.5331896878559,4.968118708155692,223.97527343570243,216.5331896878559
5.4e-05,230.18665343153864,4.54795960514098,219.29952340897339,230.18665343153864
5.4999999999999995e-05,242.28698793698578,3.8517259026503714,211.05808060552343,242.28698793698578
5.6e-05,251.81771559975186,2.783873226313049,200.92428532931783,251.81771559975186
5.6999999999999996e-05,257.948662339573,1.483835506247885,188.49530823720718,257.948662339573
5.8e-05,260.0009362422899,-0.08896714183566679,176.3566882488379,260.0009362422899
5.9e-05,257.3912899213852,-1.723347050884687,172.24372476854072,257.3912899213852
5.9999999999999995e-05,250.33898000595084,-3.165814964031494,170.74795573180964,250.33898000595084
6.1e-05,239.48714290315678,-4.4011714356625475,169.17935788713666,239.48714290315678
6.2e-05,224.65199234216544,-6.689332717325956,169.7451927023043,224.65199234216544
6.3e-05,201.53565434632998,-8.639132279838375,169.51126722906224,201.53565434632998
6.4e-05,178.96271079482247,-6.8032381780823705,170.29703100779776,178.96271079482247
6.5e-05,162.88006840599874,-4.864076316897252,172.09491098088432,162.88006840599874
6.599999999999999e-05,150.05722886587472,-4.101016026353538,175.65495386132434,150.05722886587472
6.7e-05,139.64111369762622,-3.1610943062163948,174.7096954749196,139.64111369762622
6.8e-05,132.0563392364782,-2.1393842300718804,173.6090613289817,132.0563392364782
6.9e-05,127.41472309716039,-1.1232507570147354,171.13627669442604,127.41472309716039
7e-05,125.59010926460391,-0.17445971876028377,165.24790314683173,125.59010926460391
7.099999999999999e-05,126.2379504753906,0.6116446803022808,160.4607207386675,126.2379504753906
7.2e-05,128.90843121024957,1.2149284849400668,154.56008171893046,128.90843121024957
7.3e-05,132.92759795109905,1.5801481282860057,152.54800182261965,132.92759795109905
7.4e-05,137.78499482468985,1.7951245752632154,152.46718580922652,137.78499482468985
7.5e-05,143.07826688879965,1.8929863086530372,153.30768341755785,143.07826688879965
7.599999999999999e-05,148.5108356697033,1.8937320667950348,153.92620588201316,148.5108356697033
7.7e-05,153.80844901755387,1.7999665762497647,154.22095293976864,153.80844901755387
7.8e-05,158.71250602880096,1.6070752890080524,148.61703757683097,158.71250602880096
7.9e-05,162.80780929618902,1.2476981973998797,141.22680844624887,162.80780929618902
7.999999999999999e-05,165.65487466352445,0.7267584103879218,132.43468357224006,165.65487466352445
8.099999999999999e-05,166.77148731465965,0.012861713945968745,124.36676173895893,166.77148731465965
8.2e-05,165.60746082524236,-0.8151141302807711,117.13161599236024,165.60746082524236
8.3e-05,162.01959657089307,-1.707243438924258,111.1981264679365,162.01959657089307
8.4e-05,155.94470411959014,-2.5228323427612973,104.76639917570712,155.94470411959014
8.499999999999999e-05,147.6449174105988,-3.253362190250821,104.68480474230107,147.6449174105988
8.599999999999999e-05,137.58880877288286,-3.731411004684873,111.03009787830148,137.58880877288286
8.7e-05,126.71747116500754,-3.8171537409020617,116.14265050601362,126.71747116500754
8.8e-05,116.05085921904568,-3.6073398057366486,119.30685515906049,116.05085921904568
8.9e-05,106.3553544546084,-3.1392598841517874,122.49763348626489,106.3553544546084
8.999999999999999e-05,98.28345896782218,-2.4880076391158217,128.9945623552958,98.28345896782218
9.099999999999999e-05,92.28546410138551,-1.6628953853305333,138.2751758082916,92.28546410138551
9.2e-05,88.99465426504628,-0.6307994606343956,142.12161174019286,88.99465426504628
9.3e-05,88.77221901581756,0.46638062032586614,140.76282816286874,88.77221901581756
9.4e-05,91.57938141059564,1.4580179856929014,134.2820819473377,91.57938141059564
9.499999999999999e-05,96.69753084542906,2.0778125196879422,122.86118602499668,96.69753084542906
9.6e-05,103.09934595265013,2.339291035871069,107.46498233523661,103.09934595265013
9.7e-05,109.58170455350678,2.1502266916969757,92.9823122254673,109.58170455350678
9.8e-05,114.94012469395771,1.5746978775621507,78.43411081682144,114.94012469395771
9.9e-05,118.22429628523456,0.6748029684368264,69.81241590023477,118.22429628523456
9.999999999999999e-05,118.70810007476898,-0.3243124615256318,64.83574447141434,118.70810007476898
0.000101,116.34898447988991,-1.3359331311137883,57.21610450083333,116.34898447988991
0.000102,111.07548936751785,-2.3370485365444704,46.54289940833569,111.07548936751785
0.000103,102.95752700084768,-3.3634126650501877,36.047850519235574,102.95752700084768
0.000104,91.91157357470341,-4.3282553205182035,29.941310562729903,91.91157357470341
0.00010499999999999999,78.15510571669417,-5.574123958446299,22.190615206922125,78.15510571669417
0.000106,57.72866730381313,-8.100782687398013,10.983747221086468,57.72866730381313
0.000107,33.9296078884642,-8.075997920402784,0.8731269335254783,33.9296078884642
0.000108,12.700961753440604,-6.6143734793653906,-6.8972931267047155,12.700961753440604
0.00010899999999999999,-4.081350826859532,-5.220193568082632,-13.586694782285155,-4.081350826859532
0.00010999999999999999,-18.150482490686624,-4.656559852472458,-14.777204580211572,-18.150482490686624
0.000111,-30.626381805156996,-4.050389579222534,-13.587366986514771,-30.626381805156996
0.000112,-41.12089865152629,-3.268924666711579,-11.711672563761821,-41.12089865152629
0.000113,-49.16866411575274,-2.3472084069087256,-12.138160948667092,-49.16866411575274
0.00011399999999999999,-54.47544113933801,-1.3656111695515145,-13.152755771251714,-54.47544113933801
0.00011499999999999999,-56.98881524849801,-0.41107411536961824,-15.945486777790592,-56.98881524849801
0.000116,-56.96258870860547,0.4067390292433273,-24.180690583130175,-56.96258870860547
0.000117,-55.012744594860315,0.9324736854070999,-32.6793263555489,-55.012744594860315
0.000118,-51.834246316417556,1.2450402239159033,-44.071082305945225,-51.834246316417556
0.00011899999999999999,-47.983789557373356,1.3816128512332044,-55.297521294972476,-47.983789557373356
0.00011999999999999999,-44.322298741735146,1.1412863461246172,-66.5797258555403,-44.322298741735146
0.000121,-41.79671131254174,0.5856023859047559,-70.42707467860005,-41.79671131254174
0.000122,-41.00499326405691,-0.028188939598996487,-70.12229895570624,-41.00499326405691
0.00012299999999999998,-41.900664315977586,-0.5894303707690859,-66.01809878975604,-41.900664315977586
0.000124,-44.22140986053871,-1.0041895088659536,-59.943987876984956,-44.22140986053871
0.000125,-47.40705429628456,-1.1984358937771022,-59.08011260198538,-47.40705429628456
0.000126,-50.98719569696281,-1.2955677526237588,-65.15672810166689,-50.98719569696281
0.000127,-54.86523964833171,-1.4270315941490803,-71.27747035313394,-54.86523964833171
0.000128,-59.20137537382647,-1.5982289610487654,-73.3446455016135,-59.20137537382647
0.000129,-63.93854695483945,-1.7011206840089366,-72.97990708669872,-63.93854695483945
0.00013,-68.81938068134508,-1.6952337268053317,-69.14773883618575,-68.81938068134508
0.00013099999999999999,-73.48916020485343,-1.5381122817668536,-63.38950775716626,-73.48916020485343
0.00013199999999999998,-77.41849015860521,-1.1953148474915496,-61.35811065845793,-77.41849015860521
0.000133,-80.21383469355419,-0.7540288182207595,-57.91305740575932,-80.21383469355419
0.000134,-81.72753169601434,-0.280326081672692,-49.42661041234078,-81.72753169601434
0.000135,-81.63395688158727,0.3512761589446046,-43.766053645854576,-81.63395688158727
0.000136,-79.63134293135406,1.0540335054789467,-44.80591496902309,-79.63134293135406
0.000137,-75.75603157478687,1.6345758059933357,-47.53289938521098,-75.75603157478687
0.000138,-70.499796517222,2.014752475980056,-50.453080502824925,-70.499796517222
0.000139,-64.45309306072186,2.173790141227344,-52.186748711386784,-64.45309306072186
0.00014,-58.19565203015879,2.1814123394431504,-55.231356250240694,-58.19565203015879
0.00014099999999999998,-52.164730415991436,2.014120386597284,-59.14435256972117,-52.164730415991436
0.00014199999999999998,-46.84382796783018,1.6682185372093885,-67.1898129747829,-46.84382796783018
0.000143,-42.85585302405124,1.1031977820457237,-71.13981821498389,-42.85585302405124
0.000144,-40.62990367579013,0.46098508437814634,-67.91729347565973,-40.62990367579013
0.000145,-40.14640988510054,-0.116219953034911,-61.180646587857716,-40.14640988510054
0.000146,-41.12625906402565,-0.5372053471858536,-58.173588608928476,-41.12625906402565
0.000147,-43.08663677042954,-0.8128441838748715,-57.435310054643374,-43.08663677042954
0.000148,-45.713490928180974,-1.0323500354751507,-64.03985474721604,-45.713490928180974
0.000149,-49.08222544512506,-1.333935965611866,-70.07601475447522,-49.08222544512506
0.00015,-53.304425889275436,-1.6165208944519471,-75.088978025689,-53.304425889275436
0.00015099999999999998,-58.35514384152082,-1.9220899868649313,-81.0247173944063,-58.35514384152082
0.00015199999999999998,-64.23319791671481,-2.182186524286388,-84.75984409464762,-64.23319791671481
0.000153,-70.75530953581179,-2.3645393986952143,-85.77761145464888,-70.75530953581179
0.000154,-77.60012124658576,-2.396086968174254,-83.0907678813431,-77.60012124658576
0.000155,-84.24008079534092,-2.219716948329015,-79.01356754967875,-84.24008079534092
0.000156,-90.12658967361759,-1.8774983776170462,-75.63028006087202,-90.12658967361759
0.000157,-94.83623710114394,-1.4101262992964094,-78.15949520913951,-94.83623710114394
0.000158,-98.20260243966602,-0.9567394241152442,-84.28810463958692,-98.20260243966602
0.000159,-100.45304542740136,-0.6426099724497083,-90.37985689380587,-100.45304542740136
0.00015999999999999999,-101.91772751654057,-0.3809287117149881,-94.05234250299964,-101.91772751654057
0.00016099999999999998,-102.69709375223283,-0.17693257576086002,-94.9564104395121,-102.69709375223283
0.00016199999999999998,-102.96102882337809,-0.008041297528253603,-91.3705673522169,-102.96102882337809
0.000163,-102.65957423155069,0.21726409601291768,-89.17916929442337,-102.65957423155069
0.000164,-101.69681870169622,0.45760879677615285,-87.61249498183972,-101.69681870169622
0.000165,-100.05568580866318,0.6828491293400392,-85.16194822853397,-100.05568580866318
0.000166,-97.78972578339516,0.9002641400667717,-82.49523410921557,-97.78972578339516
0.000167,-94.91224971568536,1.1165136070443575,-78.77213278403661,-94.91224971568536
0.000168,-91.42530940774303,1.3114848421772671,-75.22751922904342,-91.42530940774303
0.000169,-87.42732015870251,1.4826424812855528,-68.3691011366057,-87.42732015870251
0.00016999999999999999,-82.89880266341743,1.702166797565717,-61.28562924602692,-82.89880266341743
0.00017099999999999998,-77.68205596421981,1.93654061489609,-52.11629106301375,-77.68205596421981
0.00017199999999999998,-71.87041104746143,2.1604214690652133,-42.42715003484312,-71.87041104746143
0.000173,-65.12046821491732,2.5722915626518144,-31.06351752882462,-65.12046821491732
0.000174,-57.16126609017209,2.9828708199344054,-23.954349266237546,-57.16126609017209
0.000175,-48.201964654342795,3.286955459337779,-17.723980985269346,-48.201964654342795
0.000176,-38.406602936800894,3.5470725843201114,-13.141400503770937,-38.406602936800894
0.000177,-28.04768447800531,3.671289417036642,-8.064980478617388,-28.04768447800531
0.000178,-17.59827976731605,3.6321630732987162,-1.2485414197059985,-17.59827976731605
0.000179,-7.333854378961753,3.533825754085012,1.0626311195309197,-7.333854378961753
0.00017999999999999998,2.500946513741435,3.326452943113744,-2.114924270459998,2.500946513741435
0.00018099999999999998,11.48379063820067,2.911494639071194,-8.095473800071387,11.48379063820067
0.00018199999999999998,18.836777202479546,2.2060963943985916,-14.224438647223662,18.836777202479546
0.000183,23.900542108055813,1.3152134196220728,-24.025936218199774,23.900542108055813
0.000184,26.125314075549078,0.22821968092466022,-33.715073055953816,26.125314075549078
0.000185,25.053968441041167,-0.9755244931906024,-45.60790932838737,25.053968441041167
0.000186,20.35160626123273,-2.3418958851968523,-59.150210649826334,20.35160626123273
0.000187,11.734905007603988,-3.646599915018999,-71.17793261143154,11.734905007603988
0.000188,-0.490096495724635,-4.941255348082349,-80.03104443594286,-0.490096495724635
0.00018899999999999999,-22.248987951789886,-10.377142394835504,-88.36904088340309,-22.248987951789886
0.00018999999999999998,-54.71043356348985,-11.275949885585428,-96.17365722947007,-54.71043356348985
0.00019099999999999998,-83.85633552672064,-8.674791717790583,-102.32127595583307,-83.85633552672064
0.000192,-104.05782072097256,-5.550904047116515,-109.11717074209508,-104.05782072097256
0.000193,-118.35739174182011,-4.666094582978786,-121.47860732526777,-118.35739174182011
0.000194,-130.9979503791261,-4.175895558223011,-133.3471176956088,-130.9979503791261
0.000195,-142.33687313347838,-3.750067296882229,-141.11705690850073,-142.33687313347838
0.000196,-152.45833226733095,-3.3160776363362383,-141.68463144478514,-152.45833226733095
0.000197,-161.1626417652438,-2.749741362939943,-134.09475668748465,-161.1626417652438
0.000198,-167.89687682305683,-1.9185211899766659,-123.46337531596527,-167.89687682305683
0.00019899999999999999,-171.84900043544212,-0.8401917138867647,-113.68423054334527,-171.84900043544212
0.00019999999999999998,-172.49906009948117,0.374879592856094,-107.16460357688487,-172.49906009948117
0.00020099999999999998,-169.65372975923216,1.5950463271849697,-100.68081799678563,-169.65372975923216
0.000202,-163.4141660191113,2.765385313686472,-91.37197044424215,-163.4141660191113
0.000203,-153.85942375455477,3.8841003029703907,-79.59957731338999,-153.85942375455477
0.000204,-141.14784590777384,5.09773567336578,-70.65246551665783,-141.14784590777384
0.000205,-120.24959382966918,9.342237777024119,-62.029013105444335,-120.24959382966918
0.000206,-91.78341889133871,9.847132439823644,-50.6954414007147,-91.78341889133871
0.000207,-65.7201512434453,8.00463615096629,-35.169576080904235,-65.7201512434453
0.000208,-45.701055957335726,6.291048694799462,-20.623817080654643,-45.701055957335726
0.00020899999999999998,-28.631581343761376,5.434091184466235,-10.333472184086022,-28.631581343761376
0.00020999999999999998,-13.73940874915855,4.945998625068853,-4.303148370809539,-13.73940874915855
0.00021099999999999998,-0.16420079786273112,4.540035457964533,-1.2163343381500262,-0.16420079786273112
0.000212,12.071122648826131,4.007643705255443,-0.09565621321035925,12.071122648826131
0.000213,22.59593639016378,3.339808351350219,3.420796108581302,22.59593639016378
0.000214,31.151673984253087,2.6475149561896356,10.240966479522962,31.151673984253087
0.000215,37.74014183815086,1.9674929601320665,19.257069510888417,37.74014183815086
0.000216,42.513794342982976,1.424597865258843,29.861093133669417,42.513794342982976
0.000217,46.02377383956944,1.0269110925181681,38.08050472037266,46.02377383956944
0.00021799999999999999,48.535985990168854,0.7642603126809873,44.932595740605244,48.535985990168854
0.00021899999999999998,50.520508900718205,0.6198558739809534,49.36443025656873,50.520508900718205
0.00021999999999999998,52.16657704245907,0.5513862538455901,53.29343136813299,52.16657704245907
0.00022099999999999998,53.69534849112428,0.5165263748581421,59.37587471577205,53.69534849112428
0.000222,55.232782780231126,0.5615632578442092,63.194855898584656,55.232782780231126
0.000223,56.941172386737385,0.635329145692405,60.46237308387192,56.941172386737385
0.000224,58.76604453571395,0.6381763144421696,55.26790514297425,58.76604453571395
0.000225,60.44390447579171,0.5207222344849821,47.324804697873326,60.44390447579171
