time,V_C,I_L,V_IN,V_C
0.0,0.0,0.0,-85.43560323877551,0.0
1e-06,-3.2821318756413254,-1.7568734375191641,-88.46691833044889,-3.2821318756413254
2e-06,-12.886082900933099,-3.402855680395329,-91.56230374517779,-12.886082900933099
3e-06,-28.416054259866023,-5.037942963995673,-93.85746864617198,-28.416054259866023
4e-06,-51.040766951827756,-7.197237393312704,-95.5220239727968,-51.040766951827756
4.9999999999999996e-06,-79.75050585593266,-7.848061910772612,-94.38508824852035,-79.75050585593266
6e-06,-106.0170177584288,-6.194853452025334,-91.1767203164149,-106.0170177584288
7e-06,-125.55500894639161,-4.476995524904287,-90.20240350200469,-125.55500894639161
8e-06,-139.60610094444203,-3.1057570244702775,-93.76687817511664,-139.60610094444203
9e-06,-148.65257647612881,-1.8189775678510562,-100.64483576221463,-148.65257647612881
9.999999999999999e-06,-153.21460418107222,-0.661349384544254,-106.10877765451762,-153.21460418107222
1.1e-05,-153.74110240098017,0.36377026149182073,-113.07551304917041,-153.74110240098017
1.2e-05,-150.8316312494436,1.1780804568559593,-120.71452627955202,-150.8316312494436
1.3e-05,-145.4317531289922,1.6699827109794283,-128.34138139910687,-145.4317531289922
1.4e-05,-138.86763153487462,1.8503647918671922,-135.83226126879345,-138.86763153487462
1.4999999999999999e-05,-132.16125523410676,1.6915277773598751,-146.1663000436102,-132.16125523410676
1.6e-05,-126.7404672467236,1.19950187156042,-154.45854178626124,-126.7404672467236
1.7e-05,-123.53707387359935,0.4980054334819002,-159.1298248823517,-123.53707387359935
1.8e-05,-123.13281220552234,-0.274915758806759,-161.83610847910165,-123.13281220552234
1.8999999999999998e-05,-125.60923302163181,-1.0532189162656953,-163.8469804326691,-125.60923302163181
1.9999999999999998e-05,-130.83023881366512,-1.7451574363913664,-164.27535337783084,-130.83023881366512
2.1e-05,-138.31895186730523,-2.2677023976977937,-164.41720453116255,-138.31895186730523
2.2e-05,-147.36409295004722,-2.583729605604331,-168.9907206999604,-147.36409295004722
2.3e-05,-157.26926874253598,-2.734190637560325,-168.4071974121858,-157.26926874253598
2.4e-05,-167.37747389158687,-2.6883050632135044,-165.18773590653208,-167.37747389158687
2.4999999999999998e-05,-176.84984771221673,-2.3801726835213373,-163.12038872155696,-176.84984771221673
2.6e-05,-184.73439103375654,-1.8457093549479504,-161.44336848774458,-184.73439103375654
2.7e-05,-190.31148084652818,-1.1466711782588328,-158.13507452085744,-190.31148084652818
2.8e-05,-193.13550699729197,-0.3764140031686224,-155.69691635317912,-193.13550699729197
2.9e-05,-193.09733363133736,0.392468938770169,-156.5059238910655,-193.09733363133736
2.9999999999999997e-05,-190.29482976688234,1.1153231939077959,-152.39667571301362,-190.29482976688234
3.1e-05,-184.84222832702397,1.824305291015191,-146.36605806488492,-184.84222832702397
3.2e-05,-176.87722622931318,2.447931303402922,-138.3261822620171,-176.87722622931318
3.2999999999999996e-05,-166.87433990600772,2.968438519379484,-130.77584852411738,-166.87433990600772
3.4e-05,-154.78499024928885,3.542920830841547,-119.95400174274188,-154.78499024928885
3.5e-05,-140.7807213821599,3.993951274785882,-107.98709655472415,-140.7807213821599
3.6e-05,-125.16797166222943,4.431273933359902,-96.13616586199402,-125.16797166222943
3.7e-05,-108.26380373729084,4.645977867271393,-86.93033385677293,-108.26380373729084
3.7999999999999995e-05,-90.71572509071956,4.835842482074303,-75.72033035924355,-90.71572509071956
3.9e-05,-72.97049221570308,4.621619431865663,-62.418870662626304,-72.97049221570308
3.9999999999999996e-05,-56.57654620920844,4.241195440808275,-47.452016602536915,-56.57654620920844
4.1e-05,-41.30787877004095,3.9577324048246134,-35.520033937601994,-41.30787877004095
4.2e-05,-27.194843801943748,3.628244036747882,-25.22357432642218,-27.194843801943748
4.2999999999999995e-05,-14.451064329580788,3.2988312253226053,-11.514664942271063,-14.451064329580788
4.4e-05,-2.705082085642421,3.0029301819134147,-1.1210249491939654,-2.705082085642421
4.4999999999999996e-05,7.833046289608146,2.700420277312259,7.505401537038853,7.833046289608146
4.6e-05,17.36516208788926,2.41853483309339,17.638637416445853,17.36516208788926
4.7e-05,25.90120820660239,2.1732275061132107,27.47654828225375,25.90120820660239
4.8e-05,33.622570932538814,1.9796028743960297,36.95480492093438,33.622570932538814
4.9e-05,40.73477587855012,1.891466518426537,44.40490739162398,40.73477587855012
4.9999999999999996e-05,47.55011491793022,1.762475192458033,50.326382886899864,47.55011491793022
5.1e-05,53.789055366873356,1.6072561273460382,53.10743717571089,53.789055366873356
5.2e-05,59.455249212403224,1.44893541745508,58.45029338604679,59.455249212403224
5.3e-05,64.52185964754133,1.2899920467553037,62.915633557039676,64.52185964754133
5.4e-05,69.00844475595942,1.1313827378848482,65.00969654596065,69.00844475595942
5.4999999999999995e-05,72.8485478835481,0.9314988097847677,67.36862913380696,72.8485478835481
5.6e-05,75.88665829094847,0.7075185152883773,67.35962410951328,75.88665829094847
5.6999999999999996e-05,78.0668803801023,0.46220704456150113,62.46167013182454,78.0668803801023
5.8e-05,79.11928925908141,0.09099939321076367,54.19878115845346,79.11928925908141
5.9e-05,78.49137575858794,-0.4361618567945213,47.660039669461156,78.49137575858794
5.9999999999999995e-05,75.74712249114275,-1.0478931257547475,41.73695383888059,75.74712249114275
6.1e-05,70.7011961695062,-1.672211035763222,36.7140658662344,70.7011961695062
6.2e-05,63.44393864064867,-2.21814406668261,34.09966968575282,63.44393864064867
6.3e-05,54.4406393754837,-2.617810688328775,29.022714027665216,54.4406393754837
6.4e-05,44.1675585282429,-2.916718043897101,21.768879174436663,44.1675585282429
6.5e-05,32.97671276782636,-3.0910507786726322,14.11818460024745,32.97671276782636
6.599999999999999e-05,21.493853706170803,-3.092890519512304,7.492588657203084,21.493853706170803
6.7e-05,10.08240351716032,-3.0589315129122774,1.5667597348374132,10.08240351716032
6.8e-05,-1.1011087253013798,-2.981129715825235,-4.275466709017178,-1.1011087253013798
6.9e-05,-11.707404252403068,-2.712933110324749,-9.625062789131816,-11.707404252403068
7e-05,-21.166805297900623,-2.379779303359148,-14.900768411311237,-21.166805297900623
7.099999999999999e-05,-29.30410541934653,-2.0124783143523346,-21.702658683947604,-29.30410541934653
7.2e-05,-35.94171483723543,-1.594684624737716,-29.658553093662906,-35.94171483723543
7.3e-05,-41.33491328004655,-1.3243677072312217,-36.644420838074836,-41.33491328004655
7.4e-05,-45.84573127176324,-1.1123665303334327,-45.198463980911356,-45.84573127176324
7.5e-05,-49.768359272502046,-1.0509016363702046,-55.85516217604493,-49.768359272502046
7.599999999999999e-05,-53.72422605149989,-1.0758490216819185,-66.18557269958185,-53.72422605149989
7.7e-05,-57.959828128915824,-1.207574624543266,-73.71044841766347,-57.959828128915824
7.8e-05,-62.76052940072087,-1.3894701000310439,-74.59373912151662,-62.76052940072087
7.9e-05,-68.1392916983004,-1.4948768382049522,-74.69863818739515,-68.1392916983004
7.999999999999999e-05,-73.6873349088379,-1.4761976048395773,-71.92332540883237,-73.6873349088379
8.099999999999999e-05,-78.85271012613693,-1.286955497165145,-67.47074640731385,-78.85271012613693
8.2e-05,-82.96746810265407,-0.9090892698006212,-65.30028416249831,-82.96746810265407
8.3e-05,-85.48718683579271,-0.4404196555411299,-62.6150534665718,-85.48718683579271
8.4e-05,-86.18515934640529,0.058765238109352635,-64.18541277608638,-86.18515934640529
8.499999999999999e-05,-85.12957256019473,0.5058310673918766,-72.11467208360847,-85.12957256019473
8.599999999999999e-05,-82.69336375671185,0.7648891237645793,-79.66913522875475,-82.69336375671185
8.7e-05,-79.84696958990531,0.701009063008131,-89.37137474749447,-79.84696958990531
8.8e-05,-77.73761651416385,0.42169336600800145,-97.48289995508635,-77.73761651416385
8.9e-05,-76.9849290613106,-0.019411048088018218,-104.17908219417166,-76.9849290613106
8.999999999999999e-05,-78.0529161065669,-0.5599634041615245,-104.83232657149577,-78.0529161065669
9.099999999999999e-05,-81.05818808468743,-1.0433645711026842,-101.39356880200174,-81.05818808468743
9.2e-05,-85.53195463376228,-1.339744968720292,-98.80403620350418,-85.53195463376228
9.3e-05,-90.78520870605577,-1.4756476386874984,-98.79722936036254,-90.78520870605577
9.4e-05,-96.33933542691923,-1.5121747520583784,-101.94565561081517,-96.33933542691923
9.499999999999999e-05,-101.90877996828341,-1.485523809158452,-106.0413045657231,-101.90877996828341
9.6e-05,-107.33833639580668,-1.446067470396322,-110.10843748245773,-107.33833639580668
9.7e-05,-112.56390823393893,-1.3626900021267114,-113.90235490025145,-112.56390823393893
9.8e-05,-117.40893261485398,-1.2509217780379913,-115.91247757361587,-117.40893261485398
9.9e-05,-121.78563308203658,-1.1009194900869657,-115.17086435708207,-121.78563308203658
9.999999999999999e-05,-125.42509750345668,-0.8415909557922386,-113.13300331731489,-125.42509750345668
0.000101,-127.9283104564926,-0.5029014917483317,-113.36559874281583,-127.9283104564926
0.000102,-129.16373422178597,-0.17776610272644577,-116.06224216530094,-129.16373422178597
0.000103,-129.29234694538042,0.10562266871736542,-115.57260726653554,-129.29234694538042
0.000104,-128.4072334498057,0.3670193373461901,-115.80198907461222,-128.4072334498057
0.00010499999999999999,-126.61066041482135,0.5919907613698735,-117.69869231071908,-126.61066041482135
0.000106,-124.1186899756838,0.7251225964072199,-121.51511473775096,-124.1186899756838
0.000107,-121.56410990068332,0.6369775577592318,-129.28503216355233,-121.56410990068332
0.000108,-119.59664027117239,0.4014870394138306,-137.75767634607192,-119.59664027117239
0.00010899999999999999,-118.84831414646328,-0.04632278295233011,-145.24687049504158,-118.84831414646328
0.00010999999999999999,-120.0238032797938,-0.5809863512142607,-149.05147448044042,-120.0238032797938
0.000111,-123.17922250998993,-1.1147367980945577,-149.28956692589855,-123.17922250998993
0.000112,-128.12662089291902,-1.5284982707513848,-147.5742264525352,-128.12662089291902
0.000113,-134.27328192863664,-1.7494189918741503,-142.68494318008717,-134.27328192863664
0.00011399999999999999,-140.69339112383238,-1.6703280296822505,-136.27472559188968,-140.69339112383238
0.00011499999999999999,-146.43272811687154,-1.4087462902153616,-129.73695184156315,-146.43272811687154
0.000116,-150.81597008286923,-0.9152003065444049,-123.12980141499085,-150.81597008286923
0.000117,-152.9772036072676,-0.240114119871936,-117.40911042921928,-152.9772036072676
0.000118,-152.45257562353552,0.5196269047091047,-113.11708914860232,-152.45257562353552
0.00011899999999999999,-149.0939736442822,1.2834341663028819,-110.43252615569304,-149.0939736442822
0.00011999999999999999,-143.04211041329808,1.9580138104140268,-110.29294746925859,-143.04211041329808
0.000121,-134.80923147261166,2.449681682253207,-110.14468140083098,-134.80923147261166
0.000122,-125.15430460665335,2.721828324448887,-111.13584672471467,-125.15430460665335
0.00012299999999999998,-114.94096461364407,2.762463968667621,-109.97678489776362,-114.94096461364407
0.000124,-104.96492166300668,2.5950622757484774,-108.42523147536295,-104.96492166300668
0.000125,-95.96282417572246,2.2383816121703366,-106.16675774733955,-95.96282417572246
0.000126,-88.44120384281314,1.8098677099976839,-101.9304516993377,-88.44120384281314
0.000127,-82.58723291069995,1.3521049813257293,-96.83396665622213,-82.58723291069995
0.000128,-78.45345655983682,0.893780210791741,-95.5967458436129,-78.45345655983682
0.000129,-75.94572294063283,0.4616986809357366,-94.8659404715232,-75.94572294063283
0.00013,-75.0204385366524,0.03438378828943432,-92.70980379877875,-75.0204385366524
0.00013099999999999999,-75.58970416504917,-0.33285048192590994,-93.79241081583997,-75.58970416504917
0.00013199999999999998,-77.4587002994228,-0.6705180119220573,-95.68022707912485,-77.4587002994228
0.000133,-80.53384059560477,-0.998907003206687,-102.80010435722946,-80.53384059560477
0.000134,-84.92231170563363,-1.3770699547474488,-112.14839074958999,-84.92231170563363
0.000135,-90.86967798459294,-1.8211456186122372,-121.04782149934637,-90.86967798459294
0.000136,-98.51523805291964,-2.2903239768925365,-132.67964347228738,-98.51523805291964
0.000137,-108.00266462386485,-2.831600708150792,-146.22697358433928,-108.00266462386485
0.000138,-119.47691901112026,-3.335012611389772,-160.1090288735146,-119.47691901112026
0.000139,-132.95245415043388,-3.914928398648609,-167.64571433028595,-132.95245415043388
0.00014,-148.2930315799131,-4.304426730327448,-171.30645821779103,-148.2930315799131
0.00014099999999999998,-164.43507798316418,-4.347904017084297,-172.04012544466363,-164.43507798316418
0.00014199999999999998,-180.00719013205588,-4.002239049862893,-172.09472245375804,-180.00719013205588
0.000143,-193.71397802094774,-3.360350779510706,-173.19442715177416,-193.71397802094774
0.000144,-204.6917360034294,-2.555402235349879,-177.5548634410633,-204.6917360034294
0.000145,-212.61589761220242,-1.717943489113746,-182.41836297211665,-212.61589761220242
0.000146,-217.48453202117625,-0.9301780308623615,-187.00675997170356,-217.48453202117625
0.000147,-219.59845503073817,-0.21550049638431998,-187.37939762266865,-219.59845503073817
0.000148,-219.13198526869598,0.4586541674682628,-182.2638089900247,-219.13198526869598
0.000149,-216.1265578779453,1.1586512171871133,-171.9168412378425,-216.1265578779453
0.00015,-210.36974301163085,1.935578034408612,-159.45867320078088,-210.36974301163085
0.00015099999999999998,-201.65858224344245,2.7895697896649687,-149.61199660596478,-201.65858224344245
0.00015199999999999998,-189.6467348010315,3.649150614549079,-142.9897019654422,-189.6467348010315
0.000153,-174.75454699429633,4.345849065136649,-135.02162034081468,-174.75454699429633
0.000154,-157.5799710631759,4.861719450934105,-127.23259451794914,-157.5799710631759
0.000155,-139.04654455817985,5.092272183926262,-123.82285484924685,-139.04654455817985
0.000156,-120.58709334215672,4.775305416304081,-119.82837978197085,-120.58709334215672
0.000157,-104.03488770789633,4.135845848675226,-113.42613102095575,-104.03488770789633
0.000158,-89.99406200237449,3.45989360802313,-106.78357850190005,-89.99406200237449
0.000159,-78.48069901875621,2.74030459238919,-101.44534927560778,-78.48069901875621
0.00015999999999999999,-69.73644794540299,1.9750495534379906,-99.37051108984066,-69.73644794540299
0.00016099999999999998,-63.89055217756027,1.1747298663534702,-100.59893732628407,-63.89055217756027
0.00016199999999999998,-61.11581806914318,0.31846949207813796,-100.1190649068498,-61.11581806914318
0.000163,-61.47954079510471,-0.5045765136393034,-99.56285791415986,-61.47954079510471
0.000164,-64.73615473761133,-1.22688005321357,-98.14234148749107,-64.73615473761133
0.000165,-70.43433211098272,-1.8187017306511057,-91.71082488715092,-70.43433211098272
0.000166,-77.652906760337,-2.009496924593995,-82.69274876371605,-77.652906760337
0.000167,-84.95377554136272,-1.9018652090230812,-73.08755772022494,-84.95377554136272
0.000168,-91.29670095701582,-1.457440488506186,-62.90274510399353,-91.29670095701582
0.000169,-95.3500635418897,-0.7297083704517986,-48.843895810783565,-95.3500635418897
0.00016999999999999999,-96.22984194805342,0.3538060514696362,-30.75377940499675,-96.22984194805342
0.00017099999999999998,-92.47237708993228,1.6638174209692895,-11.418450590142479,-92.47237708993228
0.00017199999999999998,-83.49364465954157,3.186730144046858,5.777395738708286,-83.49364465954157
0.000173,-68.3539062623442,5.112889977088691,15.585885158562366,-68.3539062623442
0.000174,-42.50321272375392,9.223901500318869,22.81818053706402,-42.50321272375392
0.000175,-3.1037447283405193,11.158537050224416,28.656211268158202,-3.1037447283405193
0.000176,34.902783954832415,8.799795974788267,34.23246647533777,34.902783954832415
0.000177,61.33274897334384,5.67250160544262,39.4145726077464,61.33274897334384
0.000178,79.09360087846876,4.0657014171259425,36.93837340837928,79.09360087846876
0.000179,91.51379255270894,2.6185197066655475,31.714780636089543,91.51379255270894
0.00017999999999999998,98.3899390807872,1.0969320880595657,27.105394986236124,98.3899390807872
0.00018099999999999998,99.58437852242454,-0.4528871329367959,21.088997594003125,99.58437852242454
0.00018199999999999998,94.91742606254864,-2.0905105355410587,12.577260320298013,94.91742606254864
0.000183,84.2194848249388,-3.644092322794757,6.752790007317383,84.2194848249388
0.000184,67.74347451289671,-5.35383461978865,2.3323928985785987,67.74347451289671
0.000185,43.56240885417881,-7.660930005011876,-3.506784585667275,43.56240885417881
0.000186,12.997369018904715,-8.385869555121069,-7.722870104553268,12.997369018904715
0.000187,-15.553914080639359,-6.755548456624089,-9.021535758859995,-15.553914080639359
0.000188,-36.873762408668306,-4.885523182718872,-9.046757437653703,-36.873762408668306
0.00018899999999999999,-52.4470569517039,-3.5384621691519547,-6.957478261783164,-52.4470569517039
0.00018999999999999998,-62.996038835217256,-2.14453059655337,-4.716368063613604,-62.996038835217256
0.00019099999999999998,-68.28714066231169,-0.7133462858146238,-4.475405139504081,-68.28714066231169
0.000192,-68.38406275568411,0.6421731692839545,-7.438153768942938,-68.38406275568411
0.000193,-63.73471987615971,1.8356533672396542,-10.704134218581489,-63.73471987615971
0.000194,-55.06996868236418,2.791283750208075,-12.419280801721532,-55.06996868236418
0.000195,-43.41263728475273,3.4543227604184676,-11.574092538159608,-43.41263728475273
0.000196,-29.873186790560148,3.804038693675627,-10.249401389749103,-29.873186790560148
0.000197,-15.637696316786126,3.827919344055626,-8.612553694007163,-15.637696316786126
0.000198,-1.919489039397007,3.5316177938281483,-9.815061076187613,-1.919489039397007
0.00019899999999999999,10.184344733512908,2.96284558775671,-13.391563238431063,10.184344733512908
0.00019999999999999998,19.70099028702697,2.141665133756467,-17.79315075952536,19.70099028702697
0.00020099999999999998,25.812453598224252,1.120775192509282,-23.61002151584543,25.812453598224252
0.000202,27.898849137764053,0.008979551220627657,-26.707116731165,27.898849137764053
0.000203,25.887199668558278,-1.0873641349973218,-27.35498511113747,25.887199668558278
0.000204,19.95539386767735,-2.0884309428938197,-26.54808790767323,19.95539386767735
0.000205,10.738198419764286,-2.8392141698733013,-23.372200826084356,10.738198419764286
0.000206,-0.6817610547539754,-3.2576148482051512,-15.572249531608724,-0.6817610547539754
0.000207,-12.768019289325206,-3.1944205489001907,-10.225296161952755,-12.768019289325206
0.000208,-23.93678644269375,-2.8023313232052627,-11.268929531069077,-23.93678644269375
0.00020899999999999998,-33.320323269404334,-2.2441502211014157,-12.948797224157012,-33.320323269404334
0.00020999999999999998,-40.43981860053376,-1.5866614946201032,-14.647491375351954,-40.43981860053376
0.00021099999999999998,-45.04192757686586,-0.9060791767273552,-17.97097564710711,-45.04192757686586
0.000212,-47.2016592412966,-0.26112535512476615,-23.742948387879267,-47.2016592412966
0.000213,-47.18038952146945,0.25594623416476053,-30.090246637445794,-47.18038952146945
0.000214,-45.56346922715468,0.5953664885883135,-35.45868717765889,-45.56346922715468
0.000215,-43.01677763781944,0.7582315088457127,-39.402501455536104,-43.01677763781944
0.000216,-40.138223107274946,0.7757900020751212,-37.42127382582861,-40.138223107274946
0.000217,-37.28730441058007,0.755332453432084,-36.98174787650728,-37.28730441058007
0.00021799999999999999,-34.60880188250832,0.6698585168056281,-40.44016301408629,-34.60880188250832
0.00021899999999999998,-32.46413458886137,0.4671838340355082,-49.187652909187996,-32.46413458886137
0.00021999999999999998,-31.44902586686945,0.054142339939468015,-58.40967198257688,-31.44902586686945
0.00022099999999999998,-32.29453548893122,-0.5057425739253661,-71.16838424799592,-32.29453548893122
0.000222,-35.45091021080358,-1.249627394885494,-84.36094204748484,-35.45091021080358
0.000223,-41.7181504051812,-2.118597364465678,-96.58020003750556,-41.7181504051812
