time,V_C,I_L,V_IN,V_C
0.0,0.0,0.0,1.0208785539021852,0.0
1e-06,0.025816615207647726,0.5311663205720872,0.9694798253252017,0.025816615207647726
2e-06,0.0974554027263304,0.9570091091355599,0.8953453006525027,0.0974554027263304
3e-06,0.20421168513901553,1.2633889026513276,0.8311053289205738,0.20421168513901553
4e-06,0.3343076982314044,1.4454481590878052,0.824347858330848,0.3343076982314044
4.9999999999999996e-06,0.47653216763487755,1.5270587700330658,0.8409787242922453,0.47653216763487755
6e-06,0.6223870753403216,1.5208292311636171,0.8247536730639166,0.6223870753403216
7e-06,0.7631250098463147,1.418492036725581,0.8228582171468055,0.7631250098463147
8e-06,0.8904866871029523,1.246272800084894,0.833186400992932,0.8904866871029523
9e-06,0.9988798104586866,1.0249126209865929,0.805279801172904,0.9988798104586866
9.999999999999999e-06,1.0842657669932803,0.7558567309852301,0.7484666196294603,1.0842657669932803
1.1e-05,1.1398193137499224,0.4019579039534711,0.6388288469504663,1.1398193137499224
1.2e-05,1.159932814428416,0.01664425728330493,0.5372216990493721,1.159932814428416
1.3e-05,1.1419687865273735,-0.3960595418438846,0.4305315560370813,1.1419687865273735
1.4e-05,1.0850709846611386,-0.7992262621617742,0.2886323587535901,1.0850709846611386
1.4999999999999999e-05,0.9886848279453465,-1.2272945410083196,0.13973537117473073,0.9886848279453465
1.6e-05,0.8522026435950845,-1.6371134116414396,0.014317422956758174,0.8522026435950845
1.7e-05,0.6221090676229767,-3.2192982945704114,-0.10163290005857714,0.6221090676229767
1.8e-05,0.28118777255054295,-3.590166920863149,-0.18577987572581123,0.28118777255054295
1.8999999999999998e-05,-0.030007066556985446,-2.8011483673479147,-0.24029970648040563,-0.030007066556985446
1.9999999999999998e-05,-0.24695100348334936,-1.8047564219092027,-0.30767136390444205,-0.24695100348334936
2.1e-05,-0.4026848228303042,-1.5202227114921476,-0.3584247585102761,-0.4026848228303042
2.2e-05,-0.5372787805409801,-1.2981474439742169,-0.33053470846108013,-0.5372787805409801
2.3e-05,-0.647909017067104,-1.0139005121809033,-0.2918440402682828,-0.647909017067104
2.4e-05,-0.7287705439442179,-0.6797634062684156,-0.2827826091077767,-0.7287705439442179
2.4999999999999998e-05,-0.7768950382112338,-0.33000306046060485,-0.2883138322303017,-0.7768950382112338
2.6e-05,-0.792451568377708,0.0011666418425508123,-0.32255732302477513,-0.792451568377708
2.7e-05,-0.7779028475974182,0.2938187880872598,-0.3189610550772754,-0.7779028475974182
2.8e-05,-0.7375380448235257,0.5467589137535974,-0.2840038674976183,-0.7375380448235257
2.9e-05,-0.6739417063463045,0.7809484990983832,-0.20838403621715598,-0.6739417063463045
2.9999999999999997e-05,-0.5882152304334765,1.018028936456968,-0.10481811077153033,-0.5882152304334765
3.1e-05,-0.4820466474143071,1.207938776570846,0.008038877847338671,-0.4820466474143071
3.2e-05,-0.35989585336332125,1.360972518608289,0.1355901301898571,-0.35989585336332125
3.2999999999999996e-05,-0.222567024778476,1.5146063397769634,0.24664889379758365,-0.222567024778476
3.4e-05,-0.07227118798179821,1.628637927073921,0.3074562133115629,-0.07227118798179821
3.5e-05,0.0853593774623968,1.6666371145876477,0.3135618372751851,0.0853593774623968
3.6e-05,0.24135420121706222,1.5904598873208224,0.2732166576103781,0.24135420121706222
3.7e-05,0.3848606401273042,1.4005617342749812,0.1705693280427698,0.3848606401273042
3.7999999999999995e-05,0.5044861340272297,1.0981029001748237,0.10954389968879133,0.5044861340272297
3.9e-05,0.592401543332198,0.7398201147611716,0.017650582993764923,0.592401543332198
3.9999999999999996e-05,0.642650420897539,0.30597831673362347,-0.08389183700452676,0.642650420897539
4.1e-05,0.6502573763472655,-0.14957963499413132,-0.225089634253284,0.6502573763472655
4.2e-05,0.6127648809191656,-0.6325828787036905,-0.412982035187517,0.6127648809191656
4.2999999999999995e-05,0.5278048311952606,-1.1368102990325897,-0.5833503289762029,0.5278048311952606
4.4e-05,0.39629051292004747,-1.6268843141473963,-0.7290841413254471,0.39629051292004747
4.4999999999999996e-05,0.13222652173775196,-3.9714244141406674,-0.844566900341946,0.13222652173775196
4.6e-05,-0.290193487549135,-4.446534258889919,-0.9204942319570433,-0.290193487549135
4.7e-05,-0.669532027843167,-3.3763359369169055,-0.9865505738092635,-0.669532027843167
4.8e-05,-0.9230958965817164,-1.9636644161385968,-1.0201539208774162,-0.9230958965817164
4.9e-05,-1.0840593660518938,-1.5296776018862444,-1.0222005244949117,-1.0840593660518938
4.9999999999999996e-05,-1.2168598059342464,-1.2519720052938614,-1.0236663829656245,-1.2168598059342464
5.1e-05,-1.3213416780456497,-0.9368703585581489,-1.0225759668771537,-1.3213416780456497
5.2e-05,-1.3943970680210445,-0.5917007112215605,-0.9971173732670028,-1.3943970680210445
5.3e-05,-1.433810095954196,-0.2328306640056801,-0.960093948964295,-1.433810095954196
5.4e-05,-1.4391955014006823,0.11469362576928106,-0.935294300575414,-1.4391955014006823
5.4999999999999995e-05,-1.4120938564272596,0.4453382887574291,-0.9796120261230372,-1.4120938564272596
5.6e-05,-1.3563092890384727,0.7116889692257589,-1.019842576295304,-1.3563092890384727
5.6999999999999996e-05,-1.2787492899791824,0.9069509268696176,-1.0323707989772004,-1.2787492899791824
5.8e-05,-1.186247789787369,1.0240362756102248,-1.0319468779407779,-1.186247789787369
5.9e-05,-1.0856975484139328,1.0789890763155225,-0.996935154422997,-1.0856975484139328
5.9999999999999995e-05,-0.982295619275787,1.086974826934611,-0.8960542823714188,-0.982295619275787
6.1e-05,-0.878326259744111,1.0978006272308372,-0.7828956737986572,-0.878326259744111
6.2e-05,-0.7737740830108232,1.0910128189106258,-0.6686024019246916,-0.7737740830108232
6.3e-05,-0.6710387653714055,1.0688249411270339,-0.5978086187933992,-0.6710387653714055
6.4e-05,-0.5706899400797844,1.0326568432119168,-0.5716077631251058,-0.5706899400797844
6.5e-05,-0.4752915098422147,0.9592926635643776,-0.5749113255051425,-0.4752915098422147
6.599999999999999e-05,-0.38925012991779817,0.8389738872533813,-0.6081734773681852,-0.38925012991779817
6.7e-05,-0.317598805535561,0.6575851993543319,-0.645497781771514,-0.317598805535561
6.8e-05,-0.26534705508778544,0.43178004403704073,-0.7011207530906101,-0.26534705508778544
6.9e-05,-0.23635603206478062,0.17674454311857354,-0.7647037265395533,-0.23635603206478062
7e-05,-0.2327428792710855,-0.09668615157961923,-0.8700698709953274,-0.2327428792710855
7.099999999999999e-05,-0.2559532739447983,-0.39223496262878027,-1.0168321739653225,-0.2559532739447983
7.2e-05,-0.30924382683097856,-0.7230986725531675,-1.1702560836529323,-0.30924382683097856
7.3e-05,-0.39479432685757865,-1.0650193228723321,-1.3293323347278838,-0.39479432685757865
7.4e-05,-0.5119706176615088,-1.3990704535147265,-1.4811474513322362,-0.5119706176615088
7.5e-05,-0.6658869933373079,-2.0207623603827414,-1.6190984934567063,-0.6658869933373079
7.599999999999999e-05,-0.9373762765261232,-3.3521787427831877,-1.724374028369708,-0.9373762765261232
7.7e-05,-1.262575455112432,-3.220081731606465,-1.753332510644802,-1.262575455112432
7.8e-05,-1.5224154536515089,-2.1561676843426443,-1.7042267563419717,-1.5224154536515089
7.9e-05,-1.6883514299993991,-1.5309382002495153,-1.6184737315703503,-1.6883514299993991
7.999999999999999e-05,-1.8191057188551496,-1.2210479203750688,-1.5271120656681327,-1.8191057188551496
8.099999999999999e-05,-1.91678028755272,-0.8098987956271677,-1.4067040417018988,-1.91678028755272
8.2e-05,-1.9713030618088383,-0.3353517025324282,-1.349130170542176,-1.9713030618088383
8.3e-05,-1.9802304986789534,0.14402975472346105,-1.3627337257830057,-1.9802304986789534
8.4e-05,-1.9455755323762376,0.5736658522354265,-1.3682583961134385,-1.9455755323762376
8.499999999999999e-05,-1.873041970844512,0.9380335478000233,-1.3596065744480679,-1.873041970844512
8.599999999999999e-05,-1.769449562120545,1.2280180751629837,-1.3443437915064202,-1.769449562120545
8.7e-05,-1.6415890795983397,1.4401060351904924,-1.3332643429946407,-1.6415890795983397
8.8e-05,-1.497998507505368,1.5543136029983469,-1.3731050344181417,-1.497998507505368
8.9e-05,-1.349889521601018,1.5306204654648112,-1.431783967561372,-1.349889521601018
8.999999999999999e-05,-1.2095471957374173,1.4000837951191383,-1.4281543952866977,-1.2095471957374173
9.099999999999999e-05,-1.0847071862973467,1.2202552667750561,-1.376607376630523,-1.0847071862973467
9.2e-05,-0.9781797592184235,1.0161219654045313,-1.3209770788871231,-0.9781797592184235
9.3e-05,-0.8918420189247018,0.798654715008302,-1.2168591707596226,-0.8918420189247018
9.4e-05,-0.8264367612259008,0.5756019102720381,-1.1445680393933748,-0.8264367612259008
9.499999999999999e-05,-0.78050533212256,0.39468590772622436,-1.0986049701243128,-0.78050533212256
9.6e-05,-0.7504428560100449,0.2400968697686746,-1.055981097919411,-0.7504428560100449
9.7e-05,-0.734157475495861,0.1034724477128337,-1.0509976077027343,-0.734157475495861
9.8e-05,-0.730340536456623,-0.02255565609264587,-1.0631422596433344,-0.730340536456623
9.9e-05,-0.7383503346399679,-0.14433338913705684,-1.0758313719387027,-0.7383503346399679
9.999999999999999e-05,-0.757488813870776,-0.25543520789660595,-1.0830172447875897,-0.757488813870776
0.000101,-0.7865608367961331,-0.3508212241037642,-1.0497260828690635,-0.7865608367961331
0.000102,-0.8224491600314877,-0.39412955517205656,-0.996872428177513,-0.8224491600314877
0.000103,-0.8599422496570451,-0.386584210918887,-0.9803882983663863,-0.8599422496570451
0.000104,-0.895370575709831,-0.35289998914959037,-0.9862144487787312,-0.895370575709831
0.00010499999999999999,-0.9267856455860033,-0.30572994637160433,-0.9820393164093011,-0.9267856455860033
0.000106,-0.9529661163691453,-0.24181405403403985,-0.9770049086737981,-0.9529661163691453
0.000107,-0.972558423456111,-0.16876664164433697,-0.9858274628505754,-0.972558423456111
0.000108,-0.9851288776871895,-0.09549936516214745,-0.969862087886128,-0.9851288776871895
0.00010899999999999999,-0.9907974142154141,-0.020549309909086415,-0.9242323992231473,-0.9907974142154141
0.00010999999999999999,-0.9881410095755402,0.07723653617761699,-0.8857109020920124,-0.9881410095755402
0.000111,-0.9756052169974146,0.18682341289622018,-0.8394468266712222,-0.9756052169974146
0.000112,-0.9525514784915939,0.29634868403830134,-0.8524492539288208,-0.9525514784915939
0.000113,-0.920181895374943,0.3789646824494349,-0.9140918341180818,-0.920181895374943
0.00011399999999999999,-0.8822438347499033,0.40693223908943693,-0.9595014710687547,-0.8822438347499033
0.00011499999999999999,-0.8445564632161106,0.3791402934938896,-1.0187742976941245,-0.8445564632161106
0.000116,-0.8119510469210091,0.3004268936998761,-1.0978966279664197,-0.8119510469210091
0.000117,-0.789411705076796,0.16839182486258583,-1.1740957705642123,-0.789411705076796
0.000118,-0.7813688613327184,1.5348406892629063e-05,-1.2464448632815763,-0.7813688613327184
0.00011899999999999999,-0.7905044149125586,-0.19575065437315642,-1.3012049061120705,-0.7905044149125586
0.00011999999999999999,-0.8185355905831072,-0.3904547483183756,-1.3807078550619851,-0.8185355905831072
0.000121,-0.8654405108923944,-0.5945186302208442,-1.4297368433328896,-0.8654405108923944
0.000122,-0.9306687619870423,-0.7620305295700361,-1.3592674191677072,-0.9306687619870423
0.00012299999999999998,-1.0069726613066867,-0.8226887699025385,-1.277968060610195,-1.0069726613066867
0.000124,-1.0850465787534929,-0.8070078449087674,-1.25430124958226,-1.0850465787534929
0.000125,-1.158600002509821,-0.7274566424585055,-1.214457955559276,-1.158600002509821
0.000126,-1.2220957663163095,-0.5956552544207606,-1.1375999910173384,-1.2220957663163095
0.000127,-1.2692195552241594,-0.3816747022318365,-1.0154580855083173,-1.2692195552241594
0.000128,-1.2934295174544865,-0.11959053620210959,-0.8966372116144143,-1.2934295174544865
0.000129,-1.2900099956661237,0.19827788339003494,-0.799047333155036,-1.2900099956661237
0.00013,-1.2556921059816317,0.5210293199473629,-0.6665501589377649,-1.2556921059816317
0.00013099999999999999,-1.189496952785024,0.8727181787987117,-0.5339640527033154,-1.189496952785024
0.00013199999999999998,-1.0901981209447886,1.1996243351138227,-0.46576236274969796,-1.0901981209447886
0.000133,-0.9621625999641777,1.4766349456493126,-0.39757244855965834,-0.9621625999641777
0.000134,-0.8092628304501133,1.763653032399957,-0.33069051245851844,-0.8092628304501133
0.000135,-0.6097570717278735,2.3030638773427943,-0.24279709392102305,-0.6097570717278735
0.000136,-0.3904478435834344,2.181814365872048,-0.16557418523519726,-0.3904478435834344
0.000137,-0.20156461079533067,1.7715558350082965,-0.07728365368817779,-0.20156461079533067
0.000138,-0.04279173028740849,1.5872786023103806,0.012552038067074342,-0.04279173028740849
0.000139,0.10178083127677649,1.4435008319811888,0.10573341826716007,0.10178083127677649
0.00014,0.231907086081237,1.2774332539128113,0.18138423953461355,0.231907086081237
0.00014099999999999998,0.3445336401570578,1.0919683384153687,0.22903437098148224,0.3445336401570578
0.00014199999999999998,0.43932442553229084,0.8937700582049356,0.27021741882879496,0.43932442553229084
0.000143,0.5144911810561874,0.6831091811508196,0.3253417602570672,0.5144911810561874
0.000144,0.5701375302226612,0.4918202765504667,0.3987704358068445,0.5701375302226612
0.000145,0.6085973747416642,0.31492420534895693,0.5127851005640613,0.6085973747416642
0.000146,0.6322591785394382,0.18574245298445258,0.6322391896862803,0.6322591785394382
0.000147,0.6459180932472194,0.11630818042632098,0.7649008312817818,0.6459180932472194
0.000148,0.6574112586201248,0.12442921149392387,0.9380884891916551,0.6574112586201248
0.000149,0.6731800610531201,0.20792060831505121,1.0936387356473434,0.6731800610531201
0.00015,0.6998470073644932,0.3622996774365332,1.2234575073293106,0.6998470073644932
0.00015099999999999998,0.7436252664119124,0.5503352584904005,1.3040289684980868,0.7436252664119124
0.00015199999999999998,0.8051817903413347,0.739523481425152,1.3685767544265688,0.8051817903413347
0.000153,0.883857787979961,0.902438807919232,1.4636252320479899,0.883857787979961
0.000154,0.9768084959723871,1.0512547480450334,1.562303496990682,0.9768084959723871
0.000155,1.0835247654092521,1.1807722606953688,1.668164480682515,1.0835247654092521
0.000156,1.2012761744999476,1.2888502007196643,1.7054698570701714,1.2012761744999476
0.000157,1.326980570040403,1.3361123409752933,1.6710292996239502,1.326980570040403
0.000158,1.4526004197655649,1.2834991881380435,1.6155633349335647,1.4526004197655649
0.000159,1.5683705706169013,1.1355612524217606,1.5367889137621928,1.5683705706169013
0.00015999999999999999,1.6658782764306346,0.8992461708185658,1.542538254392284,1.6658782764306346
0.00016099999999999998,1.7388444418122184,0.6323222938922944,1.5822728926814742,1.7388444418122184
0.00016199999999999998,1.7864965242188953,0.37003039831067436,1.569212780325658,1.7864965242188953
0.000163,1.8091200190273529,0.10463845481990591,1.5249487250237679,1.8091200190273529
0.000164,1.8061355956535565,-0.1705956981266871,1.458932354595598,1.8061355956535565
0.000165,1.776524814584496,-0.4468942115296371,1.3999754250645593,1.776524814584496
0.000166,1.7221584067551574,-0.6924889081997924,1.3480306755590221,1.7221584067551574
0.000167,1.6451331104085973,-0.9146278068458317,1.3343538116934153,1.6451331104085973
0.000168,1.5490164383326699,-1.0940604623801364,1.3624536834000789,1.5490164383326699
0.000169,1.4398046145788808,-1.184721479188602,1.3674386374135312,1.4398046145788808
0.00016999999999999999,1.32624575021676,-1.1887299312622848,1.325193786818478,1.32624575021676
0.00017099999999999998,1.2143723520791492,-1.1524875973065105,1.2861796930037264,1.2143723520791492
0.00017199999999999998,1.1081282202960017,-1.0735836903269298,1.2510943439566158,1.1081282202960017
0.000173,1.0114560520232732,-0.9521741536309399,1.2445989946979812,1.0114560520232732
0.000174,0.9278911963346657,-0.7971619673938511,1.2386563695284434,0.9278911963346657
0.000175,0.8606079283760276,-0.6089810417650962,1.2503445613549546,0.8606079283760276
0.000176,0.8124807460853991,-0.3994108822678684,1.2638213664133093,0.8124807460853991
0.000177,0.7847622311330699,-0.1826909859469438,1.2562557013963764,0.7847622311330699
0.000178,0.7775010554864911,0.02666369333575135,1.2290243560649694,0.7775010554864911
0.000179,0.7887857250198116,0.20684759462772653,1.2356338355238634,0.7887857250198116
0.00017999999999999998,0.8161337403379333,0.36266693814674117,1.3217856803211805,0.8161337403379333
0.00018099999999999998,0.858286623406695,0.5238086975497286,1.4245754681924478,0.858286623406695
0.00018199999999999998,0.9161724677035376,0.6975149293530679,1.5038104387083577,0.9161724677035376
0.000183,0.9909941010070533,0.8663227336828174,1.5773032384078423,0.9909941010070533
0.000184,1.0802758029802033,1.0054785364905283,1.6214810635805854,1.0802758029802033
0.000185,1.1810079775544065,1.0996812371213591,1.606050402435881,1.1810079775544065
0.000186,1.2876028028948232,1.124917244992458,1.59185015043947,1.2876028028948232
0.000187,1.3931566234330601,1.0799494017676345,1.6142686680304632,1.3931566234330601
0.000188,1.4919131207801535,0.9876815711553858,1.6103353433421277,1.4919131207801535
0.00018899999999999999,1.5796268636936637,0.8451884780743679,1.5587558736155316,1.5796268636936637
0.00018999999999999998,1.6510656669105788,0.6441541092698492,1.5245122125838122,1.6510656669105788
0.00019099999999999998,1.7017191980270439,0.4178440909196717,1.551760185359543,1.7017191980270439
0.000192,1.730304534835827,0.18815428006287035,1.611757137893791,1.730304534835827
0.000193,1.738625924027016,0.0009219208522057339,1.704448549812025,1.738625924027016
0.000194,1.7324227779743757,-0.12386886020743752,1.858440671950818,1.7324227779743757
0.000195,1.7188642128341542,-0.15677300870668057,2.041868219506412,1.7188642128341542
0.000196,1.707189915288607,-0.08408880723354951,2.206405926992706,1.707189915288607
0.000197,1.7065823564549052,0.07259403747322003,2.3210391983992653,1.7065823564549052
0.000198,1.7226076566297641,0.27188831582283196,2.3957897221024824,1.7226076566297641
0.00019899999999999999,1.758545268665878,0.4772914095059883,2.4400890670241298,1.758545268665878
0.00019999999999999998,1.8128688378366336,0.6611991275665607,2.472894105814613,1.8128688378366336
0.00020099999999999998,1.883479193380431,0.8132106741096191,2.4686869417282384,1.883479193380431
0.000202,1.9659017675879786,0.9075784277933012,2.4861437729002067,1.9659017675879786
0.000203,2.0547475579886014,0.9493709258016835,2.490773235711729,2.0547475579886014
0.000204,2.145186726608891,0.9419758803100313,2.4672450499299123,2.145186726608891
0.000205,2.232519286752923,0.8776369627564237,2.431145757407947,2.232519286752923
0.000206,2.3087856069233403,0.71121907760659,2.3134361223344815,2.3087856069233403
0.000207,2.366090288096645,0.4884128448184655,2.148862421769452,2.366090288096645
0.000208,2.3987207553437933,0.18759212527587885,1.974492401957751,2.3987207553437933
0.00020899999999999998,2.39877055957352,-0.19135790308364667,1.8307169474721998,2.39877055957352
0.00020999999999999998,2.360579535755202,-0.6083552976897101,1.6989546609303634,2.360579535755202
0.00021099999999999998,2.2823648515550157,-1.0317918190145863,1.613202519302431,2.2823648515550157
0.000212,2.164628643286582,-1.4258080498968164,1.5292939526916547,2.164628643286582
0.000213,2.0062380675322444,-2.1425911463186544,1.4539506029210807,2.0062380675322444
0.000214,1.7362806376984803,-3.20636701583205,1.3702594390264902,1.7362806376984803
0.000215,1.4345740322000955,-2.9026415179007503,1.3183084787546278,1.4345740322000955
0.000216,1.2009323948721364,-1.9912628998110036,1.2687654926306158,1.2009323948721364
0.000217,1.0362553300670392,-1.5737002975080572,1.227069182392204,1.0362553300670392
0.00021799999999999999,0.896329829107316,-1.3496176031201728,1.161190129902589,0.896329829107316
0.00021899999999999998,0.7786432403665199,-1.120903918456363,1.0569218788409795,0.7786432403665199
0.00021999999999999998,0.6818640506754869,-0.9119972821374267,0.9556618715525327,0.6818640506754869
0.00022099999999999998,0.6040311774423809,-0.7174535024126714,0.8885274058742283,0.6040311774423809
