time,V_C,I_L,V_IN,V_C
0.0,0.0,0.0,-1.067945040484694,0.0
1e-06,-0.036468131951570344,-0.5856244791730545,-1.1058364791306112,-0.036468131951570344
2e-06,-0.14317869889925652,-1.1342852267984433,-1.1445287968147224,-0.14317869889925652
3e-06,-0.31573393622073365,-1.6793143213318904,-1.1732183580771498,-0.31573393622073365
4e-06,-0.567119632798086,-2.399079131104234,-1.19402529965996,-0.567119632798086
4.9999999999999996e-06,-0.8861167317325854,-2.616020636924205,-1.1798136031065043,-0.8861167317325854
6e-06,-1.177966863982542,-2.064951150675112,-1.1397090039551863,-1.177966863982542
7e-06,-1.3950556549599067,-1.4923318416347628,-1.1275300437750586,-1.3950556549599067
8e-06,-1.5511788993826892,-1.035252341490093,-1.172085977188958,-1.5511788993826892
9e-06,-1.6516952941792094,-0.606325855950356,-1.2580604470276828,-1.6516952941792094
9.999999999999999e-06,-1.702384490900803,-0.22044979484808777,-1.3263597206814703,-1.702384490900803
1.1e-05,-1.7082344711220028,0.12125675383060404,-1.4134439131146301,-1.7082344711220028
1.2e-05,-1.6759070138827084,0.39269348561864953,-1.5089315784944002,-1.6759070138827084
1.3e-05,-1.615908368099915,0.5566609036598033,-1.6042672674888359,-1.615908368099915
1.4e-05,-1.5429736837208317,0.6167882639557256,-1.697903265859918,-1.5429736837208317
1.4999999999999999e-05,-1.4684583914900786,0.5638425924532825,-1.8270787505451274,-1.4684583914900786
1.6e-05,-1.408227413852489,0.39983395718679776,-1.9307317723282655,-1.408227413852489
1.7e-05,-1.37263415415111,0.1660018111606205,-1.9891228110293961,-1.37263415415111
1.8e-05,-1.368142357839145,-0.09163858626893721,-2.022951355988771,-1.368142357839145
1.8999999999999998e-05,-1.3956581446848082,-0.3510729720885883,-2.048087255408364,-1.3956581446848082
1.9999999999999998e-05,-1.4536693201518476,-0.5817191454638053,-2.0534419172228855,-1.4536693201518476
2.1e-05,-1.5368772429700723,-0.7559007992326041,-2.0552150566395317,-1.5368772429700723
2.2e-05,-1.6373788105560945,-0.8612432018681093,-2.112384008749505,-1.6373788105560945
2.3e-05,-1.7474363193615245,-0.9113968791867689,-2.1050899676523227,-1.7474363193615245
2.4e-05,-1.8597497099065334,-0.8961016877378193,-2.064846698831651,-1.8597497099065334
2.4999999999999998e-05,-1.9649983079135294,-0.7933908945070886,-2.039004859019462,-1.9649983079135294
2.6e-05,-2.052604344819524,-0.6152364516492884,-2.0180421060968072,-2.052604344819524
2.7e-05,-2.114572009405872,-0.38222372608624844,-1.976688431510718,-2.114572009405872
2.8e-05,-2.1459500777476883,-0.12547133438951205,-1.946211454414739,-2.1459500777476883
2.9e-05,-2.145525929237078,0.1308229795900815,-1.9563240486383187,-2.145525929237078
2.9999999999999997e-05,-2.1143869974097975,0.3717743979692833,-1.9049584464126703,-2.1143869974097975
3.1e-05,-2.0538025369669253,0.6081017636717351,-1.8295757258110616,-2.0538025369669253
3.2e-05,-1.9653025136590274,0.8159771011343038,-1.729077278275214,-1.9653025136590274
3.2999999999999996e-05,-1.854159332288969,0.989479506459797,-1.6346981065514672,-1.854159332288969
3.4e-05,-1.719833224992098,1.1809736102804582,-1.4994250217842735,-1.719833224992098
3.5e-05,-1.5642302375795616,1.3313170915952213,-1.3498387069340518,-1.5642302375795616
3.6e-05,-1.390755240691456,1.47709131111987,-1.2017020732749253,-1.390755240691456
3.7e-05,-1.2029311526365944,1.5486592890903716,-1.0866291732096616,-1.2029311526365944
3.7999999999999995e-05,-1.0079525010080386,1.6119474940246434,-0.9465041294905443,-1.0079525010080386
3.9e-05,-0.8107832468411986,1.5405398106218409,-0.7802358832828288,-0.8107832468411986
3.9999999999999996e-05,-0.6286282912134877,1.4137318136026813,-0.5931502075317114,-0.6286282912134877
4.1e-05,-0.4589764307783036,1.3192441349414674,-0.44400042422002495,-0.4589764307783036
4.2e-05,-0.30216493113278925,1.2094146789159093,-0.31529467908027725,-0.30216493113278925
4.2999999999999995e-05,-0.1605673814398781,1.099610408440751,-0.1439333117783883,-0.1605673814398781
4.4e-05,-0.030056467618351828,1.0009767273044106,-0.01401281186492465,-0.030056467618351828
4.4999999999999996e-05,0.08703384766220154,0.9001400924373425,0.09381751921298556,0.08703384766220154
4.6e-05,0.19294624542087435,0.8061782776977632,0.22048296770557302,0.19294624542087435
4.7e-05,0.2877912022954616,0.7244091687043959,0.3434568535281717,0.2877912022954616
4.8e-05,0.3735841214725332,0.6598676247987062,0.46193506151167957,0.3735841214725332
4.9e-05,0.45260862087266135,0.6304888394755422,0.5550613423952996,0.45260862087266135
4.9999999999999996e-05,0.5283346101991154,0.5874917308194454,0.6290797860862481,0.5283346101991154
5.1e-05,0.597656170742942,0.5357520424487997,0.663842964696386,0.597656170742942
5.2e-05,0.6606138801377355,0.48297847248517994,0.7306286673255847,0.6606138801377355
5.3e-05,0.7169095516392894,0.4299973489185956,0.786445419462996,0.7169095516392894
5.4e-05,0.7667604972883995,0.37712757929511537,0.8126212068245081,0.7667604972883995
5.4999999999999995e-05,0.8094283098171834,0.31049960326175813,0.842107864172587,0.8094283098171834
5.6e-05,0.8431850921216516,0.23583950509627474,0.841995301368916,0.8431850921216516
5.6999999999999996e-05,0.8674097820011563,0.15406901485398725,0.7807708766478068,0.8674097820011563
5.8e-05,0.8791032139898329,0.030333131070450364,0.6774847644806683,0.8791032139898329
5.9e-05,0.8721263973177084,-0.14538728559793193,0.5957504958682646,0.8721263973177084
5.9999999999999995e-05,0.8416346943461229,-0.34929770858465886,0.5217119229860074,0.8416346943461229
6.1e-05,0.7855688463279681,-0.5574036785874873,0.4589258233279302,0.7855688463279681
6.2e-05,0.7049326515629102,-0.7393813555606931,0.4262458710719105,0.7049326515629102
6.3e-05,0.6048959930610954,-0.8726035627761223,0.3627839253458154,0.6048959930610954
6.4e-05,0.490750650313997,-0.9722393479654977,0.27211098968045844,0.490750650313997
6.5e-05,0.36640791964272423,-1.030350259557426,0.17647730750309326,0.36640791964272423
6.599999999999999e-05,0.23882059673545972,-1.0309635065038993,0.09365735821503872,0.23882059673545972
6.7e-05,0.11202670574648586,-1.0196438376370964,0.019584496685467818,0.11202670574648586
6.8e-05,-0.01223454139193502,-0.9937099052747573,-0.05344333386271458,-0.01223454139193502
6.9e-05,-0.1300822694708183,-0.9043110367748056,-0.12031328486414754,-0.1300822694708183
7e-05,-0.23518672553188877,-0.7932597677862384,-0.18625960514139034,-0.23518672553188877
7.099999999999999e-05,-0.3256011713257238,-0.6708261047841609,-0.2712832335493449,-0.3256011713257238
7.2e-05,-0.39935238708004817,-0.5315615415792408,-0.3707319136707862,-0.39935238708004817
7.3e-05,-0.45927681422238764,-0.44145590241030935,-0.45805526047593526,-0.45927681422238764
7.4e-05,-0.5093970141303483,-0.37078884344451696,-0.5649807997613917,-0.5093970141303483
7.5e-05,-0.5529817696941023,-0.35030054545657446,-0.6981895272005615,-0.5529817696941023
7.599999999999999e-05,-0.5969358450162932,-0.35861634056060043,-0.8273196587447732,-0.5969358450162932
7.7e-05,-0.6439980903209093,-0.4025248748477883,-0.9213806052207933,-0.6439980903209093
7.8e-05,-0.6973392155631902,-0.4631567000104415,-0.9324217390189575,-0.6973392155631902
7.9e-05,-0.7571032410918765,-0.49829227940196336,-0.9337329773424392,-0.7571032410918765
7.999999999999999e-05,-0.8187481656534557,-0.49206586828039806,-0.8990415676104044,-0.8187481656534557
8.099999999999999e-05,-0.8761412236235243,-0.42898516572248013,-0.8433843300914232,-0.8761412236235243
8.2e-05,-0.9218607566960456,-0.30302975660114423,-0.8162535520312286,-0.9218607566960456
8.3e-05,-0.949857631508815,-0.1468065518480318,-0.7826881683321473,-0.949857631508815
8.4e-05,-0.9576128816268468,0.019588412702278107,-0.8023176597010797,-0.9576128816268468
8.499999999999999e-05,-0.9458841395579356,0.16861035579660946,-0.9014334010451057,-0.9458841395579356
8.599999999999999e-05,-0.9188151528526178,0.25496304125467834,-0.9958641903594344,-0.9188151528526178
8.7e-05,-0.8871885509991816,0.23366968766998444,-1.1171421843436806,-0.8871885509991816
8.8e-05,-0.8637512946019694,0.14056445533691286,-1.2185362494385792,-0.8637512946019694
8.9e-05,-0.8553881006812514,-0.0064703493615523855,-1.3022385274271455,-0.8553881006812514
8.999999999999999e-05,-0.8672546234061672,-0.18665446805261646,-1.310404082143697,-0.8672546234061672
9.099999999999999e-05,-0.9006465342740324,-0.34778819036661507,-1.2674196100250215,-0.9006465342740324
9.2e-05,-0.9503550514858893,-0.4465816562396154,-1.235050452543802,-0.9503550514858893
9.3e-05,-1.008724541177999,-0.4918825462289937,-1.2349653670045315,-1.008724541177999
9.4e-05,-1.0704370602986888,-0.5040582506860278,-1.2743206951351893,-1.0704370602986888
9.499999999999999e-05,-1.1323197774249556,-0.49517460305281685,-1.3255163070715388,-1.1323197774249556
9.6e-05,-1.1926481821752073,-0.4820224901320458,-1.3763554685307213,-1.1926481821752073
9.7e-05,-1.2507100914877916,-0.4542300007089848,-1.4237794362531428,-1.2507100914877916
9.8e-05,-1.3045436957201895,-0.4169739260127568,-1.4489059696701985,-1.3045436957201895
9.9e-05,-1.35317370091113,-0.36697316336262603,-1.4396358044635258,-1.35317370091113
9.999999999999999e-05,-1.393612194482526,-0.2805303185981017,-1.414162541466436,-1.393612194482526
0.000101,-1.4214256717385765,-0.16763383058358503,-1.417069984285198,-1.4214256717385765
0.000102,-1.4351526024641543,-0.059255367576203866,-1.4507780270662618,-1.4351526024641543
0.000103,-1.4365816327264027,0.03520755623840516,-1.4446575908316943,-1.4365816327264027
0.000104,-1.4267470383312153,0.12233977911470835,-1.4475248634326527,-1.4267470383312153
0.00010499999999999999,-1.4067851157203624,0.19733025378932445,-1.4712336538839885,-1.4067851157203624
0.000106,-1.3790965552855503,0.24170753213552257,-1.518938934221887,-1.3790965552855503
0.000107,-1.3507123322299857,0.21232585258673686,-1.6160629020444042,-1.3507123322299857
0.000108,-1.3288515585686995,0.13382901313845308,-1.721970954325899,-1.3288515585686995
0.00010899999999999999,-1.3205368238495891,-0.015440927649517322,-1.8155858811880197,-1.3205368238495891
0.00010999999999999999,-1.3335978142197775,-0.19366211707018943,-1.8631434310055053,-1.3335978142197775
0.000111,-1.3686580278884708,-0.3715789326970249,-1.866119586573732,-1.3686580278884708
0.000112,-1.4236291210320076,-0.5094994235830418,-1.8446778306566902,-1.4236291210320076
0.000113,-1.4919253547621414,-0.5831396639579057,-1.7835617897510896,-1.4919253547621414
0.00011399999999999999,-1.5632599013754556,-0.5567760098946545,-1.703434069898621,-1.5632599013754556
0.00011499999999999999,-1.6270303124093113,-0.46958209673935075,-1.6217118980195395,-1.6270303124093113
0.000116,-1.675733000920552,-0.3050667688498181,-1.5391225176873857,-1.675733000920552
0.000117,-1.699746706747415,-0.08003803995927812,-1.467613880365241,-1.699746706747415
0.000118,-1.693917506928409,0.1732089682343779,-1.413963614357529,-1.693917506928409
0.00011899999999999999,-1.656599707159164,0.42781138876579455,-1.380406576946163,-1.656599707159164
0.00011999999999999999,-1.5893567823706554,0.6526712701365868,-1.3786618433657323,-1.5893567823706554
0.000121,-1.4978803496965054,0.8165605607501994,-1.3768085175103872,-1.4978803496965054
0.000122,-1.390603384519259,0.9072761081493694,-1.389198084058933,-1.390603384519259
0.00012299999999999998,-1.277121829041373,0.9208213228895296,-1.3747098112220453,-1.277121829041373
0.000124,-1.1662769073675547,0.8650207585836077,-1.3553153934420368,-1.1662769073675547
0.000125,-1.0662536019531605,0.7461272040579577,-1.327084471841744,-1.0662536019531605
0.000126,-0.9826800426984641,0.6032892366670554,-1.2741306462417208,-0.9826800426984641
0.000127,-0.9176359212303914,0.4507016604431919,-1.2104245832027762,-0.9176359212303914
0.000128,-0.8717050728873239,0.29792673693165345,-1.194959323045161,-0.8717050728873239
0.000129,-0.8438413660071531,0.15389956031294452,-1.1858242558940397,-0.8438413660071531
0.00013,-0.8335604281850217,0.011461262764075608,-1.1588725474847341,-0.8335604281850217
0.00013099999999999999,-0.8398856018337703,-0.11095016064115831,-1.1724051351979994,-0.8398856018337703
0.00013199999999999998,-0.8606522255489384,-0.2235060039733259,-1.1960028384890602,-0.8606522255489384
0.000133,-0.894820451061969,-0.33296900106789584,-1.2850013044653679,-0.894820451061969
0.000134,-0.943581241173269,-0.45902331824771075,-1.4018548843698746,-0.943581241173269
0.000135,-1.0096630887170863,-0.6070485395357361,-1.5130977687418292,-1.0096630887170863
0.000136,-1.0946137561427358,-0.7634413256288587,-1.6584955434035922,-1.0946137561427358
0.000137,-1.2000296069307648,-0.9438669027142138,-1.8278371698042402,-1.2000296069307648
0.000138,-1.3275213223444549,-1.111670870460815,-2.0013628609189325,-1.3275213223444549
0.000139,-1.4772494905587377,-1.3049761328803213,-2.095571429128574,-1.4772494905587377
0.00014,-1.6477003508860355,-1.4348089101077361,-2.1413307277223876,-1.6477003508860355
0.00014099999999999998,-1.8270564220331702,-1.4493013390280645,-2.1505015680582953,-1.8270564220331702
0.00014199999999999998,-2.000079890354275,-1.3340796832890007,-2.151184030671975,-2.000079890354275
0.000143,-2.152377533564423,-1.1201169265059836,-2.1649303393971766,-2.152377533564423
0.000144,-2.2743526222589887,-0.8518007451193631,-2.219435793013291,-2.2743526222589887
0.000145,-2.3623988623568186,-0.5726478297075056,-2.280229537151458,-2.3623988623568186
0.000146,-2.4164948002346383,-0.3100593436233111,-2.3375844996462942,-2.4164948002346383
0.000147,-2.4399828336745255,-0.07183349879729913,-2.3422424702833577,-2.4399828336745255
0.000148,-2.434799836318812,0.15288472248679416,-2.2782976123753085,-2.434799836318812
0.000149,-2.4014061986441626,0.3862170723924825,-2.1489605154730307,-2.4014061986441626
0.00015,-2.337441589018894,0.6451926781325802,-1.9932334150097604,-2.337441589018894
0.00015099999999999998,-2.240650913817354,0.929856596549711,-1.8701499575745593,-2.240650913817354
0.00015199999999999998,-2.1071859422356356,1.2163835381784167,-1.7873712745680277,-2.1071859422356356
0.000153,-1.9417171888280513,1.4486163550411675,-1.6877702542601831,-1.9417171888280513
0.000154,-1.7508885673717092,1.6205731503076837,-1.590407431474364,-1.7508885673717092
0.000155,-1.5449616062055374,1.6974240613060696,-1.5477856856155854,-1.5449616062055374
0.000156,-1.339856592694232,1.5917684721026888,-1.4978547472746355,-1.339856592694232
0.000157,-1.1559431967577696,1.3786152828943712,-1.4178266377619464,-1.1559431967577696
0.000158,-0.9999340222517522,1.1532978693422835,-1.3347947312737505,-0.9999340222517522
0.000159,-0.8720077668779962,0.9134348641317321,-1.268066865945097,-0.8720077668779962
0.00015999999999999999,-0.7748494216182927,0.6583498511478375,-1.242131388623008,-0.7748494216182927
0.00016099999999999998,-0.7098950241975265,0.39157662212072997,-1.2574867165785506,-0.7098950241975265
0.00016199999999999998,-0.6790646452145949,0.1061564973643749,-1.2514883113356223,-0.6790646452145949
0.000163,-0.6831060088357046,-0.16819217120785038,-1.244535723926998,-0.6831060088357046
0.000164,-0.7192906081963667,-0.4089600177348056,-1.226779268593638,-0.7192906081963667
0.000165,-0.7826036901223672,-0.6062339102208484,-1.1463853110893862,-0.7826036901223672
0.000166,-0.8628100751180643,-0.6698323082463288,-1.0336593595464505,-0.8628100751180643
0.000167,-0.9439308393574297,-0.6339550697205459,-0.9135944715028115,-0.9439308393574297
0.000168,-1.0144077884289766,-0.485813496269659,-0.7862843137999189,-1.0144077884289766
0.000169,-1.0594451504948568,-0.24323612357249502,-0.6105486976347944,-1.0594451504948568
0.00016999999999999999,-1.0692204661375944,0.11793535028706341,-0.3844222425624592,-1.0692204661375944
0.00017099999999999998,-1.0274708566267823,0.5546058067781565,-0.14273063237678085,-1.0274708566267823
0.00017199999999999998,-0.9277071629861815,1.0622433810829206,0.07221744673385366,-0.9277071629861815
0.000173,-0.75948784751241,1.704296658357596,0.1948235644820296,-0.75948784751241
0.000174,-0.47225791944147455,3.0746338320827866,0.28522725671330024,-0.47225791944147455
0.000175,-0.03448605291188183,3.7195123500881677,0.35820264085197745,-0.03448605291188183
0.000176,0.38780871030814834,2.9332653258993275,0.4279058309417221,0.38780871030814834
0.000177,0.6814749883981421,1.8908338691277378,0.49268215759682993,0.6814749883981421
0.000178,0.8788177873989343,1.3552338060915865,0.4617296676047409,0.8788177873989343
0.000179,1.0168199171625463,0.8728399026499606,0.3964347579511192,1.0168199171625463
0.00017999999999999998,1.0932215453051812,0.3656440297827423,0.3388174373279515,1.0932215453051812
0.00018099999999999998,1.106493094710834,-0.1509623772027745,0.26361246992503895,1.106493094710834
0.00018199999999999998,1.0546380674377476,-0.696836844684167,0.157215754003725,1.0546380674377476
0.000183,0.935772053743012,-1.214697440489594,0.08440987509146708,0.935772053743012
0.000184,0.7527052725612264,-1.784611539309467,0.02915491123223226,0.7527052725612264
0.000185,0.48402676532802164,-2.553643334422248,-0.043834807320841156,0.48402676532802164
0.000186,0.1444152116324461,-2.795289851886983,-0.09653587630691604,0.1444152116324461
0.000187,-0.17282126730913103,-2.251849486165032,-0.11276919698575014,-0.17282126730913103
0.000188,-0.4097084710213096,-1.628507728009584,-0.11308446797067148,-0.4097084710213096
0.00018899999999999999,-0.5827450771050918,-1.1794873901255587,-0.08696847827228976,-0.5827450771050918
0.00018999999999999998,-0.6999559869741885,-0.7148435326218522,-0.05895460079517025,-0.6999559869741885
0.00019099999999999998,-0.7587460073294098,-0.2377820957066333,-0.055942564243801195,-0.7587460073294098
0.000192,-0.7598229195294427,0.2140577227019298,-0.0929769221117869,-0.7598229195294427
0.000193,-0.7081635542466712,0.6118844554062268,-0.13380167773226875,-0.7081635542466712
0.000194,-0.611888541018491,0.9304279164890373,-0.15524101002151933,-0.611888541018491
0.000195,-0.4823626366253827,1.151440919982235,-0.14467615672699527,-0.4823626366253827
0.000196,-0.3319242978146386,1.2680128978313137,-0.12811751737186394,-0.3319242978146386
0.000197,-0.1737521814406753,1.2759731147218818,-0.10765692117508971,-0.1737521814406753
0.000198,-0.021327656126130436,1.1772059314048882,-0.12268826345234532,-0.021327656126130436
0.00019899999999999999,0.11315938581610929,0.9876151961299593,-0.16739454048038843,0.11315938581610929
0.00019999999999999998,0.21889989199701693,0.713888378207889,-0.22241438449406709,0.21889989199701693
0.00020099999999999998,0.28680503993893147,0.3735917311894523,-0.29512526894806795,0.28680503993893147
0.000202,0.309987212644556,0.0029931840919001917,-0.33383895913956263,0.309987212644556
0.000203,0.28763555191892254,-0.3624547113174386,-0.3419373138892185,0.28763555191892254
0.000204,0.2217265986157049,-0.6961436473424536,-0.33185109884591557,0.2217265986157049
0.000205,0.11931331589045135,-0.9464047231093339,-0.29215251032605455,0.11931331589045135
0.000206,-0.007575122699934717,-1.0858716160298376,-0.1946531191451092,-0.007575122699934717
0.000207,-0.1418668808675451,-1.0648068497440961,-0.12781620202440952,-0.1418668808675451
0.000208,-0.2659642937014307,-0.9341104412513753,-0.14086161913836354,-0.2659642937014307
0.00020899999999999998,-0.37022581402276455,-0.7480500739123671,-0.16185996530196267,-0.37022581402276455
0.00020999999999999998,-0.44933131772953755,-0.5288871651056307,-0.1830936421918995,-0.44933131772953755
0.00021099999999999998,-0.5004658619382918,-0.30202639244895674,-0.22463719558883893,-0.5004658619382918
0.000212,-0.5244628804567592,-0.08704178522888872,-0.29678685484849093,-0.5244628804567592
0.000213,-0.5242265502552768,0.08531541125865023,-0.3761280829680726,-0.5242265502552768
0.000214,-0.5062607692184954,0.19845549612899852,-0.4432335897207363,-0.5062607692184954
0.000215,-0.4779641960076144,0.2527438362677874,-0.49253126819420145,-0.4779641960076144
0.000216,-0.4459802567776227,0.25859666737897896,-0.46776592282285784,-0.4459802567776227
0.000217,-0.41430338236681,0.25177748450991483,-0.46227184845634123,-0.41430338236681
