time,V_C,I_L,V_IN,V_C
0.0,0.0,0.0,81.67028431217487,0.0
1e-06,2.3234953686883015,1.593498961716263,77.55838602601621,2.3234953686883015
2e-06,8.77098624536973,2.8710273274066864,71.62762405220029,8.77098624536973
3e-06,18.37905166251139,3.7901667079539876,66.48842631364597,18.37905166251139
4e-06,30.0876928408264,4.33634447726342,65.9478286664679,30.0876928408264
4.9999999999999996e-06,42.887895087138986,4.581176310099198,67.27829794337968,42.887895087138986
6e-06,56.01483678062895,4.562487693490853,65.98029384511338,56.01483678062895
7e-06,68.68125088616834,4.2554761101767475,65.8286573717445,68.68125088616834
8e-06,80.14380183926575,3.738818400254682,66.65491207943461,80.14380183926575
9e-06,89.89918294128181,3.0747378629597764,64.42238409383238,89.89918294128181
9.999999999999999e-06,97.5839190293953,2.2675701929557204,59.87732957035686,97.5839190293953
1.1e-05,102.58373823749324,1.2058737118604947,51.106307756037346,102.58373823749324
1.2e-05,104.39395329855789,0.04993277185001188,42.97773592394982,104.39395329855789
1.3e-05,102.77719078746443,-1.188178625531502,34.442524482966554,102.77719078746443
1.4e-05,97.65638861950379,-2.3976787864850966,23.090588700287256,97.65638861950379
1.4999999999999999e-05,88.98163451508333,-3.681883623024631,11.178829693978502,88.98163451508333
1.6e-05,76.69823792356067,-4.911340234923796,1.1453938365406964,76.69823792356067
1.7e-05,55.9898160860755,-9.657894883709922,-8.130632004686131,55.9898160860755
1.8e-05,25.30689952955776,-10.770500762589784,-14.862390058064864,25.30689952955776
1.8999999999999998e-05,-2.700635990121924,-8.403445102044753,-19.223976518432416,-2.700635990121924
1.9999999999999998e-05,-22.225590313497364,-5.414269265728187,-24.613709112355334,-22.225590313497364
2.1e-05,-36.24163405472407,-4.560668134476634,-28.673980680822055,-36.24163405472407
2.2e-05,-48.355090248685485,-3.8944423319228667,-26.442776676886382,-48.355090248685485
2.3e-05,-58.3118115360373,-3.0417015365429516,-23.347523221462602,-58.3118115360373
2.4e-05,-65.58934895497826,-2.0392902188055,-22.62260872862211,-65.58934895497826
2.4999999999999998e-05,-69.92055343901042,-0.9900091813820653,-23.06510657842412,-69.92055343901042
2.6e-05,-71.32064115399379,0.003499925527410852,-25.804585841981993,-71.32064115399379
2.7e-05,-70.01125628376835,0.8814563642615587,-25.51688440618202,-70.01125628376835
2.8e-05,-66.37842403411862,1.6402767412606134,-22.720309399809448,-66.37842403411862
2.9e-05,-60.6547535711691,2.3428454972950394,-16.670722897372467,-60.6547535711691
2.9999999999999997e-05,-52.93937073901478,3.0540868093708586,-8.385448861722416,-52.93937073901478
3.1e-05,-43.38419826728963,3.6238163297125427,0.6431102277871038,-43.38419826728963
3.2e-05,-32.3906268027008,4.082917555824934,10.84721041518858,-32.3906268027008
3.2999999999999996e-05,-20.031032230064472,4.543819019330991,19.731911503806707,-20.031032230064472
3.4e-05,-6.504406918363129,4.88591378122191,24.59649706492504,-6.504406918363129
3.5e-05,7.682343971614959,4.999911343763164,25.08494698201482,7.682343971614959
3.6e-05,21.721878109535545,4.7713796619626985,21.85733260883026,21.721878109535545
3.7e-05,34.63745761145786,4.201685202825091,13.645546243421594,34.63745761145786
3.7999999999999995e-05,45.40375206245146,3.294308700524569,8.763511975103311,45.40375206245146
3.9e-05,53.31613889989883,2.219460344283538,1.412046639501202,53.31613889989883
3.9999999999999996e-05,57.83853788077941,0.9179349502007732,-6.711346960362134,57.83853788077941
4.1e-05,58.52316387125443,-0.44873890498264746,-18.007170740262712,58.52316387125443
4.2e-05,55.148839282724595,-1.8977486361120468,-33.03856281500136,55.148839282724595
4.2999999999999995e-05,47.502434807569195,-3.4104308970984487,-46.66802631809624,47.502434807569195
4.4e-05,35.666146162779725,-4.880652942415215,-58.32673130603576,35.666146162779725
4.4999999999999996e-05,11.90038695578478,-11.914273242627674,-67.5653520273557,11.90038695578478
4.6e-05,-26.11741388031423,-13.339602776649429,-73.63953855656348,-26.11741388031423
4.7e-05,-60.25788250639908,-10.129007810498958,-78.9240459047411,-60.25788250639908
4.8e-05,-83.07863069228442,-5.8909932482513,-81.61231367019329,-83.07863069228442
4.9e-05,-97.56534294422451,-4.589032805600895,-81.77604195959296,-97.56534294422451
4.9999999999999996e-05,-109.51738253348087,-3.755916015835675,-81.89331063725,-109.51738253348087
5.1e-05,-118.9207510234005,-2.8106110756459435,-81.8060773501723,-118.9207510234005
5.2e-05,-125.49573612114402,-1.7751021336686283,-79.76938986136025,-125.49573612114402
5.3e-05,-129.04290863516857,-0.6984919920389321,-76.80751591714362,-129.04290863516857
5.4e-05,-129.5275951254636,0.3440808772601316,-74.82354404603313,-129.5275951254636
5.4999999999999995e-05,-127.08844707803352,1.3360148662131932,-78.36896208984298,-127.08844707803352
5.6e-05,-122.06783601316506,2.1350669076441546,-81.58740610362432,-122.06783601316506
5.6999999999999996e-05,-115.08743609788924,2.7208527805908647,-82.58966391817603,-115.08743609788924
5.8e-05,-106.76230108065306,3.0721088268319607,-82.55575023526224,-106.76230108065306
5.9e-05,-97.71277935709254,3.2369672289077513,-79.75481235383975,-97.71277935709254
5.9999999999999995e-05,-88.40660573481239,3.26092448070248,-71.6843425897135,-88.40660573481239
6.1e-05,-79.04936337746945,3.2934018814574793,-62.63165390389258,-79.04936337746945
6.2e-05,-69.63966747215363,3.2730384564773773,-53.48819215397533,-69.63966747215363
6.3e-05,-60.39348888543424,3.2064748230695996,-47.82468950347193,-60.39348888543424
6.4e-05,-51.36209461009223,3.097970529336233,-45.72862105000845,-51.36209461009223
6.5e-05,-42.776235889453574,2.8778779904789658,-45.9929060404114,-42.776235889453574
6.599999999999999e-05,-35.03251169673891,2.5169216616493957,-48.653878189454815,-35.03251169673891
6.7e-05,-28.583892502452596,1.9727555980951461,-51.6398225417211,-28.583892502452596
6.8e-05,-23.881234961911684,1.2953401322619202,-56.08966024724881,-23.881234961911684
6.9e-05,-21.272042889306917,0.5302336295938789,-61.176298123164266,-21.272042889306917
7e-05,-20.94685913709988,-0.2900584544452343,-69.60558967962618,-20.94685913709988
7.099999999999999e-05,-23.035794656765283,-1.1767048875180823,-81.3465739172258,-23.035794656765283
7.2e-05,-27.83194441541684,-2.169296017269753,-93.62048669223456,-27.83194441541684
7.3e-05,-35.53148941671829,-3.1950579682488383,-106.34658677823069,-35.53148941671829
7.4e-05,-46.07735558813326,-4.197211360266871,-118.49179610657887,-46.07735558813326
7.5e-05,-59.9298293976213,-6.062287079524367,-129.5278794765365,-59.9298293976213
7.599999999999999e-05,-84.36386488103152,-10.05653622766241,-137.9499222695766,-84.36386488103152
7.7e-05,-113.63179095213833,-9.660245194965881,-140.26660085158412,-113.63179095213833
7.8e-05,-137.01739082220394,-6.468503053928462,-136.3381405073577,-137.01739082220394
7.9e-05,-151.9516286949073,-4.5928146010080395,-129.47789852562804,-151.9516286949073
7.999999999999999e-05,-163.7195146927656,-3.6631437614398124,-122.16896525345064,-163.7195146927656
8.099999999999999e-05,-172.51022587643197,-2.429696387167108,-112.53632333615191,-172.51022587643197
8.2e-05,-177.41727556034203,-1.0060551078965467,-107.93041364337411,-177.41727556034203
8.3e-05,-178.2207448794793,0.4320892638703211,-109.01869806264048,-178.2207448794793
8.4e-05,-175.10179791312171,1.7209975563921527,-109.46067168907508,-175.10179791312171
8.499999999999999e-05,-168.57377737616045,2.814100643101308,-108.76852595584545,-168.57377737616045
8.599999999999999e-05,-159.25046059177927,3.684054225249341,-107.54750332051363,-159.25046059177927
8.7e-05,-147.74301716537113,4.32031810538219,-106.66114743957128,-147.74301716537113
8.8e-05,-134.81986567752244,4.662940808810388,-109.84840275345135,-134.81986567752244
8.9e-05,-121.49005694670016,4.591861396194505,-114.5427174049098,-121.49005694670016
8.999999999999999e-05,-108.85924761943004,4.200251385261347,-114.25235162293583,-108.85924761943004
9.099999999999999e-05,-97.6236467699252,3.6607658003611396,-110.12859013044185,-97.6236467699252
9.2e-05,-88.0361783325088,3.048365896362753,-105.67816631096986,-88.0361783325088
9.3e-05,-80.26578170553265,2.3959641452400544,-97.34873366076984,-80.26578170553265
9.4e-05,-74.37930851189412,1.726805731145495,-91.56544315147,-74.37930851189412
9.499999999999999e-05,-70.24547989158991,1.1840577235482017,-87.88839760994507,-70.24547989158991
9.6e-05,-67.53985704044965,0.7202906096424323,-84.47848783355292,-67.53985704044965
9.7e-05,-66.07417279328527,0.31041734341990757,-84.07980861621877,-66.07417279328527
9.8e-05,-65.73064827902344,-0.06766696804702023,-85.05138077146677,-65.73064827902344
9.9e-05,-66.45153011493565,-0.4330001672305734,-86.06650975509623,-66.45153011493565
9.999999999999999e-05,-68.17399324527348,-0.7663056235667576,-86.64137958300721,-68.17399324527348
0.000101,-70.79047530828784,-1.0524636722636642,-83.97808662952514,-70.79047530828784
0.000102,-74.0204243995902,-1.182388665661211,-79.74979425420106,-74.0204243995902
0.000103,-77.3948024664333,-1.1597526329754786,-78.43106386931093,-77.3948024664333
0.000104,-80.58335181187154,-1.0586999677006612,-78.89715590229854,-80.58335181187154
0.00010499999999999999,-83.41070810146265,-0.9171898393665813,-78.56314531274411,-83.41070810146265
0.000106,-85.76695047270051,-0.7254421623801655,-78.16039269390386,-85.76695047270051
0.000107,-87.5302581112769,-0.5062999251743752,-78.86619702804606,-87.5302581112769
0.000108,-88.66159899269803,-0.2864980956876553,-77.58896703089027,-88.66159899269803
0.00010899999999999999,-89.17176728083801,-0.06164792996454693,-73.93859193785181,-89.17176728083801
0.00010999999999999999,-88.93269086411856,0.23170960815556096,-70.856872167361,-88.93269086411856
0.000111,-87.80446953316476,0.5604702383499708,-67.15574613369779,-87.80446953316476
0.000112,-85.7296330687696,0.889046051780246,-68.19594031430566,-85.7296330687696
0.000113,-82.81637058901735,1.1368940471671347,-73.12734672944656,-82.81637058901735
0.00011399999999999999,-79.40194513264875,1.2207967175106706,-76.7601176855004,-79.40194513264875
0.00011499999999999999,-76.01008169358784,1.1374208810183022,-81.50194381552997,-76.01008169358784
0.000116,-73.0755942251811,0.9012806819770008,-87.8317302373136,-73.0755942251811
0.000117,-71.04705345642839,0.5051754757781771,-93.927661645137,-71.04705345642839
0.000118,-70.3231975160797,4.60464612194178e-05,-99.71558906252612,-70.3231975160797
0.00011899999999999999,-71.14539733448842,-0.5872519617943757,-104.09639248896565,-71.14539733448842
0.00011999999999999999,-73.66820314133474,-1.171364243779243,-110.45662840495882,-73.66820314133474
0.000121,-77.8896459659344,-1.7835558896324644,-114.37894746663119,-77.8896459659344
0.000122,-83.76018856210692,-2.2860915881797452,-108.74139353341658,-83.76018856210692
0.00012299999999999998,-90.62753950027728,-2.468066309787848,-102.23744484881561,-90.62753950027728
0.000124,-97.65419207124917,-2.421023535179849,-100.34409996658083,-97.65419207124917
0.000125,-104.27400021116424,-2.182369928196954,-97.15663644474212,-104.27400021116424
0.000126,-109.9886189565069,-1.7869657644158177,-91.00799928138709,-109.9886189565069
0.000127,-114.22975996210415,-1.1450241082431634,-81.23664684066539,-114.22975996210415
0.000128,-116.40865656744072,-0.3587716103454371,-71.73097692915316,-116.40865656744072
0.000129,-116.1008996118292,0.5948336482471603,-63.92378665240288,-116.1008996118292
0.00013,-113.01228954556687,1.5630879579269699,-53.32401271502122,-113.01228954556687
0.00013099999999999999,-107.05472576355895,2.6181545344103623,-42.71712421626524,-107.05472576355895
0.00013199999999999998,-98.11783090313148,3.598873003691205,-37.260989019975845,-98.11783090313148
0.000133,-86.59463401921035,4.429904835551745,-31.80579588477268,-86.59463401921035
0.000134,-72.83365476739948,5.290959094153735,-26.455240996681482,-72.83365476739948
0.000135,-54.87813649138093,6.909191630947598,-19.42376751368186,-54.87813649138093
0.000136,-35.140305957603694,6.545443099114214,-13.245934818815789,-35.140305957603694
0.000137,-18.140815001479268,5.314667506440095,-6.182692295054231,-18.140815001479268
0.000138,-3.851255753375776,4.761835807378845,1.0041630453659416,-3.851255753375776
0.000139,9.16027478924446,4.330502496585915,8.4586734613728,9.16027478924446
0.00014,20.871637723944037,3.8322997627342255,14.51073916276908,20.871637723944037
0.00014099999999999998,31.008027593566045,3.2759050161863,18.322749678518573,31.008027593566045
0.00014199999999999998,39.539198280379246,2.6813101757614346,21.617393506303593,39.539198280379246
0.000143,46.304206280968586,2.0493275446838024,26.027340820565367,46.304206280968586
0.000144,51.3123777091656,1.475460830691604,31.90163486454756,51.3123777091656
0.000145,54.773763718948956,0.9447726170622543,41.02280804512491,54.773763718948956
0.000146,56.903326063168215,0.5572273597782422,50.57913517490243,56.903326063168215
0.000147,58.132628388374535,0.3489245414768986,61.19206650254253,58.132628388374535
0.000148,59.16701327221754,0.37328763453738867,75.0470791353324,59.16701327221754
0.000149,60.586205490228224,0.6237618245316199,87.49109885178746,60.586205490228224
0.00015,62.98623065605916,1.0868990311920923,97.87660058634486,62.98623065605916
0.00015099999999999998,66.92627396739807,1.6510057744577953,104.32231747984694,66.92627396739807
0.00015199999999999998,72.46636111794429,2.218570443137015,109.4861403541255,72.46636111794429
0.000153,79.54720090262595,2.70731642289722,117.0900185638392,79.54720090262595
0.000154,87.91276461907057,3.1537642430506816,124.98427975925456,87.91276461907057
0.000155,97.51722886558923,3.542316781200163,133.4531584546012,97.51722886558923
0.000156,108.11485568106693,3.866550601313463,136.4375885656137,108.11485568106693
0.000157,119.42825127803947,4.008337022658254,133.68234396991602,119.42825127803947
0.000158,130.734037753763,3.850497564978091,129.2450667946852,130.734037753763
0.000159,141.15335133286732,3.4066837584493417,122.94311310097544,141.15335133286732
0.00015999999999999999,149.92904486053064,2.697738514207054,123.40306035138273,149.92904486053064
0.00016099999999999998,156.49599975001067,1.8969668834990747,126.58183141451796,156.49599975001067
0.00016199999999999998,160.78468717162028,1.1100911966911837,125.53702242605266,160.78468717162028
0.000163,162.8208017094758,0.31391536625822036,121.99589800190144,162.8208017094758
0.000164,162.55220361132416,-0.5117870923638284,116.71458836764785,162.55220361132416
0.000165,159.8872333207113,-1.3406826327300099,111.99803400516475,159.8872333207113
0.000166,154.99425662130366,-2.0774667228428383,107.84245404472178,154.99425662130366
0.000167,148.06197995506383,-2.7438834188699044,106.74830493547324,148.06197995506383
0.000168,139.4114794723177,-3.282181385883314,108.99629467200633,139.4114794723177
0.000169,129.58241533677463,-3.554164437257253,109.39509099308252,129.58241533677463
0.00016999999999999999,119.36211754420835,-3.5661897942657235,106.01550294547825,119.36211754420835
0.00017099999999999998,109.29351170874644,-3.4574627941151443,102.89437544029812,109.29351170874644
0.00017199999999999998,99.73153984031984,-3.220751073667119,100.08754751652928,99.73153984031984
0.000173,91.03104468557245,-2.8565224651760497,99.56791957583852,91.03104468557245
0.000174,83.51020766056944,-2.3914859064103298,99.09250956227548,83.51020766056944
0.000175,77.45471353433612,-1.8269431280818824,100.0275649083964,77.45471353433612
0.000176,73.12326712123523,-1.1982326488120667,101.10570931306476,73.12326712123523
0.000177,70.62860077157598,-0.5480729586608171,100.50045611171012,70.62860077157598
0.000178,69.97509496109491,0.07999107782290549,98.32194848519758,69.97509496109491
0.000179,70.99071521263679,0.6205427827422259,98.85070684190909,70.99071521263679
0.00017999999999999998,73.45203658918066,1.0880008159013905,105.74285442569447,73.45203658918066
0.00018099999999999998,77.24579608779146,1.5714261028852858,113.96603745539586,77.24579608779146
0.00018199999999999998,82.45552213409499,2.0925448167368637,120.30483509666868,82.45552213409499
0.000183,89.1894692183213,2.598968231103828,126.18425907262741,89.1894692183213
0.000184,97.22482249363605,3.016435645635743,129.71848508644686,97.22482249363605
0.000185,106.29071830360131,3.2990437414932323,128.48403219487048,106.29071830360131
0.000186,115.88425265449033,3.37475175336383,127.34801203515761,115.88425265449033
0.000187,125.3840965430444,3.239848215394246,129.14149344243708,125.3840965430444
0.000188,134.27218132115954,2.9630447167972047,128.82682746737024,134.27218132115954
0.00018899999999999999,142.1664181769115,2.5355654222606603,124.70046988924254,142.1664181769115
0.00018999999999999998,148.5959104141189,1.9324623041236415,121.960977006705,148.5959104141189
0.00019099999999999998,153.15472813533654,1.2535322442486367,124.14081482876345,153.15472813533654
0.000192,155.7274083642192,0.5644628087605795,128.9405710315033,155.7274083642192
0.000193,156.4763333266864,0.0027657486122448782,136.355883984962,156.4763333266864
0.000194,155.91805014745967,-0.37160658264961344,148.67525375606544,155.91805014745967
0.000195,154.697779291103,-0.47031901511738067,163.34945756051303,154.697779291103
0.000196,153.64709256659648,-0.25226639371486564,176.5124741594165,153.64709256659648
0.000197,153.59241236468966,0.21778214623299602,185.68313587194126,153.59241236468966
0.000198,155.0346894938789,0.8156649898231061,191.66317776819864,155.0346894938789
0.00019899999999999999,158.26907468891042,1.4318742626227992,195.2071253619304,158.26907468891042
0.00019999999999999998,163.15819601040496,1.9835974142725852,197.83152846516907,163.15819601040496
0.00020099999999999998,169.51312808453542,2.4396320415231583,197.4949553382591,169.51312808453542
0.000202,176.93115979388358,2.722735286844281,198.89150183201656,176.93115979388358
0.000203,184.92728092430693,2.8481127708013783,199.26185885693837,184.92728092430693
0.000204,193.06680606684893,2.8259276231639947,197.37960399439302,193.06680606684893
0.000205,200.92673639778806,2.632910845425769,194.49166059263578,200.92673639778806
0.000206,207.790705039707,2.1336571527809562,185.07488978675855,207.790705039707
0.000207,212.94812611191728,1.4652384517465193,171.9089937415562,212.94812611191728
0.000208,215.88486785162783,0.5627762577699634,157.9593921566201,215.88486785162783
0.00020899999999999998,215.88934983387483,-0.5740738522164143,146.45735579777602,215.88934983387483
0.00020999999999999998,212.45215725567652,-1.8250660397925227,135.9163728744291,212.45215725567652
0.00021099999999999998,205.41283524666892,-3.095375606453432,129.05620154419452,205.41283524666892
0.000212,194.81657611368053,-4.277424269992617,122.3435162153324,194.81657611368053
0.000213,180.56142378784006,-6.427773562526881,116.31604823368647,180.56142378784006
0.000214,156.26525426848463,-9.6191013694984,109.62075512211922,156.26525426848463
0.000215,129.11165923134308,-8.707924379175621,105.46467830037027,129.11165923134308
0.000216,108.0839112920815,-5.973788919374433,101.50123941044929,108.0839112920815
0.000217,93.26297520240679,-4.721100869933471,98.16553459137634,93.26297520240679
0.00021799999999999999,80.66968017041202,-4.0488527466098185,92.89521039220716,80.66968017041202
0.00021899999999999998,70.07788799568132,-3.3627111718512217,84.5537503072784,70.07788799568132
0.00021999999999999998,61.36776320633677,-2.7359905765639825,76.45294972420265,61.36776320633677
0.00022099999999999998,54.36280816769265,-2.152359291175566,71.08219246993828,54.36280816769265
0.000222,49.03864998604118,-1.5974024952755093,63.12244065029787,49.03864998604118
0.000223,45.120128632028546,-1.152174811355257,51.36774377090757,45.120128632028546
0.000224,42.24747622441617,-0.9116012992796619,40.10358761496678,42.24747622441617
0.000225,39.73231392063528,-0.8547997321946071,31.601585635868076,39.73231392063528
0.000226,37.17210209315844,-0.9801263608615948,21.802390745818762,37.17210209315844
0.000227,34.08138105192726,-1.1696378019343092,11.701583770299525,34.08138105192726
