time,V_C,I_L,V_IN,V_C
0.0,0.0,0.0,37.04965404203362,0.0
1e-06,1.3501564946740157,0.7160600737108355,46.6329301163225,1.3501564946740157
2e-06,5.504472239514515,1.5415874146662196,54.665206847214094,5.504472239514515
3e-06,12.77974672442157,2.3342843401937463,59.70290656900993,12.77974672442157
4e-06,22.764374419118997,3.023778365365035,68.08197338549193,22.764374419118997
4.9999999999999996e-06,34.9563065566082,3.5542625529105454,74.54784221514626,34.9563065566082
6e-06,48.93687250273601,3.964013149184076,78.22335895446432,48.93687250273601
7e-06,64.09158426889641,4.1661743623301035,78.87998284288797,64.09158426889641
8e-06,79.40956909754942,4.047040602774567,78.14057970088324,79.40956909754942
9e-06,93.69411095282385,3.6199181549740507,77.50921823109786,93.69411095282385
9.999999999999999e-06,105.91934705343013,2.948663745159581,77.39814769687082,105.91934705343013
1.1e-05,115.3059712782542,2.1037354749407484,79.4284299318768,115.3059712782542
1.2e-05,121.46387617748452,1.211297003620066,84.92821523570684,121.46387617748452
1.3e-05,124.43872398410487,0.39649009960217363,88.8593921850373,124.43872398410487
1.4e-05,124.49837052960632,-0.329194593503523,87.88812663532816,124.49837052960632
1.4999999999999999e-05,122.038188025232,-0.9860876904931914,82.64602232061452,122.038188025232
1.6e-05,117.09647989421921,-1.6823129376161388,74.48221528756648,117.09647989421921
1.7e-05,109.56664656608038,-2.378387075237246,63.40832031148448,109.56664656608038
1.8e-05,99.4216635059791,-3.106958417286929,54.36361704714961,99.4216635059791
1.8999999999999998e-05,86.72383951443017,-3.690593358043828,45.53073360884324,86.72383951443017
1.9999999999999998e-05,72.25328512566978,-4.143603315051344,36.82998283274045,72.25328512566978
2.1e-05,56.188578064457246,-4.509004717757012,28.279269070608365,56.188578064457246
2.2e-05,39.138355046754775,-4.634618184642363,17.21371608212611,39.138355046754775
2.3e-05,22.00448452283162,-4.5906903109489265,5.511480859983915,22.00448452283162
2.4e-05,5.167216237272164,-4.503004362371237,-2.860180134328538,5.167216237272164
2.4999999999999998e-05,-11.09302841179352,-4.234381975074469,-8.311719713381226,-11.09302841179352
2.6e-05,-25.953108055079813,-3.7626449782168545,-12.396154789206847,-25.953108055079813
2.7e-05,-38.749288116918976,-3.1157590824243697,-12.594998535902654,-38.749288116918976
2.8e-05,-48.841497485351766,-2.306853479334885,-14.87308992054628,-48.841497485351766
2.9e-05,-55.76799051998337,-1.432366675661544,-18.307977428652766,-55.76799051998337
2.9999999999999997e-05,-59.467988696446625,-0.5674519636333146,-23.430419379104766,-59.467988696446625
3.1e-05,-60.10659848464418,0.1839308611981697,-32.89633364435572,-60.10659848464418
3.2e-05,-58.40929632028538,0.7053027018408923,-37.432246108155766,-58.40929632028538
3.2999999999999996e-05,-55.033893846631166,1.0795568276018708,-39.670352938674775,-55.033893846631166
3.4e-05,-50.651885892838166,1.2613254401169294,-42.209179456065414,-50.651885892838166
3.5e-05,-45.877992469987305,1.3022737044571644,-39.54216854564452,-45.877992469987305
3.6e-05,-41.08402258593908,1.2904865872199587,-34.301631552328686,-41.08402258593908
3.7e-05,-36.20108154142799,1.3482628691123033,-28.72988056193618,-36.20108154142799
3.7999999999999995e-05,-31.13333711541699,1.3812542741255336,-24.954210199878844,-31.13333711541699
3.9e-05,-26.028307203771014,1.3701700496576381,-22.61772432918885,-26.028307203771014
3.9999999999999996e-05,-21.03636899605316,1.3124297268563276,-23.457393093190078,-21.03636899605316
4.1e-05,-16.44385723250286,1.148844482928559,-23.223623242329833,-16.44385723250286
4.2e-05,-12.616596915576057,0.9072451374743239,-23.198394200919182,-12.616596915576057
4.2999999999999995e-05,-9.781879959765078,0.623032542271172,-22.183926246881597,-9.781879959765078
4.4e-05,-8.017785003155861,0.34069077223260386,-18.176566531685676,-8.017785003155861
4.4999999999999996e-05,-7.180589198923842,0.11450719487851399,-13.228135067535755,-7.180589198923842
4.6e-05,-7.016498949439563,-0.018026520576720856,-8.074722413004764,-7.016498949439563
4.7e-05,-7.118397324129224,-0.028713152161762914,-3.372739054183758,-7.118397324129224
4.8e-05,-7.07933657056637,0.04797327370715395,-0.44737945782953337,-7.07933657056637
4.9e-05,-6.705059261037351,0.17072393618246218,4.4359508493724595,-6.705059261037351
4.9999999999999996e-05,-5.714789945261751,0.366846600735619,12.926765624689422,-5.714789945261751
5.1e-05,-3.8260631254598785,0.6911558716786237,23.034232148429098,-3.8260631254598785
5.2e-05,-0.427290963656575,1.141666249474229,33.22190852762051,-0.427290963656575
5.3e-05,4.775951781803362,1.6901343061836607,39.44154009252819,4.775951781803362
5.4e-05,12.043564691664644,2.2071205426503617,41.01543297314258,12.043564691664644
5.4999999999999995e-05,20.92996603248171,2.557019674856214,38.99043771112329,20.92996603248171
5.6e-05,30.677084197854658,2.6663600241281706,38.89086635908911,30.677084197854658
5.6999999999999996e-05,40.44161868881527,2.5699092466675526,39.449671068033254,40.44161868881527
5.8e-05,49.51533414460209,2.3169806990158666,42.22183164943815,49.51533414460209
5.9e-05,57.45951182251483,1.9481364586911056,42.938401416987425,57.45951182251483
5.9999999999999995e-05,63.846602218457015,1.4895400714371605,41.846628169921274,63.846602218457015
6.1e-05,68.33464134309162,0.919586276635923,41.155373590024396,68.33464134309162
6.2e-05,70.62006116469618,0.3157216968274257,42.47118562082325,70.62006116469618
6.3e-05,70.7073247909881,-0.25820988191026906,44.025139974098444,70.7073247909881
6.4e-05,68.76563546126793,-0.765260675135022,45.5234405668941,68.76563546126793
6.5e-05,65.1897125559888,-1.155264800839662,46.69708302368242,65.1897125559888
6.599999999999999e-05,60.41383035898523,-1.4122109371365148,47.07788098940158,60.41383035898523
6.7e-05,54.876056218885,-1.5542393700732704,44.63660171341978,54.876056218885
6.8e-05,48.947939422960495,-1.6328100535141037,41.72965250518719,48.947939422960495
6.9e-05,42.90188662323498,-1.6236116210587013,38.57555412698447,42.90188662323498
7e-05,37.09333330668617,-1.5010968789020798,35.71780275165867,37.09333330668617
7.099999999999999e-05,31.802550999631208,-1.3495373935026154,33.75482976891709,31.802550999631208
7.2e-05,27.125292809379072,-1.174144548948696,30.525612274708223,27.125292809379072
7.3e-05,23.057652418289727,-1.017922508486945,26.85840286603714,23.057652418289727
7.4e-05,19.58775596206935,-0.8548867719978595,23.119118298074522,19.58775596206935
7.5e-05,16.729179982142433,-0.6956462817837625,21.08694564423307,16.729179982142433
7.599999999999999e-05,14.430066245201589,-0.5423723348668041,20.686329831698252,14.430066245201589
7.7e-05,12.738097417212026,-0.36701394848155766,18.791179671718155,12.738097417212026
7.8e-05,11.701948178134385,-0.1945816266846747,19.124189820231013,11.701948178134385
7.9e-05,11.295907930417451,-0.01182280624889362,23.429885550743524,11.295907930417451
7.999999999999999e-05,11.694480910009082,0.22205183706638504,24.117931813068864,11.694480910009082
8.099999999999999e-05,12.932841665700233,0.43962848430939616,21.281582064591767,12.932841665700233
8.2e-05,14.820675869273186,0.5637572161938958,16.117687270404147,14.820675869273186
8.3e-05,16.901091091240733,0.5272595497273447,11.535750140463366,16.901091091240733
8.4e-05,18.579807062030383,0.3731423751708993,11.193695469710107,18.579807062030383
8.499999999999999e-05,19.635852123698825,0.19498787237176143,11.327582995643134,19.635852123698825
8.599999999999999e-05,20.023028742516566,0.013535478250423331,10.144605970241221,20.023028742516566
8.7e-05,19.71178921620979,-0.181743467586848,9.765825698850755,19.71178921620979
8.8e-05,18.69926449320654,-0.3619375740445433,9.016520629083942,18.69926449320654
8.9e-05,17.077007164237177,-0.5019916875077167,10.750322317062855,17.077007164237177
8.999999999999999e-05,15.063746842806655,-0.575884969893831,14.26354655099301,15.063746842806655
9.099999999999999e-05,12.96936327033432,-0.5447862961683834,20.042895205731682,12.96936327033432
9.2e-05,11.239668094499304,-0.35618870069770087,25.78155204525168,11.239668094499304
9.3e-05,10.51586616602806,-0.029483924903658656,37.45431318980924,10.51586616602806
9.4e-05,11.394934214870212,0.5143355253423056,50.864312261444475,11.394934214870212
9.499999999999999e-05,14.66472753884885,1.2360857034066295,63.6074818939446,14.66472753884885
9.6e-05,20.736251477489233,2.076760281692295,73.58686089342841,20.736251477489233
9.7e-05,30.041575597063936,2.919439644310543,79.16867686637279,30.041575597063936
9.8e-05,42.21398464650509,3.6204533629102045,80.77960246363101,42.21398464650509
9.9e-05,56.50024101783257,4.040672061774704,80.2635484194062,56.50024101783257
9.999999999999999e-05,71.7144629456454,4.1161811344882135,77.50752103818215,71.7144629456454
0.000101,86.51409401816434,3.804881175183725,74.34786686040026,86.51409401816434
0.000102,99.57036779942648,3.2016721912781714,69.79311982833988,99.57036779942648
0.000103,109.84125019561488,2.303959645695074,67.01390832663532,109.84125019561488
0.000104,116.43735571642088,1.2431590814979194,66.30223912428517,116.43735571642088
0.00010499999999999999,119.01891401091237,0.1484827495248089,64.83766658203415,119.01891401091237
0.000106,117.56157626097492,-0.9199328993883529,65.33595724437009,117.56157626097492
0.000107,112.36967917625482,-1.8539727717529488,66.0673863434895,112.36967917625482
0.000108,104.10943130880283,-2.565634176340841,68.96585177381176,104.10943130880283
0.00010899999999999999,93.70155360555245,-3.0077546609572274,73.18283581446285,93.70155360555245
0.00010999999999999999,82.21553555658478,-3.1290687830636403,78.37533499846045,82.21553555658478
0.000111,70.89169082059497,-2.946680428760506,80.3994076762197,70.89169082059497
0.000112,60.766184705073584,-2.489182586940319,81.57333485701089,60.766184705073584
0.000113,52.731651441152536,-1.8174331221160256,84.84405327087377,52.731651441152536
0.00011399999999999999,47.46520092804157,-1.0163136910273747,85.10719403402146,47.46520092804157
0.00011499999999999999,45.227971697126655,-0.20479043071108763,78.53186027694913,45.227971697126655
0.000116,45.711858063538315,0.4531166437302872,65.39602662345142,45.711858063538315
0.000117,48.06871847543858,0.8026174681858784,45.87342329139927,48.06871847543858
0.000118,50.916200210070414,0.7131043547526913,22.76942020533342,50.916200210070414
0.00011899999999999999,52.59513633506695,0.13436069779975848,1.9690247523315232,52.59513633506695
0.00011999999999999999,51.230618320878946,-0.8681218438730409,-12.982417555158978,51.230618320878946
0.000121,45.860935648635206,-2.022714642727533,-25.49409737527275,45.860935648635206
0.000122,36.07941882469337,-3.2365273255533005,-35.32296527418147,36.07941882469337
0.00012299999999999998,21.924477794658024,-4.357066077695337,-43.340767172075644,21.924477794658024
0.000124,3.359797828898124,-6.318019976303817,-49.85801119360669,3.359797828898124
0.000125,-26.373038277326273,-8.74211195956689,-55.416973732126664,-26.373038277326273
0.000126,-56.16646302218452,-6.851225080647992,-59.86442516147958,-56.16646302218452
0.000127,-76.96109116977307,-4.791049510271685,-62.87919861001882,-76.96109116977307
0.000128,-93.2854681189366,-4.0055003667511855,-66.76687385898636,-93.2854681189366
0.000129,-106.4880919360448,-3.094340835357241,-67.29964408827868,-106.4880919360448
0.00013,-115.98453344386347,-2.008549755712023,-64.70405386636439,-115.98453344386347
0.00013099999999999999,-121.23423570840674,-0.8150907132558919,-61.51791112086268,-121.23423570840674
0.00013199999999999998,-122.01527155957999,0.40833984055408146,-57.08359007107249,-122.01527155957999
0.000133,-118.21287248606235,1.624979499365037,-54.44345467382029,-118.21287248606235
0.000134,-110.07864646774628,2.7299682705140156,-53.35493140847579,-110.07864646774628
0.000135,-98.27050425076466,3.601867362146641,-52.10047490760728,-98.27050425076466
0.000136,-83.7505750435379,4.186851802119735,-51.28530400568606,-83.7505750435379
0.000137,-67.67941438341964,4.431981892107467,-51.75836847301525,-67.67941438341964
0.000138,-51.39207796564882,4.295140861400036,-53.888712488559406,-51.39207796564882
0.000139,-36.27658659070943,3.8103436094735486,-56.350927517525875,-36.27658659070943
0.00014,-23.48118777361917,3.0642680974501957,-57.308191440025496,-23.48118777361917
0.00014099999999999998,-13.843863244009341,2.11278223141777,-61.40739997124075,-13.843863244009341
0.00014199999999999998,-8.065275958568446,0.9851121584092706,-64.77406642349274,-8.065275958568446
0.000143,-6.627552391187127,-0.21040117820609083,-67.01912502280716,-6.627552391187127
0.000144,-9.57269676088202,-1.3594989503605293,-66.55272177398543,-9.57269676088202
0.000145,-16.47664792631886,-2.334376193367583,-65.75832087214964,-16.47664792631886
0.000146,-26.580000181081104,-3.0802545654566855,-70.346091989962,-26.580000181081104
0.000147,-39.06052039659685,-3.6322635019782865,-73.6466141295964,-39.06052039659685
0.000148,-53.21134775809412,-3.964086330549227,-74.78259795196212,-53.21134775809412
0.000149,-68.0841418164375,-4.010893033562305,-75.23055923161077,-68.0841418164375
0.00015,-82.56337402125752,-3.76290247081399,-75.59768637128893,-82.56337402125752
0.00015099999999999998,-95.61180861847494,-3.240692335136258,-73.89448016927882,-95.61180861847494
0.00015199999999999998,-106.27961088963787,-2.4781687801933323,-71.30504852584144,-106.27961088963787
0.000153,-113.7868188977174,-1.5459803174893791,-64.30180731767393,-113.7868188977174
0.000154,-117.48026784301094,-0.44261767361551485,-54.40054265286577,-117.48026784301094
0.000155,-116.82163463350511,0.8095078069514983,-40.994568372310596,-116.82163463350511
0.000156,-111.20769674141327,2.212269286504485,-31.173169149438483,-111.20769674141327
0.000157,-100.4196709291172,3.572871025370989,-26.76049435705015,-100.4196709291172
0.000158,-84.98775065425306,4.732361860578733,-21.690258191204972,-84.98775065425306
0.000159,-62.60493621137935,7.912585442299296,-14.930257919050117,-62.60493621137935
0.00015999999999999999,-29.75363625464864,8.798832941501805,-9.546869954167809,-29.75363625464864
0.00016099999999999998,-1.758637812818737,6.006718949748801,-8.751120259840757,-1.758637812818737
0.00016199999999999998,16.89918749705421,4.501579635781145,-9.518888475077059,16.89918749705421
0.000163,31.804203470078416,3.5163126129924716,-9.030149225252169,31.804203470078416
0.000164,42.75281678757533,2.3746336917217885,-8.708028625151181,42.75281678757533
0.000165,49.28316154520172,1.1446278923117,-8.845765158830492,49.28316154520172
0.000166,51.22070741855109,-0.09505078148409929,-9.919415941493256,51.22070741855109
0.000167,48.65067163427432,-1.2779010557712627,-13.295788716961743,48.65067163427432
0.000168,41.81371385161259,-2.40311328415248,-18.602498840754116,41.81371385161259
0.000169,31.04897120748251,-3.3789162647762447,-25.396451699734158,31.04897120748251
0.00016999999999999999,16.94458734253092,-4.183713935177766,-27.900574705743846,16.94458734253092
0.00017099999999999998,0.40698428209198667,-4.686658739551838,-29.620779891392957,0.40698428209198667
0.00017199999999999998,-17.351019587367027,-4.848292792501297,-30.61648378972425,-17.351019587367027
0.000173,-35.02815586449066,-4.642513674272111,-32.823960052214176,-35.02815586449066
0.000174,-51.324098634304825,-4.109080015895008,-34.28590611946693,-51.324098634304825
0.000175,-65.26333800772247,-3.3902886768466614,-38.55565323180292,-65.26333800772247
0.000176,-76.28199836315397,-2.5451896766735596,-40.77469801191335,-76.28199836315397
0.000177,-83.99541310916678,-1.6052674939808744,-40.64019143104156,-83.99541310916678
0.000178,-88.01197292006017,-0.5525724031539414,-36.19629008174596,-88.01197292006017
0.000179,-88.0843914266513,0.5120805931753245,-34.00708640884163,-88.0843914266513
0.00017999999999999998,-84.33104687619273,1.5111317080172475,-32.24664595283376,-84.33104687619273
0.00018099999999999998,-77.00767645421638,2.411272487913332,-28.91686768900806,-77.00767645421638
0.00018199999999999998,-66.66438859110734,3.1278710181820615,-23.151089050399282,-66.66438859110734
0.000183,-54.093412316056344,3.6413291567295514,-18.405469760133702,-54.093412316056344
0.000184,-39.88503688165389,3.9935697555461545,-15.62100808279639,-39.88503688165389
0.000185,-24.8071261809381,4.093013263888764,-18.53393286628777,-24.8071261809381
0.000186,-10.000744623493652,3.829819377598609,-23.63194213710176,-10.000744623493652
0.000187,3.0675662717249566,3.1800514528400186,-26.474421681717033,3.0675662717249566
0.000188,13.23930735558031,2.288463689050068,-26.046303509396058,13.23930735558031
0.00018899999999999999,19.922502260763206,1.3136405406249276,-24.305882602823246,19.922502260763206
0.00018999999999999998,22.962886350903247,0.33838417080693933,-17.06494010949812,22.962886350903247
0.00019099999999999998,22.716175016806776,-0.4209746895085338,-5.771985775792534,22.716175016806776
0.000192,20.173389421940108,-0.9198026168949821,3.0828958120033207,20.173389421940108
0.000193,16.271694577215655,-1.1569228311757849,3.833816157880486,16.271694577215655
0.000194,11.716608940248205,-1.2891085855556155,-1.4226723932241256,11.716608940248205
0.000195,6.6931125739979285,-1.4288257726192204,-7.88800332674087,6.6931125739979285
0.000196,1.0825619928554708,-1.5905227916229592,-10.915140985578402,1.0825619928554708
0.000197,-4.9984161856706635,-1.6610570940290141,-13.295559955557883,-4.9984161856706635
0.000198,-11.172104225796023,-1.6766229298893935,-19.946988816850673,-11.172104225796023
0.00019899999999999999,-17.439787980336064,-1.6899051695108107,-26.058633893988915,-17.439787980336064
0.00019999999999999998,-23.711706669340295,-1.6895515966152002,-27.626435458349004,-23.711706669340295
0.00020099999999999998,-29.857692459613084,-1.6166543346485573,-29.155701496319992,-29.857692459613084
0.000202,-35.592599737300006,-1.4660502331529979,-30.9092274149208,-35.592599737300006
0.000203,-40.61502770306755,-1.232678261564859,-27.8195010172846,-40.61502770306755
0.000204,-44.48213268180334,-0.8428013785691936,-24.073234092780325,-44.48213268180334
0.000205,-46.742748148589065,-0.35636024996219734,-21.623896634799195,-46.742748148589065
0.000206,-47.1613632811799,0.1379344265189718,-18.868045859889758,-47.1613632811799
0.000207,-45.67956897929255,0.6605868972547599,-16.45240905507428,-45.67956897929255
0.000208,-42.26886701922573,1.1761850700317331,-14.562554549248317,-42.26886701922573
0.00020899999999999998,-37.08831979485791,1.6044264878554653,-9.676528465992492,-37.08831979485791
0.00020999999999999998,-30.419907856670942,1.986864278624974,-1.8051084230407903,-30.419907856670942
0.00021099999999999998,-22.271394899688868,2.4280560013785832,7.256785493447246,-22.271394899688868
0.000212,-12.572688750800939,2.7737791167473267,15.683081850396503,-12.572688750800939
0.000213,-1.7707191817998453,3.0458335525945044,25.144741446572965,-1.7707191817998453
0.000214,10.020714702308865,3.3296025575424686,33.654439895577084,10.020714702308865
0.000215,22.703609063481643,3.4736072782448764,42.17286159742547,22.703609063481643
0.000216,35.66659938934489,3.5171705571353318,52.08149791164783,35.66659938934489
0.000217,48.756271905999476,3.5134701593606255,63.460521653859665,48.756271905999476
0.00021799999999999999,61.74926622858908,3.464462656368784,77.30490595325116,61.74926622858908
0.00021899999999999998,74.53119406996552,3.473562089797792,89.30024579306296,74.53119406996552
0.00021999999999999998,87.39821781969023,3.4306040039755192,94.35514486663838,87.39821781969023
0.00022099999999999998,99.78250350063689,3.229034750551279,95.10923699437528,99.78250350063689
0.000222,111.05995948026559,2.8266405229323848,97.29244808149181,111.05995948026559
0.000223,120.53954833908833,2.2741754571847137,98.60680000344568,120.53954833908833
0.000224,127.7925205336496,1.6291599574698845,99.16822438335157,127.7925205336496
0.000225,132.52385411911055,0.9154887856939451,97.76381249137557,132.52385411911055
0.000226,134.51024520722476,0.1539562937366945,97.46175835747034,134.51024520722476
