time,V_C,I_L,V_IN,V_C
0.0,0.0,0.0,-0.6783662748541597,0.0
1e-06,-0.016942253286313748,-0.3471445168985868,-0.6277947436930595,-0.016942253286313748
2e-06,-0.06377697096487328,-0.62493740457459,-0.5783258775253153,-0.06377697096487328
3e-06,-0.13323095043779215,-0.8170916737959207,-0.5276652659709792,-0.13323095043779215
4e-06,-0.2168645731525514,-0.9268782728036333,-0.458185669641692,-0.2168645731525514
4.9999999999999996e-06,-0.30697683778336293,-0.9423489766592693,-0.35477443195728764,-0.30697683778336293
6e-06,-0.39106114023405875,-0.8071760797291061,-0.20380259944916612,-0.39106114023405875
7e-06,-0.4582180652523432,-0.5980955128833981,-0.02914844013395949,-0.4582180652523432
8e-06,-0.5016816066047073,-0.2908355030662713,0.12312988818309178,-0.5016816066047073
9e-06,-0.5107595057120721,0.0968155012197045,0.25556556675088016,-0.5107595057120721
9.999999999999999e-06,-0.48140540453477526,0.5262862610818428,0.3463677884973857,-0.48140540453477526
1.1e-05,-0.4114089425377591,0.9354749777186672,0.41153255382541987,-0.4114089425377591
1.2e-05,-0.30448914001386995,1.2966636572667511,0.5174281917939736,-0.30448914001386995
1.3e-05,-0.1648155466322228,1.624158433045566,0.6170872352803055,-0.1648155466322228
1.4e-05,0.04026805007933787,2.751940781216804,0.7541126734604173,0.04026805007933787
1.4999999999999999e-05,0.3346357673954757,3.1526756376853124,0.8659719586258369,0.3346357673954757
1.6e-05,0.6180148119285972,2.659275459333854,0.9652627117894441,0.6180148119285972
1.7e-05,0.8356281637999465,1.8749241167810453,1.0772208714404334,0.8356281637999465
1.8e-05,0.9974046343467358,1.5853256478410576,1.1722974461871953,0.9974046343467358
1.8999999999999998e-05,1.1409905145355086,1.4290210505779324,1.2509583919852494,1.1409905145355086
1.9999999999999998e-05,1.2692754643068889,1.2567990538591267,1.2947286174739534,1.2692754643068889
2.1e-05,1.379571727770479,1.0525701058660297,1.2991848961908155,1.379571727770479
2.2e-05,1.4683371941592709,0.8047354452018918,1.2757407934482876,1.4683371941592709
2.3e-05,1.5317515170563532,0.5226061746826606,1.2361122780410176,1.5317515170563532
2.4e-05,1.567167330274835,0.21805721443356751,1.2413260841631066,1.567167330274835
2.4999999999999998e-05,1.5740217053888983,-0.06941861020101807,1.2572923462113215,1.5740217053888983
2.6e-05,1.5548853186135037,-0.322371917278029,1.2922988679273553,1.5548853186135037
2.7e-05,1.514074151905715,-0.5298393765592572,1.2318371033852569,1.514074151905715
2.8e-05,1.454365158589408,-0.720294634240425,1.1550765800564737,1.454365158589408
2.9e-05,1.3771438798662932,-0.8993011974106345,1.098446946056297,1.3771438798662932
2.9999999999999997e-05,1.2843342734685523,-1.0398614550132417,1.0464789145397342,1.2843342734685523
3.1e-05,1.1804100547042675,-1.1346981085529222,1.0351254206754246,1.1804100547042675
3.2e-05,1.070422990019414,-1.1628969201174695,1.0446795107619358,1.070422990019414
3.2999999999999996e-05,0.9609314567254651,-1.1245093403073834,1.0427611164809378,0.9609314567254651
3.4e-05,0.8579942250252933,-1.02430646185693,1.0695433182698866,0.8579942250252933
3.5e-05,0.769374807622533,-0.8272351266386982,1.1834396663751623,0.769374807622533
3.6e-05,0.7024018114574225,-0.5691162722121843,1.3000409612283172,0.7024018114574225
3.7e-05,0.663312218615592,-0.2379352021505945,1.3920454912274942,0.663312218615592
3.7999999999999995e-05,0.6579573149298289,0.12605971035051125,1.4433883917813524,0.6579573149298289
3.9e-05,0.6868057416067105,0.47125007382135514,1.4617883218344576,0.6868057416067105
3.9999999999999996e-05,0.7465492298795638,0.7761924521225123,1.418963481967167,0.7465492298795638
4.1e-05,0.8318664739634405,0.9952779806866473,1.3758563508677297,0.8318664739634405
4.2e-05,0.9330941805680935,1.1198104275517065,1.419848313105812,0.9330941805680935
4.2999999999999995e-05,1.0436629524865944,1.1925973234459117,1.5050619644226688,1.0436629524865944
4.4e-05,1.1587465112256572,1.2251503805222337,1.601608881498223,1.1587465112256572
4.4999999999999996e-05,1.278093480409369,1.2790958760572544,1.7258460764509178,1.278093480409369
4.6e-05,1.401381604335143,1.306654220512444,1.8903582438414568,1.401381604335143
4.7e-05,1.5277639202685565,1.3521511847620058,2.0619744080619786,1.5277639202685565
4.8e-05,1.6586966678861936,1.3877039390399852,2.2688107807271924,1.6586966678861936
4.9e-05,1.7932478875129512,1.4516934392268006,2.47236100338338,1.7932478875129512
4.9999999999999996e-05,1.9358566365786951,1.5341746086241674,2.64637758702907,1.9358566365786951
5.1e-05,2.086101873107357,1.62852052135159,2.803725178874339,2.086101873107357
5.2e-05,2.2451383634487687,1.6981439170977446,2.835542459155788,2.2451383634487687
5.3e-05,2.4059243298653206,1.6560395693849757,2.7996909179462803,2.4059243298653206
5.4e-05,2.5576294825728776,1.5159865350466124,2.741244042612167,2.5576294825728776
5.4999999999999995e-05,2.692077643744471,1.2839086342162844,2.6382260075690427,2.692077643744471
5.6e-05,2.797974617775153,0.9279577421038013,2.511553566616473,2.797974617775153
5.6999999999999996e-05,2.8660962482175587,0.4946118354154739,2.35619135296509,2.8660962482175587
5.8e-05,2.8888992915810445,-0.02965571394549915,2.204458603110474,2.8888992915810445
5.9e-05,2.8599032213487456,-0.5744490169617716,2.153046559606759,2.8599032213487456
5.9999999999999995e-05,2.781544222288348,-1.0552716546772352,2.1343494466476205,2.781544222288348
6.1e-05,2.6609682544795303,-1.4670571452207535,2.1147419735892083,2.6609682544795303
6.2e-05,2.4961332482463536,-2.229777572441267,2.121814908778804,2.4961332482463536
6.3e-05,2.2392850482928637,-2.8797107599445195,2.118890840363278,2.2392850482928637
6.4e-05,1.9884745643872717,-2.267746059361199,2.128712887597472,1.9884745643872717
6.5e-05,1.809778537844726,-1.6213587722996243,2.151186387261054,1.809778537844726
6.599999999999999e-05,1.667302542954416,-1.367005342118393,2.195686923266554,1.667302542954416
6.7e-05,1.5515679299737937,-1.0536981020730904,2.183871193436495,1.5515679299737937
6.8e-05,1.4672926581831771,-0.7131280766912389,2.1701132666122716,1.4672926581831771
6.9e-05,1.4157191455240732,-0.3744169190045629,2.1392034586803255,1.4157191455240732
7e-05,1.3954456584957304,-0.058153239584912066,2.0655987893353966,1.3954456584957304
7.099999999999999e-05,1.4026438941713553,0.20388156010300565,2.0057590092333437,1.4026438941713553
7.2e-05,1.4323159023367873,0.4049761616517298,1.9320010214866308,1.4323159023367873
7.3e-05,1.47697331056893,0.5267160427667049,1.9068500227827456,1.47697331056893
7.4e-05,1.5309443869426023,0.5983748584251788,1.9058398226153315,1.5309443869426023
7.5e-05,1.5897585209885838,0.6309954362201657,1.9163460427194732,1.5897585209885838
7.599999999999999e-05,1.650120396332114,0.6312440222657993,1.9240775735251645,1.650120396332114
7.7e-05,1.708982766863789,0.59998885874923,1.9277619117471079,1.708982766863789
7.8e-05,1.763472289210885,0.5356917630026476,1.8577129697103871,1.763472289210885
7.9e-05,1.8089756588485384,0.4158993991332503,1.7653351055781108,1.8089756588485384
7.999999999999999e-05,1.8406097184857535,0.24225280346433734,1.6554335446530009,1.8406097184857535
8.099999999999999e-05,1.853016525720988,0.00428723798845738,1.5545845217369867,1.853016525720988
8.2e-05,1.8400828980613413,-0.2717047100881534,1.464145199904503,1.8400828980613413
8.3e-05,1.800217739680287,-0.5690811463016153,1.3899765808492064,1.800217739680287
8.4e-05,1.7327189346663143,-0.8409441142483196,1.309579989696339,1.7327189346663143
8.499999999999999e-05,1.6404990823446415,-1.0844540634136661,1.3085600592787634,1.6404990823446415
8.599999999999999e-05,1.5287645419256977,-1.24380366823007,1.3878762234787685,1.5287645419256977
8.7e-05,1.4079719018377477,-1.272384580307776,1.4517831313251703,1.4079719018377477
8.8e-05,1.2894539913262637,-1.2024466019219162,1.4913356894882561,1.2894539913262637
8.9e-05,1.1817261606092446,-1.046419961395889,1.5312204185783111,1.1817261606092446
8.999999999999999e-05,1.092038432977133,-0.8293358797177574,1.6124320294411976,1.092038432977133
9.099999999999999e-05,1.025394045571002,-0.5542984617909141,1.7284396976036451,1.025394045571002
9.2e-05,0.9888294918325026,-0.21026648689303698,1.7765201467524108,0.9888294918325026
9.3e-05,0.9863579890619474,0.15546020676232516,1.7595353520358592,0.9863579890619474
9.4e-05,1.0175486823361786,0.48600599522180593,1.6785260243417213,1.0175486823361786
9.499999999999999e-05,1.0744170093893117,0.6926041732268265,1.5357648253124585,1.0744170093893117
9.6e-05,1.1455482883584074,0.7797636786265295,1.3433122791904573,1.1455482883584074
9.7e-05,1.2175744950351408,0.7167422305743015,1.162278902818341,1.2175744950351408
9.8e-05,1.277112496596637,0.5248992925313319,0.9804263852102677,1.277112496596637
9.9e-05,1.3136032920562049,0.22493432282122852,0.8726551987529343,1.3136032920562049
9.999999999999999e-05,1.3189788897185233,-0.1081041538341953,0.8104468058926789,1.3189788897185233
0.000101,1.2927664942202675,-0.4453110437037999,0.7152013062604163,1.2927664942202675
0.000102,1.2341721040827163,-0.7790161788509481,0.5817862426041958,1.2341721040827163
0.000103,1.1439725222298391,-1.1211375550325784,0.45059813149044425,1.1439725222298391
0.000104,1.0212397063822032,-1.4427517735230728,0.3742663820341233,1.0212397063822032
0.00010499999999999999,0.8683900635123437,-1.8580413195904184,0.2773826900865261,0.8683900635123437
0.000106,0.64142963669267,-2.70026089586541,0.13729684026358044,0.64142963669267
0.000107,0.37699564318457957,-2.691999306798147,0.010914086669068093,0.37699564318457957
0.000108,0.14112179724165008,-2.20479115974831,-0.08621616408380933,0.14112179724165008
0.00010899999999999999,-0.0453483425357476,-1.7400645226679108,-0.1698336847785648,-0.0453483425357476
0.00010999999999999999,-0.20167202768759473,-1.5521866174733427,-0.18471505725264503,-0.20167202768759473
0.000111,-0.34029313117986076,-1.350129859718894,-0.16984208733143497,-0.34029313117986076
0.000112,-0.4568988739149916,-1.0896415555442178,-0.1463959070470231,-0.4568988739149916
0.000113,-0.5463184901815146,-0.7824028022737792,-0.15172701185833898,-0.5463184901815146
0.00011399999999999999,-0.605282679329658,-0.45520372315448315,-0.16440944714064673,-0.605282679329658
0.00011499999999999999,-0.6332090583175641,-0.1370247050951686,-0.1993185847223827,-0.6332090583175641
0.000116,-0.63291765231635,0.13557967643742827,-0.3022586322891275,-0.63291765231635
0.000117,-0.6112527177172519,0.3108245618192973,-0.40849157944436165,-0.6112527177172519
0.000118,-0.5759360701775974,0.4150134079849966,-0.5508885288243156,-0.5759360701775974
0.00011899999999999999,-0.5331532172983825,0.46053761708420926,-0.6912190161871562,-0.5331532172983825
0.00011999999999999999,-0.492469986013227,0.3804287820414469,-0.8322465731942543,-0.492469986013227
0.000121,-0.46440790346687333,0.1952007952970082,-0.880338433482501,-0.46440790346687333
0.000122,-0.45561103626206695,-0.009396313207061413,-0.8765287369463282,-0.45561103626206695
0.00012299999999999998,-0.46556293683978023,-0.1964767902659518,-0.8252262348719508,-0.46556293683978023
0.000124,-0.49134899844696134,-0.33472983629873393,-0.749299848462312,-0.49134899844696134
0.000125,-0.5267450477339799,-0.39947863126937194,-0.7385014075248173,-0.5267450477339799
0.000126,-0.5665243966314135,-0.4318559175521755,-0.8144591012708362,-0.5665243966314135
0.000127,-0.6096137738699304,-0.47567719806136255,-0.8909683794141742,-0.6096137738699304
0.000128,-0.6577930597098474,-0.5327429870271668,-0.916808068770169,-0.6577930597098474
0.000129,-0.7104282994998536,-0.5670402280123992,-0.9122488385837342,-0.7104282994998536
0.00013,-0.7646597853507234,-0.565077908942661,-0.8643467354523221,-0.7646597853507234
0.00013099999999999999,-0.8165462245014896,-0.5127040939286663,-0.7923688469645787,-0.8165462245014896
0.00013199999999999998,-0.860205446210409,-0.39843828250290464,-0.7669763832307243,-0.860205446210409
0.000133,-0.8912648299324767,-0.2513429394097648,-0.7239132175719917,-0.8912648299324767
0.000134,-0.908083685515688,-0.09344202722814587,-0.6178326301542598,-0.908083685515688
0.000135,-0.9070439653559703,0.11709205297253585,-0.5470756705731822,-0.9070439653559703
0.000136,-0.8847926992431107,0.35134450181989524,-0.5600739371127887,-0.8847926992431107
0.000137,-0.8417336841705219,0.5448586019966504,-0.5941612423151373,-0.8417336841705219
0.000138,-0.7833310724195431,0.6715841586671103,-0.6306635062853116,-0.7833310724195431
0.000139,-0.7161454784574716,0.7245967137548354,-0.6523343588923348,-0.7161454784574716
0.00014,-0.64661835589437,0.7271374464962874,-0.6903919531280087,-0.64661835589437
0.00014099999999999998,-0.5796081157353323,0.6713734622167848,-0.7393044071215147,-0.5796081157353323
0.00014199999999999998,-0.5204869774203463,0.5560728457633047,-0.8398726621847862,-0.5204869774203463
0.000143,-0.4761761447089249,0.36773259404555153,-0.8892477276872987,-0.4761761447089249
0.000144,-0.4514433741699255,0.15366169481657685,-0.8489661684457467,-0.4514433741699255
0.000145,-0.44607122093806484,-0.038739984328040045,-0.7647580823482214,-0.44607122093806484
0.000146,-0.4569584340364019,-0.17906844905824196,-0.7271698576116059,-0.4569584340364019
0.000147,-0.47874040855221234,-0.270948061297467,-0.717941375683042,-0.47874040855221234
0.000148,-0.5079276769722202,-0.3441166784937561,-0.8004981843402005,-0.5079276769722202
0.000149,-0.5453580604936555,-0.44464532186603795,-0.8759501844309403,-0.5453580604936555
0.00015,-0.5922713987615892,-0.5388402981443353,-0.9386122253211123,-0.5922713987615892
0.00015099999999999998,-0.6483904871188331,-0.6406966622740792,-1.0128089674300786,-0.6483904871188331
0.00015199999999999998,-0.7137021990641488,-0.7273955080810931,-1.0594980511830951,-0.7137021990641488
0.000153,-0.7861701059418086,-0.7881797995557712,-1.0722201431831109,-0.7861701059418086
0.000154,-0.862223569394454,-0.7986956560608743,-1.0386345985167886,-0.862223569394454
0.000155,-0.9360008977149985,-0.7399056494616539,-0.9876695943709844,-0.9360008977149985
0.000156,-1.0014065519202766,-0.625832792567904,-0.9453785007609004,-1.0014065519202766
0.000157,-1.0537359677846674,-0.4700420997948623,-0.9769936901142439,-1.0537359677846674
0.000158,-1.0911400271040919,-0.31891314139103194,-1.0536013079948365,-1.0911400271040919
0.000159,-1.1161449491909512,-0.21420332415209828,-1.1297482111725734,-1.1161449491909512
0.00015999999999999999,-1.132419194626079,-0.1269762372408425,-1.1756542812874955,-1.132419194626079
0.00016099999999999998,-1.1410788194669683,-0.058977525250455465,-1.1869551304939012,-1.1410788194669683
0.00016199999999999998,-1.1440114313683085,-0.00268043250797517,-1.1421320919027111,-1.1440114313683085
0.000163,-1.140661935903461,0.07242136534055595,-1.1147396161802923,-1.140661935903461
0.000164,-1.1299646522377598,0.15253626560505043,-1.0951561872729965,-1.1299646522377598
0.000165,-1.1117298423138862,0.22761637646543806,-1.0645243528566746,-1.1117298423138862
0.000166,-1.086552508696831,0.300088046734021,-1.0311904263651948,-1.086552508696831
0.000167,-1.0545805523827156,0.37217120245097296,-0.9846516598004577,-1.0545805523827156
0.000168,-1.015836771174114,0.43716161416470484,-0.9403439903630428,-1.015836771174114
0.000169,-0.9714146683947866,0.4942141605869641,-0.8546137642075713,-0.9714146683947866
0.00016999999999999999,-0.9210978073121783,0.5673889328439874,-0.7660703655753365,-0.9210978073121783
0.00017099999999999998,-0.8631339550680486,0.6455135386053624,-0.6514536382876719,-0.8631339550680486
0.00017199999999999998,-0.7985601226202417,0.7201404902181787,-0.530339375435539,-0.7985601226202417
0.000173,-0.7235607577517718,0.8574305216554453,-0.3882939691103077,-0.7235607577517718
0.000174,-0.6351251785205295,0.99429027393721,-0.2994293658279693,-0.6351251785205295
0.000175,-0.535577384730076,1.0956518203716814,-0.2215497623158668,-0.535577384730076
0.000176,-0.4267400322599129,1.1823575286129384,-0.16426750629713666,-0.4267400322599129
0.000177,-0.3116409382365101,1.2237631392644115,-0.10081225598271726,-0.3116409382365101
0.000178,-0.1955364414333898,1.2107210245530595,-0.015606767746324902,-0.1955364414333898
0.000179,-0.08148727044566648,1.1779419180320638,0.013282888994136585,-0.08148727044566648
0.00017999999999999998,0.027788295019249704,1.1088176474698397,-0.026436553380749885,0.027788295019249704
0.00018099999999999998,0.1275976741420564,0.9704982124622271,-0.10119342250089228,0.1275976741420564
0.00018199999999999998,0.20929752478602187,0.7353654638961652,-0.1778054830902957,0.20929752478602187
0.000183,0.26556157919859824,0.43840447208376737,-0.30032420272749716,0.26556157919859824
0.000184,0.29028126760997686,0.07607322560622577,-0.4214384131994227,0.29028126760997686
0.000185,0.2783774270959086,-0.325174832503098,-0.5700988666048421,0.2783774270959086
0.000186,0.2261289582826156,-0.7806319633542244,-0.7393776331228292,0.2261289582826156
0.000187,0.1303878330979821,-1.2155333064322795,-0.8897241576428943,0.1303878330979821
0.000188,-0.005445517082712076,-1.647085118213717,-1.0003880554492857,-0.005445517082712076
0.00018899999999999999,-0.2472109783374875,-3.459047471320188,-1.1046130110425385,-0.2472109783374875
0.00018999999999999998,-0.6078937075447837,-3.7586499614352022,-1.2021707153683758,-0.6078937075447837
0.00019099999999999998,-0.9317370625194927,-2.8915972356711634,-1.2790159494479134,-0.9317370625194927
0.000192,-1.156198008815538,-1.850301346475342,-1.3639646342761886,-1.156198008815538
0.000193,-1.3150821311839318,-1.5553648603707535,-1.518482591565847,-1.3150821311839318
0.000194,-1.4555327826562916,-1.3919651854633759,-1.66683897119511,-1.4555327826562916
0.000195,-1.5815208131987548,-1.2500224315693444,-1.763963211356259,-1.5815208131987548
0.000196,-1.693981470166529,-1.105359211208059,-1.7710578930598142,-1.693981470166529
0.000197,-1.790696020046341,-0.9165804531384462,-1.6761844585935581,-1.790696020046341
0.000198,-1.8655208538943018,-0.639507061747559,-1.5432921914495659,-1.8655208538943018
0.00019899999999999999,-1.9094333383202633,-0.28006390285264565,-1.4210528817918158,-1.9094333383202633
0.00019999999999999998,-1.9166562233047282,0.1249598661032257,-1.3395575447110608,-1.9166562233047282
0.00020099999999999998,-1.8850414415749108,0.5316821107605308,-1.2585102249598203,-1.8850414415749108
0.000202,-1.8157129554081406,0.9217951063133581,-1.142149630553027,-1.8157129554081406
0.000203,-1.7095491523079804,1.2947001025738591,-0.9949947164173748,-1.7095491523079804
0.000204,-1.5683093982803602,1.6992452281759594,-0.8831558189582228,-1.5683093982803602
0.000205,-1.3361065967548011,3.1140792627594664,-0.775362663818054,-1.3361065967548011
0.000206,-1.0198157640008658,3.282377478254405,-0.6336930175089336,-1.0198157640008658
0.000207,-0.73022390150933,2.668212045943515,-0.43961970101130265,-0.73022390150933
0.000208,-0.5077895097118402,2.097016230682538,-0.2577977135081827,-0.5077895097118402
0.00020899999999999998,-0.3181286808182178,1.8113637264989608,-0.1291684023010749,-0.3181286808182178
0.00020999999999999998,-0.1526600965211005,1.648666207586136,-0.05378935463511888,-0.1526600965211005
0.00021099999999999998,-0.001824452685358777,1.5133451518260044,-0.015204179226875003,-0.001824452685358777
0.000212,0.13412358552331122,1.3358812340544697,-0.0011957026651291769,0.13412358552331122
0.000213,0.2510659603194665,1.1132694492264321,0.04275995135726658,0.2510659603194665
0.000214,0.3461297112394934,0.8825049839780718,0.12801208099403732,0.3461297112394934
0.000215,0.4193349094759414,0.6558309852294754,0.24071336888610553,0.4193349094759414
0.000216,0.472375492702816,0.47486595325608,0.37326366417086804,0.472375492702816
0.000217,0.5113752647182077,0.3423036958099912,0.47600630900465857,0.5113752647182077
0.00021799999999999999,0.5392887328978221,0.2547534359222406,0.5616574467575658,0.5392887328978221
0.00021899999999999998,0.5613389873191046,0.20661862336576284,0.6170553782071095,0.5613389873191046
0.00021999999999999998,0.5796286332326435,0.18379541703875,0.6661678921016626,0.5796286332326435
